HEADER
"PSFversion" "1.00"
"simulator" "spectre"
"version" "19.1.0.237.isr3"
"date" "1:51:17 PM, Sat Sep 10, 2022"
"design" "// Generated for: spectre"
"analysis type" "tran"
"analysis name" "sim"
"analysis description" "Transient Analysis `sim': time = (0 s -> 100 ps)"
"xVecSorted" "ascending"
"tolerance.relative" 0.00100000
"start" 0.00000
"outputstart" 0.00000
"stop" 1.00000e-10
"step" 1.00000e-13
"istep" 0.00100000
"maxstep" 2.00000e-12
"ic" "all"
"useprevic" "no"
"skipdc" "no"
"reltol" 0.00100000
"abstol(V)" 1.00000e-06
"abstol(I)" 1.00000e-12
"temp" 27.0000
"tnom" 27.0000
"tempeffects" "all"
"errpreset" "moderate"
"method" "traponly"
"lteratio" 3.50000
"relref" "sigglobal"
"cmin" 0.00000
"gmin" 1.00000e-12
TYPE
"sweep" FLOAT DOUBLE PROP(
"key" "sweep"
)
"LogicV" FLOAT DOUBLE PROP(
"key" "node"
)
"Tau" FLOAT DOUBLE PROP(
"units" "N*m"
"key" "node"
"tolerance" 1.00000e-06
)
"Alpha" FLOAT DOUBLE PROP(
"units" "rads/s^2"
"key" "node"
"tolerance" 1.00000e-06
)
"Omega" FLOAT DOUBLE PROP(
"units" "rads/s"
"key" "node"
"tolerance" 1.00000e-06
)
"Theta" FLOAT DOUBLE PROP(
"units" "rads"
"key" "node"
"tolerance" 1.00000e-06
)
"F" FLOAT DOUBLE PROP(
"units" "N"
"key" "node"
"tolerance" 1.00000e-06
)
"Imp" FLOAT DOUBLE PROP(
"units" "m/s^3"
"key" "node"
"tolerance" 1.00000e-06
)
"Acc" FLOAT DOUBLE PROP(
"units" "m/s^2"
"key" "node"
"tolerance" 1.00000e-06
)
"Vel" FLOAT DOUBLE PROP(
"units" "m/s"
"key" "node"
"tolerance" 1.00000e-06
)
"Pos" FLOAT DOUBLE PROP(
"units" "m"
"key" "node"
"tolerance" 1.00000e-06
)
"Phi" FLOAT DOUBLE PROP(
"units" "Wb"
"key" "node"
"tolerance" 1.00000e-09
)
"V" FLOAT DOUBLE PROP(
"units" "V"
"key" "node"
"tolerance" 1.00000e-06
)
"I" FLOAT DOUBLE PROP(
"units" "A"
"key" "branch"
"tolerance" 1.00000e-12
)
"MMF" FLOAT DOUBLE PROP(
"units" "A*turn"
"key" "node"
"tolerance" 1.00000e-12
)
"Wb" FLOAT DOUBLE PROP(
"units" "Wb"
"key" "node"
"tolerance" 1.00000e-09
)
"Temp" FLOAT DOUBLE PROP(
"units" "C"
"key" "node"
"tolerance" 0.000100000
)
"Pwr" FLOAT DOUBLE PROP(
"units" "W"
"key" "node"
"tolerance" 1.00000e-09
)
"U" FLOAT DOUBLE PROP(
"units" ""
"key" "node"
"tolerance" 1.00000e-06
)
"V/Sec" FLOAT DOUBLE PROP(
"units" "V/s"
"key" "node"
"tolerance" 0.000100000
)
"I/Sec" FLOAT DOUBLE PROP(
"units" "A/s"
"key" "node"
"tolerance" 1.00000e-06
)
"1/Sec" FLOAT DOUBLE PROP(
"units" "1/s"
"key" "node"
"tolerance" 0.000100000
)
"HOD" FLOAT DOUBLE PROP(
"units" ""
"key" "node"
"tolerance" 0.0100000
)
"Q" FLOAT DOUBLE PROP(
"units" "coul"
"key" "node"
"tolerance" 1.00000e-14
)
SWEEP
"time" "sweep" PROP(
"sweep_direction" 0
"units" "s"
"plot" 0
"grid" 1
)
TRACE
"in0" "V"
"in1" "V"
"net13" "V"
"out" "V"
"V0:p" "I"
"V1:p" "I"
"VDD:p" "I"
"VSS:p" "I"
"vdd" "V"
"vss" "V"
VALUE
"time" 0.000000000000000e+00
"in0" 0.000000000000000e+00
"in1" 1.200000000000000e+00
"net13" 2.522254161175162e-07
"out" 1.199998608538689e+00
"V0:p" -2.292918816276842e-11
"V1:p" 3.016577400687568e-11
"VDD:p" -1.585927201598540e-10
"VSS:p" 1.513562509904299e-10
"vdd" 1.200000000000000e+00
"vss" 0.000000000000000e+00
"time" 1.000000000000000e-13
"in0" 0.000000000000000e+00
"in1" 1.200000000000000e+00
"net13" 1.168897260393429e-04
"out" 1.201476816811211e+00
"V0:p" 3.649786787087446e-06
"V1:p" 1.089542072815706e-05
"VDD:p" -1.498123116710801e-05
"VSS:p" 4.360236518626346e-07
"vdd" 1.200000000000000e+00
"vss" 0.000000000000000e+00
"time" 1.500000000000000e-13
"in0" 0.000000000000000e+00
"in1" 1.200000000000000e+00
"net13" 2.034139091669564e-04
"out" 1.202580930427722e+00
"V0:p" 5.554822939052436e-06
"V1:p" 1.628190966920608e-05
"VDD:p" -2.250022894745151e-05
"VSS:p" 6.634963391912637e-07
"vdd" 1.200000000000000e+00
"vss" 0.000000000000000e+00
"time" 2.500000000000000e-13
"in0" 0.000000000000000e+00
"in1" 1.200000000000000e+00
"net13" 4.307595178600464e-04
"out" 1.205507281169810e+00
"V0:p" 9.577690950871693e-06
"V1:p" 2.690347811436036e-05
"VDD:p" -3.761615062719600e-05
"VSS:p" 1.134981561977823e-06
"vdd" 1.200000000000000e+00
"vss" 0.000000000000000e+00
"time" 4.500000000000001e-13
"in0" 0.000000000000000e+00
"in1" 1.200000000000000e+00
"net13" 1.192110525165734e-03
"out" 1.215590581283565e+00
"V0:p" 1.808502508854062e-05
"V1:p" 4.766348413026915e-05
"VDD:p" -6.793491197668608e-05
"VSS:p" 2.186402757859816e-06
"vdd" 1.200000000000000e+00
"vss" 0.000000000000000e+00
"time" 7.250000000000000e-13
"in0" 0.000000000000000e+00
"in1" 1.200000000000000e+00
"net13" 2.827815587756333e-03
"out" 1.238304329752846e+00
"V0:p" 3.117184692957459e-05
"V1:p" 7.529950122031624e-05
"VDD:p" -1.102921031602098e-04
"VSS:p" 3.820755010333701e-06
"vdd" 1.200000000000000e+00
"vss" 0.000000000000000e+00
"time" 1.000000000000000e-12
"in0" 0.000000000000000e+00
"in1" 1.200000000000000e+00
"net13" 5.037198727143805e-03
"out" 1.270750428079072e+00
"V0:p" 4.523680300945101e-05
"V1:p" 1.023823459591084e-04
"VDD:p" -1.532479313387860e-04
"VSS:p" 5.628782370210925e-06
"vdd" 1.200000000000000e+00
"vss" 0.000000000000000e+00
"time" 1.550000000000000e-12
"in0" 0.000000000000000e+00
"in1" 1.200000000000000e+00
"net13" 8.751944384512850e-03
"out" 1.340500703838790e+00
"V0:p" 4.595088788008149e-05
"V1:p" 9.713039906229283e-05
"VDD:p" -1.500395297104470e-04
"VSS:p" 6.958242768072915e-06
"vdd" 1.200000000000000e+00
"vss" 0.000000000000000e+00
"time" 1.954231414659869e-12
"in0" 0.000000000000000e+00
"in1" 1.200000000000000e+00
"net13" 1.105095763337193e-02
"out" 1.389165619387466e+00
"V0:p" 5.506051097426105e-05
"V1:p" 9.169612173640267e-05
"VDD:p" -1.542844476382601e-04
"VSS:p" 7.527814927597279e-06
"vdd" 1.200000000000000e+00
"vss" 0.000000000000000e+00
"time" 2.571501278319529e-12
"in0" 0.000000000000000e+00
"in1" 1.200000000000000e+00
"net13" 1.349223327106834e-02
"out" 1.458030512195774e+00
"V0:p" 5.170843446939122e-05
"V1:p" 8.693481883782319e-05
"VDD:p" -1.470773254299432e-04
"VSS:p" 8.434072122727093e-06
"vdd" 1.200000000000000e+00
"vss" 0.000000000000000e+00
"time" 3.806041005638847e-12
"in0" 0.000000000000000e+00
"in1" 1.200000000000000e+00
"net13" 1.580231580440238e-02
"out" 1.579926573600787e+00
"V0:p" 5.970273710232207e-05
"V1:p" 7.654827397726436e-05
"VDD:p" -1.450311429201673e-04
"VSS:p" 8.780131840583000e-06
"vdd" 1.200000000000000e+00
"vss" 0.000000000000000e+00
"time" 4.903020502819423e-12
"in0" 0.000000000000000e+00
"in1" 1.200000000000000e+00
"net13" 1.608581364673036e-02
"out" 1.674558791081933e+00
"V0:p" 4.891949352240182e-05
"V1:p" 7.180243257019767e-05
"VDD:p" -1.295363734376346e-04
"VSS:p" 8.814447345032485e-06
"vdd" 1.200000000000000e+00
"vss" 0.000000000000000e+00
"time" 5.999999999999999e-12
"in0" 0.000000000000000e+00
"in1" 1.200000000000000e+00
"net13" 1.553630430537787e-02
"out" 1.758894731220362e+00
"V0:p" 5.236735311839007e-05
"V1:p" 6.448468770877988e-05
"VDD:p" -1.250088647346770e-04
"VSS:p" 8.156823907509828e-06
"vdd" 1.200000000000000e+00
"vss" 0.000000000000000e+00
"time" 6.604762890115866e-12
"in0" 0.000000000000000e+00
"in1" 1.200000000000000e+00
"net13" 1.456069735574256e-02
"out" 1.792915656192177e+00
"V0:p" 3.711031686934460e-05
"V1:p" 5.042561434988109e-05
"VDD:p" -9.499577492721708e-05
"VSS:p" 7.459843707991829e-06
"vdd" 1.200000000000000e+00
"vss" 0.000000000000000e+00
"time" 7.758864771980526e-12
"in0" 0.000000000000000e+00
"in1" 1.200000000000000e+00
"net13" 1.196047525400606e-02
"out" 1.840426089778973e+00
"V0:p" 1.653235099341326e-05
"V1:p" 2.360944039069763e-05
"VDD:p" -4.578819816332757e-05
"VSS:p" 5.646406779216054e-06
"vdd" 1.200000000000000e+00
"vss" 0.000000000000000e+00
"time" 9.286534936435240e-12
"in0" 0.000000000000000e+00
"in1" 1.200000000000000e+00
"net13" 7.146654914491995e-03
"out" 1.854686031515995e+00
"V0:p" -7.522375847300817e-06
"V1:p" -8.479977072683806e-06
"VDD:p" 1.314551476465229e-05
"VSS:p" 2.856838155332570e-06
"vdd" 1.200000000000000e+00
"vss" 0.000000000000000e+00
"time" 1.014326746821762e-11
"in0" 0.000000000000000e+00
"in1" 1.200000000000000e+00
"net13" 4.153122089800201e-03
"out" 1.840605628298112e+00
"V0:p" -1.943229266516559e-05
"V1:p" -2.429464675026823e-05
"VDD:p" 4.256891092420878e-05
"VSS:p" 1.158028491225019e-06
"vdd" 1.200000000000000e+00
"vss" 0.000000000000000e+00
"time" 1.100000000000000e-11
"in0" 0.000000000000000e+00
"in1" 1.200000000000000e+00
"net13" 1.128549301669520e-03
"out" 1.812106703216016e+00
"V0:p" -3.058116079931529e-05
"V1:p" -3.930769175985685e-05
"VDD:p" 7.037106423649730e-05
"VSS:p" -4.822116773238675e-07
"vdd" 1.200000000000000e+00
"vss" 0.000000000000000e+00
"time" 1.271346506356476e-11
"in0" 0.000000000000000e+00
"in1" 1.200000000000000e+00
"net13" -2.479496308632909e-03
"out" 1.749652370563562e+00
"V0:p" -2.604923112232464e-05
"V1:p" -3.380639910660758e-05
"VDD:p" 6.133691723693286e-05
"VSS:p" -1.481287008000379e-06
"vdd" 1.200000000000000e+00
"vss" 0.000000000000000e+00
"time" 1.392514375353808e-11
"in0" 0.000000000000000e+00
"in1" 1.200000000000000e+00
"net13" -4.514695221557972e-03
"out" 1.707061998386236e+00
"V0:p" -2.293117374343572e-05
"V1:p" -3.006205695528587e-05
"VDD:p" 5.515007711670746e-05
"VSS:p" -2.156846417986316e-06
"vdd" 1.200000000000000e+00
"vss" 0.000000000000000e+00
"time" 1.592514375353808e-11
"in0" 0.000000000000000e+00
"in1" 1.200000000000000e+00
"net13" -5.483522373772212e-03
"out" 1.644342887338180e+00
"V0:p" -1.841964094458613e-05
"V1:p" -2.516233563374591e-05
"VDD:p" 4.690041403048833e-05
"VSS:p" -3.318437452155742e-06
"vdd" 1.200000000000000e+00
"vss" 0.000000000000000e+00
"time" 1.792514375353808e-11
"in0" 0.000000000000000e+00
"in1" 1.200000000000000e+00
"net13" -5.262397511920111e-03
"out" 1.589661396008381e+00
"V0:p" -1.552006824194834e-05
"V1:p" -2.153722714636261e-05
"VDD:p" 3.971423028734017e-05
"VSS:p" -2.656934899029860e-06
"vdd" 1.200000000000000e+00
"vss" 0.000000000000000e+00
"time" 1.992514375353808e-11
"in0" 0.000000000000000e+00
"in1" 1.200000000000000e+00
"net13" -4.783234345231278e-03
"out" 1.541581041407924e+00
"V0:p" -1.262196582617132e-05
"V1:p" -1.857600691067943e-05
"VDD:p" 3.414651528447261e-05
"VSS:p" -2.948542547622178e-06
"vdd" 1.200000000000000e+00
"vss" 0.000000000000000e+00
"time" 2.192514375353808e-11
"in0" 0.000000000000000e+00
"in1" 1.200000000000000e+00
"net13" -4.292267897230488e-03
"out" 1.499040985379981e+00
"V0:p" -1.071057059209239e-05
"V1:p" -1.622457580705529e-05
"VDD:p" 2.905492098711031e-05
"VSS:p" -2.119774587962192e-06
"vdd" 1.200000000000000e+00
"vss" 0.000000000000000e+00
"time" 2.392514375353808e-11
"in0" 0.000000000000000e+00
"in1" 1.200000000000000e+00
"net13" -3.841021538987120e-03
"out" 1.461301102242799e+00
"V0:p" -8.548211198517681e-06
"V1:p" -1.412053316735250e-05
"VDD:p" 2.509193063105949e-05
"VSS:p" -2.423186265189313e-06
"vdd" 1.200000000000000e+00
"vss" 0.000000000000000e+00
"time" 2.592514375353808e-11
"in0" 0.000000000000000e+00
"in1" 1.200000000000000e+00
"net13" -3.431089916092594e-03
"out" 1.427839555521732e+00
"V0:p" -7.263995052537093e-06
"V1:p" -1.237136120257656e-05
"VDD:p" 2.127459328151546e-05
"VSS:p" -1.639237026401708e-06
"vdd" 1.200000000000000e+00
"vss" 0.000000000000000e+00
"time" 2.792514375353807e-11
"in0" 0.000000000000000e+00
"in1" 1.200000000000000e+00
"net13" -3.056245449976748e-03
"out" 1.398250262510044e+00
"V0:p" -5.670763799280008e-06
"V1:p" -1.073066583706417e-05
"VDD:p" 1.838688881310577e-05
"VSS:p" -1.985459176761690e-06
"vdd" 1.200000000000000e+00
"vss" 0.000000000000000e+00
"time" 2.992514375353807e-11
"in0" 0.000000000000000e+00
"in1" 1.200000000000000e+00
"net13" -2.712166326283048e-03
"out" 1.372178406758369e+00
"V0:p" -4.898801827382223e-06
"V1:p" -9.371796007879124e-06
"VDD:p" 1.550893259545561e-05
"VSS:p" -1.238334760193938e-06
"vdd" 1.200000000000000e+00
"vss" 0.000000000000000e+00
"time" 3.192514375353807e-11
"in0" 0.000000000000000e+00
"in1" 1.200000000000000e+00
"net13" -2.396929447394502e-03
"out" 1.349291302287607e+00
"V0:p" -3.749415365375115e-06
"V1:p" -8.078466172316266e-06
"VDD:p" 1.344562929893187e-05
"VSS:p" -1.617747761240380e-06
"vdd" 1.200000000000000e+00
"vss" 0.000000000000000e+00
"time" 3.392514375353807e-11
"in0" 0.000000000000000e+00
"in1" 1.200000000000000e+00
"net13" -2.109800320343580e-03
"out" 1.329269451644160e+00
"V0:p" -3.347792712819320e-06
"V1:p" -7.035614691584545e-06
"VDD:p" 1.128566368008622e-05
"VSS:p" -9.022562756824660e-07
"vdd" 1.200000000000000e+00
"vss" 0.000000000000000e+00
"time" 3.592514375353807e-11
"in0" 0.000000000000000e+00
"in1" 1.200000000000000e+00
"net13" -1.850247921346551e-03
"out" 1.311806924810034e+00
"V0:p" -2.499140314857869e-06
"V1:p" -6.030392547911218e-06
"VDD:p" 9.842119629868940e-06
"VSS:p" -1.312586767099854e-06
"vdd" 1.200000000000000e+00
"vss" 0.000000000000000e+00
"time" 3.792514375353807e-11
"in0" 0.000000000000000e+00
"in1" 1.200000000000000e+00
"net13" -1.617444221711064e-03
"out" 1.296614891111238e+00
"V0:p" -2.337866174522528e-06
"V1:p" -5.248327381895130e-06
"VDD:p" 8.213474714967838e-06
"VSS:p" -6.272811585502880e-07
"vdd" 1.200000000000000e+00
"vss" 0.000000000000000e+00
"time" 3.992514375353807e-11
"in0" 0.000000000000000e+00
"in1" 1.200000000000000e+00
"net13" -1.410124044412221e-03
"out" 1.283425173344581e+00
"V0:p" -1.679947486294209e-06
"V1:p" -4.476794172769619e-06
"VDD:p" 7.223410293271580e-06
"VSS:p" -1.066668634207207e-06
"vdd" 1.200000000000000e+00
"vss" 0.000000000000000e+00
"time" 4.192514375353807e-11
"in0" 0.000000000000000e+00
"in1" 1.200000000000000e+00
"net13" -1.226639805035835e-03
"out" 1.271992587082052e+00
"V0:p" -1.669893926909559e-06
"V1:p" -3.902085918394282e-06
"VDD:p" 5.980812366064372e-06
"VSS:p" -4.088325207616144e-07
"vdd" 1.200000000000000e+00
"vss" 0.000000000000000e+00
"time" 4.392514375353807e-11
"in0" 0.000000000000000e+00
"in1" 1.200000000000000e+00
"net13" -1.065089906772383e-03
"out" 1.262095860218912e+00
"V0:p" -1.132223670107944e-06
"V1:p" -3.313009736403962e-06
"VDD:p" 5.318973122236948e-06
"VSS:p" -8.737397157241750e-07
"vdd" 1.200000000000000e+00
"vss" 0.000000000000000e+00
"time" 4.592514375353807e-11
"in0" 0.000000000000000e+00
"in1" 1.200000000000000e+00
"net13" -9.234526422608737e-04
"out" 1.253537371238107e+00
"V0:p" -1.218290559455101e-06
"V1:p" -2.897783301768555e-06
"VDD:p" 4.355330218643771e-06
"VSS:p" -2.392563574206564e-07
"vdd" 1.200000000000000e+00
"vss" 0.000000000000000e+00
"time" 4.792514375353807e-11
"in0" 0.000000000000000e+00
"in1" 1.200000000000000e+00
"net13" -7.996961580186508e-04
"out" 1.246142060663728e+00
"V0:p" -7.579493233530233e-07
"V1:p" -2.447399560698682e-06
"VDD:p" 3.930618024639205e-06
"VSS:p" -7.252691405872843e-07
"vdd" 1.200000000000000e+00
"vss" 0.000000000000000e+00
"time" 4.992514375353807e-11
"in0" 0.000000000000000e+00
"in1" 1.200000000000000e+00
"net13" -6.918571284488390e-04
"out" 1.239755840635973e+00
"V0:p" -9.066629785901324e-07
"V1:p" -2.152329977826778e-06
"VDD:p" 3.168663837468072e-06
"VSS:p" -1.096708810514866e-07
"vdd" 1.200000000000000e+00
"vss" 0.000000000000000e+00
"time" 5.192514375353807e-11
"in0" 0.000000000000000e+00
"in1" 1.200000000000000e+00
"net13" -5.980909574551381e-04
"out" 1.234243752173752e+00
"V0:p" -4.974368094681184e-07
"V1:p" -1.805756639546214e-06
"VDD:p" 2.915641930579217e-06
"VSS:p" -6.124484815642343e-07
"vdd" 1.200000000000000e+00
"vss" 0.000000000000000e+00
"time" 5.392514375353807e-11
"in0" 0.000000000000000e+00
"in1" 1.200000000000000e+00
"net13" -5.166996956986305e-04
"out" 1.229488043312519e+00
"V0:p" -6.881494293629706e-07
"V1:p" -1.600196885163111e-06
"VDD:p" 2.299986214634819e-06
"VSS:p" -1.163990010982113e-08
"vdd" 1.200000000000000e+00
"vss" 0.000000000000000e+00
"time" 5.592514375353807e-11
"in0" 0.000000000000000e+00
"in1" 1.200000000000000e+00
"net13" -4.461439964988525e-04
"out" 1.225386279503370e+00
"V0:p" -3.136618668435091e-07
"V1:p" -1.330696418563257e-06
"VDD:p" 2.171758734157668e-06
"VSS:p" -5.274004487494930e-07
"vdd" 1.200000000000000e+00
"vss" 0.000000000000000e+00
"time" 5.792514375353807e-11
"in0" 0.000000000000000e+00
"in1" 1.200000000000000e+00
"net13" -3.850443489759612e-04
"out" 1.221849552850822e+00
"V0:p" -5.332824171048600e-07
"V1:p" -1.191440874270355e-06
"VDD:p" 1.662667876567655e-06
"VSS:p" 6.205541480636695e-08
"vdd" 1.200000000000000e+00
"vss" 0.000000000000000e+00
"time" 5.992514375353807e-11
"in0" 0.000000000000000e+00
"in1" 1.200000000000000e+00
"net13" -3.321755023806197e-04
"out" 1.218800826432606e+00
"V0:p" -1.829774932810163e-07
"V1:p" -9.789513029779559e-07
"VDD:p" 1.625531002552149e-06
"VSS:p" -4.636022062912254e-07
"vdd" 1.200000000000000e+00
"vss" 0.000000000000000e+00
"time" 6.192514375353807e-11
"in0" 0.000000000000000e+00
"in1" 1.200000000000000e+00
"net13" -2.864568328383884e-04
"out" 1.216173430350877e+00
"V0:p" -4.229142999424735e-07
"V1:p" -8.887064349434718e-07
"VDD:p" 1.194374949374769e-06
"VSS:p" 1.172457855097672e-07
"vdd" 1.200000000000000e+00
"vss" 0.000000000000000e+00
"time" 6.392514375353808e-11
"in0" 0.000000000000000e+00
"in1" 1.200000000000000e+00
"net13" -2.469405186156407e-04
"out" 1.213909713865402e+00
"V0:p" -8.973158792790160e-08
"V1:p" -7.183528045791201e-07
"VDD:p" 1.223969603245275e-06
"VSS:p" -4.158852107366263e-07
"vdd" 1.200000000000000e+00
"vss" 0.000000000000000e+00
"time" 6.592514375353809e-11
"in0" 0.000000000000000e+00
"in1" 1.200000000000000e+00
"net13" -2.127987700714636e-04
"out" 1.211959850310104e+00
"V0:p" -3.441284659489455e-07
"V1:p" -6.643431399033320e-07
"VDD:p" 8.499888369736928e-07
"VSS:p" 1.584827688767414e-07
"vdd" 1.200000000000000e+00
"vss" 0.000000000000000e+00
"time" 6.792514375353809e-11
"in0" 0.000000000000000e+00
"in1" 1.200000000000000e+00
"net13" -1.833109455496161e-04
"out" 1.210280786718265e+00
"V0:p" -2.317035959035845e-08
"V1:p" -5.251628390861751e-07
"VDD:p" 9.285949907349571e-07
"VSS:p" -3.802617920562549e-07
"vdd" 1.200000000000000e+00
"vss" 0.000000000000000e+00
"time" 6.992514375353810e-11
"in0" 0.000000000000000e+00
"in1" 1.200000000000000e+00
"net13" -1.578511072698603e-04
"out" 1.208835327131336e+00
"V0:p" -2.879041683632978e-07
"V1:p" -4.979843074972768e-07
"VDD:p" 5.966422433677107e-07
"VSS:p" 1.892462324902621e-07
"vdd" 1.200000000000000e+00
"vss" 0.000000000000000e+00
"time" 7.192514375353810e-11
"in0" 0.000000000000000e+00
"in1" 1.200000000000000e+00
"net13" -1.358763772711995e-04
"out" 1.207591336893369e+00
"V0:p" 2.431656568469271e-08
"V1:p" -3.819086176306481e-07
"VDD:p" 7.112961477437605e-07
"VSS:p" -3.537040957946609e-07
"vdd" 1.200000000000000e+00
"vss" 0.000000000000000e+00
"time" 7.392514375353811e-11
"in0" 0.000000000000000e+00
"in1" 1.200000000000000e+00
"net13" -1.169163077623618e-04
"out" 1.206521054553863e+00
"V0:p" -2.477971368216171e-07
"V1:p" -3.746339991988576e-07
"VDD:p" 4.102657835480227e-07
"VSS:p" 2.121653524691994e-07
"vdd" 1.200000000000000e+00
"vss" 0.000000000000000e+00
"time" 7.592514375353812e-11
"in0" 0.000000000000000e+00
"in1" 1.200000000000000e+00
"net13" -1.005633658540745e-04
"out" 1.205600498123557e+00
"V0:p" 5.819564161083558e-08
"V1:p" -2.757104023323178e-07
"VDD:p" 5.514468664397473e-07
"VSS:p" -3.339321057150127e-07
"vdd" 1.200000000000000e+00
"vss" 0.000000000000000e+00
"time" 7.792514375353812e-11
"in0" 0.000000000000000e+00
"in1" 1.200000000000000e+00
"net13" -8.646454413567542e-05
"out" 1.204808953159230e+00
"V0:p" -2.191696795456220e-07
"V1:p" -2.832194839943933e-07
"VDD:p" 2.731732387375211e-07
"VSS:p" 2.292159247994581e-07
"vdd" 1.200000000000000e+00
"vss" 0.000000000000000e+00
"time" 7.992514375353813e-11
"in0" 0.000000000000000e+00
"in1" 1.200000000000000e+00
"net13" -7.431404493622856e-05
"out" 1.204128531288546e+00
"V0:p" 8.239745640035026e-08
"V1:p" -1.970391903280989e-07
"VDD:p" 4.338759202119842e-07
"VSS:p" -3.192341862809826e-07
"vdd" 1.200000000000000e+00
"vss" 0.000000000000000e+00
"time" 8.192514375353813e-11
"in0" 0.000000000000000e+00
"in1" 1.200000000000000e+00
"net13" -6.384694623633692e-05
"out" 1.203543789124085e+00
"V0:p" -1.986961758632133e-07
"V1:p" -2.155323088775758e-07
"VDD:p" 1.723478353481177e-07
"VSS:p" 2.418806493896358e-07
"vdd" 1.200000000000000e+00
