HEADER
"PSFversion" "1.00"
"simulator" "spectre"
"version" "19.1.0.237.isr3"
"date" "1:46:49 AM, Sat Sep 10, 2022"
"design" "// Generated for: spectre"
"analysis type" "tran"
"analysis name" "sim"
"analysis description" "Transient Analysis `sim': time = (0 s -> 100 ps)"
"xVecSorted" "ascending"
"tolerance.relative" 0.00100000
"start" 0.00000
"outputstart" 0.00000
"stop" 1.00000e-10
"step" 1.00000e-13
"istep" 0.00100000
"maxstep" 2.00000e-12
"ic" "all"
"useprevic" "no"
"skipdc" "no"
"reltol" 0.00100000
"abstol(V)" 1.00000e-06
"abstol(I)" 1.00000e-12
"temp" 27.0000
"tnom" 27.0000
"tempeffects" "all"
"errpreset" "moderate"
"method" "traponly"
"lteratio" 3.50000
"relref" "sigglobal"
"cmin" 0.00000
"gmin" 1.00000e-12
TYPE
"sweep" FLOAT DOUBLE PROP(
"key" "sweep"
)
"LogicV" FLOAT DOUBLE PROP(
"key" "node"
)
"Tau" FLOAT DOUBLE PROP(
"units" "N*m"
"key" "node"
"tolerance" 1.00000e-06
)
"Alpha" FLOAT DOUBLE PROP(
"units" "rads/s^2"
"key" "node"
"tolerance" 1.00000e-06
)
"Omega" FLOAT DOUBLE PROP(
"units" "rads/s"
"key" "node"
"tolerance" 1.00000e-06
)
"Theta" FLOAT DOUBLE PROP(
"units" "rads"
"key" "node"
"tolerance" 1.00000e-06
)
"F" FLOAT DOUBLE PROP(
"units" "N"
"key" "node"
"tolerance" 1.00000e-06
)
"Imp" FLOAT DOUBLE PROP(
"units" "m/s^3"
"key" "node"
"tolerance" 1.00000e-06
)
"Acc" FLOAT DOUBLE PROP(
"units" "m/s^2"
"key" "node"
"tolerance" 1.00000e-06
)
"Vel" FLOAT DOUBLE PROP(
"units" "m/s"
"key" "node"
"tolerance" 1.00000e-06
)
"Pos" FLOAT DOUBLE PROP(
"units" "m"
"key" "node"
"tolerance" 1.00000e-06
)
"Phi" FLOAT DOUBLE PROP(
"units" "Wb"
"key" "node"
"tolerance" 1.00000e-09
)
"V" FLOAT DOUBLE PROP(
"units" "V"
"key" "node"
"tolerance" 1.00000e-06
)
"I" FLOAT DOUBLE PROP(
"units" "A"
"key" "branch"
"tolerance" 1.00000e-12
)
"MMF" FLOAT DOUBLE PROP(
"units" "A*turn"
"key" "node"
"tolerance" 1.00000e-12
)
"Wb" FLOAT DOUBLE PROP(
"units" "Wb"
"key" "node"
"tolerance" 1.00000e-09
)
"Temp" FLOAT DOUBLE PROP(
"units" "C"
"key" "node"
"tolerance" 0.000100000
)
"Pwr" FLOAT DOUBLE PROP(
"units" "W"
"key" "node"
"tolerance" 1.00000e-09
)
"U" FLOAT DOUBLE PROP(
"units" ""
"key" "node"
"tolerance" 1.00000e-06
)
"V/Sec" FLOAT DOUBLE PROP(
"units" "V/s"
"key" "node"
"tolerance" 0.000100000
)
"I/Sec" FLOAT DOUBLE PROP(
"units" "A/s"
"key" "node"
"tolerance" 1.00000e-06
)
"1/Sec" FLOAT DOUBLE PROP(
"units" "1/s"
"key" "node"
"tolerance" 0.000100000
)
"HOD" FLOAT DOUBLE PROP(
"units" ""
"key" "node"
"tolerance" 0.0100000
)
"Q" FLOAT DOUBLE PROP(
"units" "coul"
"key" "node"
"tolerance" 1.00000e-14
)
SWEEP
"time" "sweep" PROP(
"sweep_direction" 0
"units" "s"
"plot" 0
"grid" 1
)
TRACE
"in0" "V"
"in1" "V"
"net13" "V"
"out" "V"
"V0:p" "I"
"V1:p" "I"
"VDD:p" "I"
"VSS:p" "I"
"vdd" "V"
"vss" "V"
VALUE
"time" 0.000000000000000e+00
"in0" 1.200000000000000e+00
"in1" 0.000000000000000e+00
"net13" 1.175255987389764e+00
"out" 1.199998622265821e+00
"V0:p" 2.999488749051789e-11
"V1:p" -2.885339490148764e-16
"VDD:p" -1.571690853367175e-10
"VSS:p" 1.271602942602738e-10
"vdd" 1.200000000000000e+00
"vss" 0.000000000000000e+00
"time" 1.000000000000000e-13
"in0" 1.200000000000000e+00
"in1" 0.000000000000000e+00
"net13" 1.172824447675917e+00
"out" 1.199780989234316e+00
"V0:p" -6.615719875581993e-06
"V1:p" -9.213410832064301e-06
"VDD:p" -1.396246373541681e-06
"VSS:p" 1.722537708118798e-05
"vdd" 1.200000000000000e+00
"vss" 0.000000000000000e+00
"time" 2.840741814671650e-13
"in0" 1.200000000000000e+00
"in1" 0.000000000000000e+00
"net13" 1.160101078885975e+00
"out" 1.198650579119683e+00
"V0:p" -1.878274373370014e-05
"V1:p" -2.612591178759368e-05
"VDD:p" -4.008586755316030e-06
"VSS:p" 4.891724227661115e-05
"vdd" 1.200000000000000e+00
"vss" 0.000000000000000e+00
"time" 5.969872113384567e-13
"in0" 1.200000000000000e+00
"in1" 0.000000000000000e+00
"net13" 1.126464988579192e+00
"out" 1.195683964548759e+00
"V0:p" -3.955793690617135e-05
"V1:p" -5.460532528592887e-05
"VDD:p" -8.447096553051865e-06
"VSS:p" 1.026103587451517e-04
"vdd" 1.200000000000000e+00
"vss" 0.000000000000000e+00
"time" 7.984936056692284e-13
"in0" 1.200000000000000e+00
"in1" 0.000000000000000e+00
"net13" 1.092030766628860e+00
"out" 1.192682587514786e+00
"V0:p" -5.298732807983987e-05
"V1:p" -7.270720529480589e-05
"VDD:p" -1.124919567840717e-05
"VSS:p" 1.369437290530517e-04
"vdd" 1.200000000000000e+00
"vss" 0.000000000000000e+00
"time" 1.000000000000000e-12
"in0" 1.200000000000000e+00
"in1" 0.000000000000000e+00
"net13" 1.047518999225598e+00
"out" 1.188865888540138e+00
"V0:p" -6.629857600503872e-05
"V1:p" -9.090374651458339e-05
"VDD:p" -1.399810006614578e-05
"VSS:p" 1.712004225857643e-04
"vdd" 1.200000000000000e+00
"vss" 0.000000000000000e+00
"time" 1.403012788661543e-12
"in0" 1.200000000000000e+00
"in1" 0.000000000000000e+00
"net13" 9.486463316867393e-01
"out" 1.180911082479188e+00
"V0:p" -6.556793381909952e-05
"V1:p" -9.134495769709963e-05
"VDD:p" -1.400203928655042e-05
"VSS:p" 1.709149308027491e-04
"vdd" 1.200000000000000e+00
"vss" 0.000000000000000e+00
"time" 1.705874721797434e-12
"in0" 1.200000000000000e+00
"in1" 0.000000000000000e+00
"net13" 8.760859324696192e-01
"out" 1.175832494097750e+00
"V0:p" -5.996131755605328e-05
"V1:p" -1.004677738355117e-04
"VDD:p" -1.072254849434303e-05
"VSS:p" 1.711516398859088e-04
"vdd" 1.200000000000000e+00
"vss" 0.000000000000000e+00
"time" 2.083538250379539e-12
"in0" 1.200000000000000e+00
"in1" 0.000000000000000e+00
"net13" 7.925942785932794e-01
"out" 1.171968407149165e+00
"V0:p" -5.068065448379153e-05
"V1:p" -1.167550815343596e-04
"VDD:p" -6.932759364294055e-06
"VSS:p" 1.743684953824449e-04
"vdd" 1.200000000000000e+00
"vss" 0.000000000000000e+00
"time" 2.630934074689518e-12
"in0" 1.200000000000000e+00
"in1" 0.000000000000000e+00
"net13" 6.884203584029749e-01
"out" 1.170230781249332e+00
"V0:p" -3.903488060300337e-05
"V1:p" -1.358011955280560e-04
"VDD:p" -2.769213356631731e-06
"VSS:p" 1.776052894876926e-04
"vdd" 1.200000000000000e+00
"vss" 0.000000000000000e+00
"time" 3.466880643134243e-12
"in0" 1.200000000000000e+00
"in1" 0.000000000000000e+00
"net13" 5.526474434074348e-01
"out" 1.165046969794435e+00
"V0:p" -4.107186714062109e-05
"V1:p" -1.276627367597427e-04
"VDD:p" -1.133118064418949e-05
"VSS:p" 1.800657845445515e-04
"vdd" 1.200000000000000e+00
"vss" 0.000000000000000e+00
"time" 4.196071251025757e-12
"in0" 1.200000000000000e+00
"in1" 0.000000000000000e+00
"net13" 4.506440451542764e-01
"out" 1.151928953377556e+00
"V0:p" -4.029896335485792e-05
"V1:p" -1.234031305052520e-04
"VDD:p" -1.848548223824690e-05
"VSS:p" 1.821875760983587e-04
"vdd" 1.200000000000000e+00
"vss" 0.000000000000000e+00
"time" 5.214620635132188e-12
"in0" 1.200000000000000e+00
"in1" 0.000000000000000e+00
"net13" 3.319987478718949e-01
"out" 1.117692639798070e+00
"V0:p" -4.516458024562290e-05
"V1:p" -1.062184948838984e-04
"VDD:p" -3.387438018879757e-05
"VSS:p" 1.852574553183173e-04
"vdd" 1.200000000000000e+00
"vss" 0.000000000000000e+00
"time" 5.999999999999999e-12
"in0" 1.200000000000000e+00
"in1" 0.000000000000000e+00
"net13" 2.577378896828800e-01
"out" 1.079073955411696e+00
"V0:p" -4.385258117703660e-05
"V1:p" -1.012827711408813e-04
"VDD:p" -4.229201152262789e-05
"VSS:p" 1.874273638405468e-04
"vdd" 1.200000000000000e+00
"vss" 0.000000000000000e+00
"time" 6.371863063117530e-12
"in0" 1.200000000000000e+00
"in1" 0.000000000000000e+00
"net13" 2.327046145534750e-01
"out" 1.056689621354637e+00
"V0:p" -4.258850553521370e-05
"V1:p" -8.515536673408661e-05
"VDD:p" -4.748764146370558e-05
"VSS:p" 1.752315137330055e-04
"vdd" 1.200000000000000e+00
"vss" 0.000000000000000e+00
"time" 7.115589189352590e-12
"in0" 1.200000000000000e+00
"in1" 0.000000000000000e+00
"net13" 1.952748371692719e-01
"out" 1.008733359280586e+00
"V0:p" -3.629174723692231e-05
"V1:p" -5.939884977228531e-05
"VDD:p" -5.460047813841651e-05
"VSS:p" 1.502910751476241e-04
"vdd" 1.200000000000000e+00
"vss" 0.000000000000000e+00
"time" 7.986292134360448e-12
"in0" 1.200000000000000e+00
"in1" 0.000000000000000e+00
"net13" 1.800704518131650e-01
"out" 9.472757599395717e-01
"V0:p" -2.797702846391897e-05
"V1:p" -3.285231394034819e-05
"VDD:p" -5.955542785224487e-05
"VSS:p" 1.203847702565120e-04
"vdd" 1.200000000000000e+00
"vss" 0.000000000000000e+00
"time" 9.023946974846562e-12
"in0" 1.200000000000000e+00
"in1" 0.000000000000000e+00
"net13" 1.940308916095873e-01
"out" 8.724577375472279e-01
"V0:p" -1.605160339545541e-05
"V1:p" -6.305596885943645e-06
"VDD:p" -6.090044642809012e-05
"VSS:p" 8.325764670948930e-05
"vdd" 1.200000000000000e+00
"vss" 0.000000000000000e+00
"time" 1.001197348742328e-11
"in0" 1.200000000000000e+00
"in1" 0.000000000000000e+00
"net13" 2.332032680982848e-01
"out" 8.055488906592927e-01
"V0:p" -5.400970972328023e-06
"V1:p" 1.686380921684698e-05
"VDD:p" -5.857626132227502e-05
"VSS:p" 4.711342307775570e-05
"vdd" 1.200000000000000e+00
"vss" 0.000000000000000e+00
"time" 1.100000000000000e-11
"in0" 1.200000000000000e+00
"in1" 0.000000000000000e+00
"net13" 2.928500990017501e-01
"out" 7.496877218414265e-01
"V0:p" 4.427004377446195e-06
"V1:p" 3.915664328085178e-05
"VDD:p" -5.363568354855871e-05
"VSS:p" 1.005203589026065e-05
"vdd" 1.200000000000000e+00
"vss" 0.000000000000000e+00
"time" 1.159309500232189e-11
"in0" 1.200000000000000e+00
"in1" 0.000000000000000e+00
"net13" 3.294402804067735e-01
"out" 7.266710098211228e-01
"V0:p" 4.957058181875860e-06
"V1:p" 3.652936736127233e-05
"VDD:p" -5.034555244903662e-05
"VSS:p" 8.859126905888675e-06
"vdd" 1.200000000000000e+00
"vss" 0.000000000000000e+00
"time" 1.250876686706120e-11
"in0" 1.200000000000000e+00
"in1" 0.000000000000000e+00
"net13" 3.806395296155847e-01
"out" 6.976609548537952e-01
"V0:p" 6.186760825422378e-06
"V1:p" 3.196827317047759e-05
"VDD:p" -4.511389736691708e-05
"VSS:p" 6.958863371017112e-06
"vdd" 1.200000000000000e+00
"vss" 0.000000000000000e+00
"time" 1.354393263482629e-11
"in0" 1.200000000000000e+00
"in1" 0.000000000000000e+00
"net13" 4.274282327085922e-01
"out" 6.789184010152909e-01
"V0:p" 6.430524206002182e-06
"V1:p" 2.906913722144065e-05
"VDD:p" -4.111873878653953e-05
"VSS:p" 5.619077359097345e-06
"vdd" 1.200000000000000e+00
"vss" 0.000000000000000e+00
"time" 1.502986050879664e-11
"in0" 1.200000000000000e+00
"in1" 0.000000000000000e+00
"net13" 4.797892489808432e-01
"out" 6.705144550751863e-01
"V0:p" 7.164197079258391e-06
"V1:p" 2.513165111219877e-05
"VDD:p" -3.632856078056475e-05
"VSS:p" 4.032712589105886e-06
"vdd" 1.200000000000000e+00
"vss" 0.000000000000000e+00
"time" 1.672889316999769e-11
"in0" 1.200000000000000e+00
"in1" 0.000000000000000e+00
"net13" 5.254321665566040e-01
"out" 6.777752877105677e-01
"V0:p" 6.941928270087453e-06
"V1:p" 2.330930543798770e-05
"VDD:p" -3.346650930293418e-05
"VSS:p" 3.215275594860785e-06
"vdd" 1.200000000000000e+00
"vss" 0.000000000000000e+00
"time" 1.861251592175835e-11
"in0" 1.200000000000000e+00
"in1" 0.000000000000000e+00
"net13" 5.653810009559953e-01
"out" 6.971583582433677e-01
"V0:p" 7.264233271981786e-06
"V1:p" 2.092217856804696e-05
"VDD:p" -3.062057369505968e-05
"VSS:p" 2.434161855029479e-06
"vdd" 1.200000000000000e+00
"vss" 0.000000000000000e+00
"time" 2.061251592175835e-11
"in0" 1.200000000000000e+00
"in1" 0.000000000000000e+00
"net13" 6.003703107160602e-01
"out" 7.243198133198105e-01
"V0:p" 6.857767785761456e-06
"V1:p" 1.986694840191052e-05
"VDD:p" -2.889982799896925e-05
"VSS:p" 2.175111811298601e-06
"vdd" 1.200000000000000e+00
"vss" 0.000000000000000e+00
"time" 2.261251592175835e-11
"in0" 1.200000000000000e+00
"in1" 0.000000000000000e+00
"net13" 6.303098509747935e-01
"out" 7.546917126110293e-01
"V0:p" 7.121000620667953e-06
"V1:p" 1.777687300997869e-05
"VDD:p" -2.663039269864217e-05
"VSS:p" 1.732519067994093e-06
"vdd" 1.200000000000000e+00
"vss" 0.000000000000000e+00
"time" 2.461251592175835e-11
"in0" 1.200000000000000e+00
"in1" 0.000000000000000e+00
"net13" 6.564262946902926e-01
"out" 7.863309990858104e-01
"V0:p" 6.708164675748675e-06
"V1:p" 1.678816507407832e-05
"VDD:p" -2.514591633821555e-05
"VSS:p" 1.649586588390421e-06
"vdd" 1.200000000000000e+00
"vss" 0.000000000000000e+00
"time" 2.661251592175835e-11
"in0" 1.200000000000000e+00
"in1" 0.000000000000000e+00
"net13" 6.792392176279659e-01
"out" 8.181232260714467e-01
"V0:p" 6.971929034095151e-06
"V1:p" 1.466580996864462e-05
"VDD:p" -2.292274277067908e-05
"VSS:p" 1.285003767937590e-06
"vdd" 1.200000000000000e+00
"vss" 0.000000000000000e+00
"time" 2.861251592175835e-11
"in0" 1.200000000000000e+00
"in1" 0.000000000000000e+00
"net13" 6.990022825042091e-01
"out" 8.493606490346790e-01
"V0:p" 6.536440546761258e-06
"V1:p" 1.367891842477842e-05
"VDD:p" -2.145809003115490e-05
"VSS:p" 1.242731059616942e-06
"vdd" 1.200000000000000e+00
"vss" 0.000000000000000e+00
"time" 3.061251592175835e-11
"in0" 1.200000000000000e+00
"in1" 0.000000000000000e+00
"net13" 7.160269381373219e-01
"out" 8.794805269512643e-01
"V0:p" 6.732963095835755e-06
"V1:p" 1.168790659941273e-05
"VDD:p" -1.934501200286639e-05
"VSS:p" 9.241423076160928e-07
"vdd" 1.200000000000000e+00
"vss" 0.000000000000000e+00
"time" 3.261251592175835e-11
"in0" 1.200000000000000e+00
"in1" 0.000000000000000e+00
"net13" 7.307562277375618e-01
"out" 9.080208976417417e-01
"V0:p" 6.190366669800467e-06
"V1:p" 1.096115953492721e-05
"VDD:p" -1.809430789673302e-05
"VSS:p" 9.427816920069965e-07
"vdd" 1.200000000000000e+00
"vss" 0.000000000000000e+00
"time" 3.461251592175835e-11
"in0" 1.200000000000000e+00
"in1" 0.000000000000000e+00
"net13" 7.436141387853141e-01
"out" 9.347105364813185e-01
"V0:p" 6.270125392593572e-06
"V1:p" 9.269607590641044e-06
"VDD:p" -1.622084601348580e-05
"VSS:p" 6.811130302493214e-07
"vdd" 1.200000000000000e+00
"vss" 0.000000000000000e+00
"time" 3.661251592175835e-11
"in0" 1.200000000000000e+00
"in1" 0.000000000000000e+00
"net13" 7.549363982409398e-01
"out" 9.594485275978254e-01
"V0:p" 5.626449401517344e-06
"V1:p" 8.824737358067752e-06
"VDD:p" -1.519557443617946e-05
"VSS:p" 7.443876765959114e-07
"vdd" 1.200000000000000e+00
"vss" 0.000000000000000e+00
"time" 3.861251592175835e-11
"in0" 1.200000000000000e+00
"in1" 0.000000000000000e+00
"net13" 7.649828195730767e-01
"out" 9.822351296942822e-01
"V0:p" 5.631356282716488e-06
"V1:p" 7.382826480431735e-06
"VDD:p" -1.353121486965343e-05
"VSS:p" 5.170321065040175e-07
"vdd" 1.200000000000000e+00
"vss" 0.000000000000000e+00
"time" 4.061251592175835e-11
"in0" 1.200000000000000e+00
"in1" 0.000000000000000e+00
"net13" 7.739559330510346e-01
"out" 1.003126449896262e+00
"V0:p" 4.940383897633916e-06
"V1:p" 7.154480457469729e-06
"VDD:p" -1.270177361249369e-05
"VSS:p" 6.069092573909985e-07
"vdd" 1.200000000000000e+00
"vss" 0.000000000000000e+00
"time" 4.261251592175835e-11
"in0" 1.200000000000000e+00
"in1" 0.000000000000000e+00
"net13" 7.820157838621665e-01
"out" 1.022209150191160e+00
"V0:p" 4.922438466201952e-06
"V1:p" 5.899695305658798e-06
"VDD:p" -1.122261026181639e-05
"VSS:p" 4.004764899548032e-07
"vdd" 1.200000000000000e+00
"vss" 0.000000000000000e+00
"time" 4.461251592175835e-11
"in0" 1.200000000000000e+00
"in1" 0.000000000000000e+00
"net13" 7.892908146512473e-01
"out" 1.039586275543292e+00
"V0:p" 4.228464727458787e-06
"V1:p" 5.833732174090250e-06
"VDD:p" -1.056927022266462e-05
"VSS:p" 5.070733211165194e-07
"vdd" 1.200000000000000e+00
"vss" 0.000000000000000e+00
"time" 4.661251592175835e-11
"in0" 1.200000000000000e+00
"in1" 0.000000000000000e+00
"net13" 7.958857096479169e-01
"out" 1.055368913807926e+00
"V0:p" 4.222731798344590e-06
"V1:p" 4.720821249358647e-06
"VDD:p" -9.257766565973648e-06
"VSS:p" 3.142135182693253e-07
"vdd" 1.200000000000000e+00
"vss" 0.000000000000000e+00
"time" 4.861251592175835e-11
"in0" 1.200000000000000e+00
"in1" 0.000000000000000e+00
"net13" 8.018870312907782e-01
"out" 1.069670992287359e+00
"V0:p" 3.552079742157021e-06
"V1:p" 4.779685742338034e-06
"VDD:p" -8.763757272811701e-06
"VSS:p" 4.319917883177178e-07
"vdd" 1.200000000000000e+00
"vss" 0.000000000000000e+00
"time" 5.061251592175835e-11
"in0" 1.200000000000000e+00
"in1" 0.000000000000000e+00
"net13" 8.073672915406450e-01
"out" 1.082605875213012e+00
"V0:p" 3.577368831131757e-06
"V1:p" 3.777276225328744e-06
"VDD:p" -7.603110398129598e-06
"VSS:p" 2.484653416678467e-07
"vdd" 1.200000000000000e+00
"vss" 0.000000000000000e+00
"time" 5.261251592175835e-11
"in0" 1.200000000000000e+00
"in1" 0.000000000000000e+00
"net13" 8.123879222674700e-01
"out" 1.094284081818758e+00
"V0:p" 2.942712752986259e-06
"V1:p" 3.934434036884411e-06
"VDD:p" -7.251271060849225e-06
"VSS:p" 3.741242709800282e-07
"vdd" 1.200000000000000e+00
"vss" 0.000000000000000e+00
"time" 5.461251592175835e-11
"in0" 1.200000000000000e+00
"in1" 0.000000000000000e+00
"net13" 8.170014712460332e-01
"out" 1.104811755626214e+00
"V0:p" 3.006848625659173e-06
"V1:p" 3.019771231682162e-06
"VDD:p" -6.223937299834211e-06
"VSS:p" 1.973174424913357e-07
"vdd" 1.200000000000000e+00
"vss" 0.000000000000000e+00
"time" 5.661251592175835e-11
"in0" 1.200000000000000e+00
"in1" 0.000000000000000e+00
"net13" 8.212532506831319e-01
"out" 1.114289666192321e+00
"V0:p" 2.412273862960744e-06
"V1:p" 3.255454371786639e-06
"VDD:p" -5.996481698973811e-06
"VSS:p" 3.287534642278785e-07
"vdd" 1.200000000000000e+00
"vss" 0.000000000000000e+00
"time" 5.861251592175835e-11
"in0" 1.200000000000000e+00
"in1" 0.000000000000000e+00
"net13" 8.251825954260981e-01
"out" 1.122812601312666e+00
"V0:p" 2.516522962941984e-06
"V1:p" 2.411175190403262e-06
"VDD:p" -5.084645812589235e-06
"VSS:p" 1.569476592424092e-07
"vdd" 1.200000000000000e+00
"vss" 0.000000000000000e+00
"time" 6.061251592175836e-11
"in0" 1.200000000000000e+00
"in1" 0.000000000000000e+00
"net13" 8.288238398212325e-01
"out" 1.130469049930804e+00
"V0:p" 1.961221726912745e-06
"V1:p" 2.709999681087448e-06
"VDD:p" -4.963959013344510e-06
"VSS:p" 2.927376053455776e-07
"vdd" 1.200000000000000e+00
"vss" 0.000000000000000e+00
"time" 6.261251592175836e-11
"in0" 1.200000000000000e+00
"in1" 0.000000000000000e+00
"net13" 8.322070891094806e-01
"out" 1.137341101626449e+00
"V0:p" 2.103293893684291e-06
"V1:p" 1.922384660120883e-06
"VDD:p" -4.150418790327783e-06
"VSS:p" 1.247402365216667e-07
"vdd" 1.200000000000000e+00
"vss" 0.000000000000000e+00
"time" 6.461251592175837e-11
"in0" 1.200000000000000e+00
"in1" 0.000000000000000e+00
"net13" 8.353588385566754e-01
"out" 1.143504505692034e+00
"V0:p" 1.583957284154682e-06
"V1:p" 2.272058781342490e-06
"VDD:p" -4.119890541508026e-06
"VSS:p" 2.638744760119341e-07
"vdd" 1.200000000000000e+00
"vss" 0.000000000000000e+00
"time" 6.661251592175838e-11
"in0" 1.200000000000000e+00
"in1" 0.000000000000000e+00
"net13" 8.383024779262452e-01
"out" 1.149028845248427e+00
"V0:p" 1.759883148823477e-06
"V1:p" 1.530061297613062e-06
"VDD:p" -3.388767798192140e-06
"VSS:p" 9.882335175450573e-08
"vdd" 1.200000000000000e+00
"vss" 0.000000000000000e+00
"time" 6.861251592175838e-11
"in0" 1.200000000000000e+00
"in1" 0.000000000000000e+00
"net13" 8.410587081545839e-01
"out" 1.153977791422170e+00
"V0:p" 1.272154285844950e-06
"V1:p" 1.920638646828581e-06
"VDD:p" -3.433353144880155e-06
"VSS:p" 2.405602122073756e-07
"vdd" 1.200000000000000e+00
"vss" 0.000000000000000e+00
"time" 7.061251592175839e-11
"in0" 1.200000000000000e+00
"in1" 0.000000000000000e+00
"net13" 8.436458896454890e-01
"out" 1.158409410236875e+00
"V0:p" 1.477394136104487e-06
"V1:p" 1.215294320602666e-06
"VDD:p" -2.770501890431905e-06
"VSS:p" 7.781343372394884e-08
"vdd" 1.200000000000000e+00
"vss" 0.000000000000000e+00
"time" 7.261251592175839e-11
"in0" 1.200000000000000e+00
"in1" 0.000000000000000e+00
"net13" 8.460803364158852e-01
"out" 1.162376501069538e+00
"V0:p" 1.016701085261977e-06
"V1:p" 1.638693556171272e-06
"VDD:p" -2.876989179399088e-06
"VSS:p" 2.215945379665917e-07
"vdd" 1.200000000000000e+00
"vss" 0.000000000000000e+00
"time" 7.461251592175840e-11
"in0" 1.200000000000000e+00
"in1" 0.000000000000000e+00
"net13" 8.483765666904574e-01
"out" 1.165926950592005e+00
"V0:p" 1.246759018475052e-06
"V1:p" 9.627192730757815e-07
"VDD:p" -2.270142607794252e-06
"VSS:p" 6.066431624310232e-08
"vdd" 1.200000000000000e+00
"vss" 0.000000000000000e+00
"time" 7.661251592175841e-11
"in0" 1.200000000000000e+00
