HEADER
"PSFversion" "1.00"
"simulator" "spectre"
"version" "19.1.0.237.isr3"
"date" "1:46:43 AM, Sat Sep 10, 2022"
"design" "// Generated for: spectre"
"analysis type" "tran"
"analysis name" "sim"
"analysis description" "Transient Analysis `sim': time = (0 s -> 100 ps)"
"xVecSorted" "ascending"
"tolerance.relative" 0.00100000
"start" 0.00000
"outputstart" 0.00000
"stop" 1.00000e-10
"step" 1.00000e-13
"istep" 0.00100000
"maxstep" 2.00000e-12
"ic" "all"
"useprevic" "no"
"skipdc" "no"
"reltol" 0.00100000
"abstol(V)" 1.00000e-06
"abstol(I)" 1.00000e-12
"temp" 27.0000
"tnom" 27.0000
"tempeffects" "all"
"errpreset" "moderate"
"method" "traponly"
"lteratio" 3.50000
"relref" "sigglobal"
"cmin" 0.00000
"gmin" 1.00000e-12
TYPE
"sweep" FLOAT DOUBLE PROP(
"key" "sweep"
)
"LogicV" FLOAT DOUBLE PROP(
"key" "node"
)
"Tau" FLOAT DOUBLE PROP(
"units" "N*m"
"key" "node"
"tolerance" 1.00000e-06
)
"Alpha" FLOAT DOUBLE PROP(
"units" "rads/s^2"
"key" "node"
"tolerance" 1.00000e-06
)
"Omega" FLOAT DOUBLE PROP(
"units" "rads/s"
"key" "node"
"tolerance" 1.00000e-06
)
"Theta" FLOAT DOUBLE PROP(
"units" "rads"
"key" "node"
"tolerance" 1.00000e-06
)
"F" FLOAT DOUBLE PROP(
"units" "N"
"key" "node"
"tolerance" 1.00000e-06
)
"Imp" FLOAT DOUBLE PROP(
"units" "m/s^3"
"key" "node"
"tolerance" 1.00000e-06
)
"Acc" FLOAT DOUBLE PROP(
"units" "m/s^2"
"key" "node"
"tolerance" 1.00000e-06
)
"Vel" FLOAT DOUBLE PROP(
"units" "m/s"
"key" "node"
"tolerance" 1.00000e-06
)
"Pos" FLOAT DOUBLE PROP(
"units" "m"
"key" "node"
"tolerance" 1.00000e-06
)
"Phi" FLOAT DOUBLE PROP(
"units" "Wb"
"key" "node"
"tolerance" 1.00000e-09
)
"V" FLOAT DOUBLE PROP(
"units" "V"
"key" "node"
"tolerance" 1.00000e-06
)
"I" FLOAT DOUBLE PROP(
"units" "A"
"key" "branch"
"tolerance" 1.00000e-12
)
"MMF" FLOAT DOUBLE PROP(
"units" "A*turn"
"key" "node"
"tolerance" 1.00000e-12
)
"Wb" FLOAT DOUBLE PROP(
"units" "Wb"
"key" "node"
"tolerance" 1.00000e-09
)
"Temp" FLOAT DOUBLE PROP(
"units" "C"
"key" "node"
"tolerance" 0.000100000
)
"Pwr" FLOAT DOUBLE PROP(
"units" "W"
"key" "node"
"tolerance" 1.00000e-09
)
"U" FLOAT DOUBLE PROP(
"units" ""
"key" "node"
"tolerance" 1.00000e-06
)
"V/Sec" FLOAT DOUBLE PROP(
"units" "V/s"
"key" "node"
"tolerance" 0.000100000
)
"I/Sec" FLOAT DOUBLE PROP(
"units" "A/s"
"key" "node"
"tolerance" 1.00000e-06
)
"1/Sec" FLOAT DOUBLE PROP(
"units" "1/s"
"key" "node"
"tolerance" 0.000100000
)
"HOD" FLOAT DOUBLE PROP(
"units" ""
"key" "node"
"tolerance" 0.0100000
)
"Q" FLOAT DOUBLE PROP(
"units" "coul"
"key" "node"
"tolerance" 1.00000e-14
)
SWEEP
"time" "sweep" PROP(
"sweep_direction" 0
"units" "s"
"plot" 0
"grid" 1
)
TRACE
"in0" "V"
"in1" "V"
"net13" "V"
"out" "V"
"V0:p" "I"
"V1:p" "I"
"VDD:p" "I"
"VSS:p" "I"
"vdd" "V"
"vss" "V"
VALUE
"time" 0.000000000000000e+00
"in0" 0.000000000000000e+00
"in1" 0.000000000000000e+00
"net13" 2.470546966412399e-02
"out" 1.199999584058010e+00
"V0:p" 2.859123199320163e-11
"V1:p" 3.016613384934715e-11
"VDD:p" -1.148585513731463e-10
"VSS:p" 5.610122483096415e-11
"vdd" 1.200000000000000e+00
"vss" 0.000000000000000e+00
"time" 1.000000000000000e-13
"in0" 0.000000000000000e+00
"in1" 0.000000000000000e+00
"net13" 2.232479481559093e-02
"out" 1.199870947953983e+00
"V0:p" -6.184346514642555e-06
"V1:p" -8.984905800904685e-06
"VDD:p" -9.846398813697201e-07
"VSS:p" 1.615389219691696e-05
"vdd" 1.200000000000000e+00
"vss" 0.000000000000000e+00
"time" 2.860302285805485e-13
"in0" 0.000000000000000e+00
"in1" 0.000000000000000e+00
"net13" 9.658124156550022e-03
"out" 1.199195298033888e+00
"V0:p" -1.767245255806066e-05
"V1:p" -2.562944712839792e-05
"VDD:p" -2.870865971084317e-06
"VSS:p" 4.617276565754039e-05
"vdd" 1.200000000000000e+00
"vss" 0.000000000000000e+00
"time" 6.005314757071111e-13
"in0" 0.000000000000000e+00
"in1" 0.000000000000000e+00
"net13" -2.352003039616544e-02
"out" 1.197447208750488e+00
"V0:p" -3.757951049506018e-05
"V1:p" -5.327595784551834e-05
"VDD:p" -6.095883833985184e-06
"VSS:p" 9.695135217456847e-05
"vdd" 1.200000000000000e+00
"vss" 0.000000000000000e+00
"time" 8.002657378535555e-13
"in0" 0.000000000000000e+00
"in1" 0.000000000000000e+00
"net13" -5.678721755817709e-02
"out" 1.195720675485144e+00
"V0:p" -5.219417701015256e-05
"V1:p" -7.037641948090293e-05
"VDD:p" -8.171162599762478e-06
"VSS:p" 1.307417590908154e-04
"vdd" 1.200000000000000e+00
"vss" 0.000000000000000e+00
"time" 1.000000000000000e-12
"in0" 0.000000000000000e+00
"in1" 0.000000000000000e+00
"net13" -9.946824386339848e-02
"out" 1.193543679440225e+00
"V0:p" -6.664569222755786e-05
"V1:p" -8.713216203845769e-05
"VDD:p" -1.023980010566721e-05
"VSS:p" 1.640176543716817e-04
"vdd" 1.200000000000000e+00
"vss" 0.000000000000000e+00
"time" 1.399468524292889e-12
"in0" 0.000000000000000e+00
"in1" 0.000000000000000e+00
"net13" -1.935160897673729e-01
"out" 1.189048580255947e+00
"V0:p" -6.912203112858331e-05
"V1:p" -8.602490183642647e-05
"VDD:p" -1.060144946528699e-05
"VSS:p" 1.657483824302967e-04
"vdd" 1.200000000000000e+00
"vss" 0.000000000000000e+00
"time" 1.703844290535967e-12
"in0" 0.000000000000000e+00
"in1" 0.000000000000000e+00
"net13" -2.631144840305336e-01
"out" 1.185987450268473e+00
"V0:p" -8.004287108250489e-05
"V1:p" -8.406831751696240e-05
"VDD:p" -9.427102035607028e-06
"VSS:p" 1.735382906350769e-04
"vdd" 1.200000000000000e+00
"vss" 0.000000000000000e+00
"time" 2.088139125765813e-12
"in0" 0.000000000000000e+00
"in1" 0.000000000000000e+00
"net13" -3.434481460163767e-01
"out" 1.183245446174145e+00
"V0:p" -8.960907700448263e-05
"V1:p" -8.666927049882461e-05
"VDD:p" -7.443612801402266e-06
"VSS:p" 1.837219603047067e-04
"vdd" 1.200000000000000e+00
"vss" 0.000000000000000e+00
"time" 2.638100880188284e-12
"in0" 0.000000000000000e+00
"in1" 0.000000000000000e+00
"net13" -4.366083183871146e-01
"out" 1.181948624240847e+00
"V0:p" -1.058670633989000e-04
"V1:p" -9.216305042404082e-05
"VDD:p" -3.180537919514918e-06
"VSS:p" 2.012106517424581e-04
"vdd" 1.200000000000000e+00
"vss" 0.000000000000000e+00
"time" 3.273069431119587e-12
"in0" 0.000000000000000e+00
"in1" 0.000000000000000e+00
"net13" -5.208299733680360e-01
"out" 1.181178553854785e+00
"V0:p" -8.969421922643961e-05
"V1:p" -9.275314677165627e-05
"VDD:p" -6.176508032376816e-06
"VSS:p" 1.886238740304704e-04
"vdd" 1.200000000000000e+00
"vss" 0.000000000000000e+00
"time" 4.007572665218045e-12
"in0" 0.000000000000000e+00
"in1" 0.000000000000000e+00
"net13" -5.987814589260669e-01
"out" 1.176798670420585e+00
"V0:p" -8.686712037207278e-05
"V1:p" -8.220079651182985e-05
"VDD:p" -1.122996747178991e-05
"VSS:p" 1.802978843556961e-04
"vdd" 1.200000000000000e+00
"vss" 0.000000000000000e+00
"time" 4.787647110559442e-12
"in0" 0.000000000000000e+00
"in1" 0.000000000000000e+00
"net13" -6.636088507437574e-01
"out" 1.166530311282736e+00
"V0:p" -6.472224571319325e-05
"V1:p" -7.335181518082727e-05
"VDD:p" -1.965516183392149e-05
"VSS:p" 1.577292227279376e-04
"vdd" 1.200000000000000e+00
"vss" 0.000000000000000e+00
"time" 5.393823555279721e-12
"in0" 0.000000000000000e+00
"in1" 0.000000000000000e+00
"net13" -7.031426104828105e-01
"out" 1.154846557832009e+00
"V0:p" -6.466549381611016e-05
"V1:p" -6.348550462502465e-05
"VDD:p" -2.441577465319660e-05
"VSS:p" 1.525667730943335e-04
"vdd" 1.200000000000000e+00
"vss" 0.000000000000000e+00
"time" 5.999999999999999e-12
"in0" 0.000000000000000e+00
"in1" 0.000000000000000e+00
"net13" -7.347039850650234e-01
"out" 1.140583869661900e+00
"V0:p" -4.710476120792618e-05
"V1:p" -5.799014401430531e-05
"VDD:p" -3.071719872845388e-05
"VSS:p" 1.358121039506825e-04
"vdd" 1.200000000000000e+00
"vss" 0.000000000000000e+00
"time" 6.303088222360139e-12
"in0" 0.000000000000000e+00
"in1" 0.000000000000000e+00
"net13" -7.449994082044168e-01
"out" 1.132494498452061e+00
"V0:p" -4.195989129685983e-05
"V1:p" -4.770673413011355e-05
"VDD:p" -3.267563240225040e-05
"VSS:p" 1.223422578292259e-04
"vdd" 1.200000000000000e+00
"vss" 0.000000000000000e+00
"time" 6.909264667080418e-12
"in0" 0.000000000000000e+00
"in1" 0.000000000000000e+00
"net13" -7.589545686652116e-01
"out" 1.115786979539871e+00
"V0:p" -2.384893775708407e-05
"V1:p" -3.019762935480273e-05
"VDD:p" -3.680197395843138e-05
"VSS:p" 9.084854107031625e-05
"vdd" 1.200000000000000e+00
"vss" 0.000000000000000e+00
"time" 7.731374976168262e-12
"in0" 0.000000000000000e+00
"in1" 0.000000000000000e+00
"net13" -7.600252615905757e-01
"out" 1.092785163692661e+00
"V0:p" -4.551398422659225e-06
"V1:p" -1.088730326123316e-05
"VDD:p" -4.014911105512072e-05
"VSS:p" 5.558781273901646e-05
"vdd" 1.200000000000000e+00
"vss" 0.000000000000000e+00
"time" 8.895172720179197e-12
"in0" 0.000000000000000e+00
"in1" 0.000000000000000e+00
"net13" -7.370572381185533e-01
"out" 1.063646972922026e+00
"V0:p" 1.565666838839517e-05
"V1:p" 1.025714809764343e-05
"VDD:p" -4.138164332334379e-05
"VSS:p" 1.546782683730204e-05
"vdd" 1.200000000000000e+00
"vss" 0.000000000000000e+00
"time" 1.006971303922355e-11
"in0" 0.000000000000000e+00
"in1" 0.000000000000000e+00
"net13" -6.931378443903706e-01
"out" 1.041784441719193e+00
"V0:p" 3.169045097528823e-05
"V1:p" 2.792720468767594e-05
"VDD:p" -3.955126697502302e-05
"VSS:p" -2.006638868793790e-05
"vdd" 1.200000000000000e+00
"vss" 0.000000000000000e+00
"time" 1.100000000000000e-11
"in0" 0.000000000000000e+00
"in1" 0.000000000000000e+00
"net13" -6.468725896895887e-01
"out" 1.031366318284251e+00
"V0:p" 4.256325299779073e-05
"V1:p" 4.020898637852232e-05
"VDD:p" -3.645272940171612e-05
"VSS:p" -4.631950997459894e-05
"vdd" 1.200000000000000e+00
"vss" 0.000000000000000e+00
"time" 1.191473700409607e-11
"in0" 0.000000000000000e+00
"in1" 0.000000000000000e+00
"net13" -6.074141530455991e-01
"out" 1.029627454822331e+00
"V0:p" 3.509797802381532e-05
"V1:p" 3.413930088856993e-05
"VDD:p" -3.288694234982343e-05
"VSS:p" -3.635033656256151e-05
"vdd" 1.200000000000000e+00
"vss" 0.000000000000000e+00
"time" 1.288825204640383e-11
"in0" 0.000000000000000e+00
"in1" 0.000000000000000e+00
"net13" -5.698177300349010e-01
"out" 1.030120773957363e+00
"V0:p" 2.858762136550050e-05
"V1:p" 2.857055220612962e-05
"VDD:p" -2.953729898483916e-05
"VSS:p" -2.762087458679167e-05
"vdd" 1.200000000000000e+00
"vss" 0.000000000000000e+00
"time" 1.418072954473500e-11
"in0" 0.000000000000000e+00
"in1" 0.000000000000000e+00
"net13" -5.316942612035586e-01
"out" 1.036156268658834e+00
"V0:p" 2.266883336223092e-05
"V1:p" 2.354440028649831e-05
"VDD:p" -2.617066185873992e-05
"VSS:p" -2.004257178998863e-05
"vdd" 1.200000000000000e+00
"vss" 0.000000000000000e+00
"time" 1.595802163418028e-11
"in0" 0.000000000000000e+00
"in1" 0.000000000000000e+00
"net13" -4.933839753805533e-01
"out" 1.049585147688507e+00
"V0:p" 1.726313608323091e-05
"V1:p" 1.849745604521848e-05
"VDD:p" -2.234665920297322e-05
"VSS:p" -1.341393292547701e-05
"vdd" 1.200000000000000e+00
"vss" 0.000000000000000e+00
"time" 1.795802163418028e-11
"in0" 0.000000000000000e+00
"in1" 0.000000000000000e+00
"net13" -4.624075594377082e-01
"out" 1.067235988154855e+00
"V0:p" 1.341795890318234e-05
"V1:p" 1.488988759866932e-05
"VDD:p" -1.904983466269615e-05
"VSS:p" -9.258011839155448e-06
"vdd" 1.200000000000000e+00
"vss" 0.000000000000000e+00
"time" 1.995802163418028e-11
"in0" 0.000000000000000e+00
"in1" 0.000000000000000e+00
"net13" -4.392757023807828e-01
"out" 1.084802361537671e+00
"V0:p" 1.069346363905431e-05
"V1:p" 1.202201488707039e-05
"VDD:p" -1.615683641221233e-05
"VSS:p" -6.558642113912345e-06
"vdd" 1.200000000000000e+00
"vss" 0.000000000000000e+00
"time" 2.195802163418028e-11
"in0" 0.000000000000000e+00
"in1" 0.000000000000000e+00
"net13" -4.211577229515718e-01
"out" 1.101036796174151e+00
"V0:p" 8.770068233031603e-06
"V1:p" 1.009934826608121e-05
"VDD:p" -1.385321277906403e-05
"VSS:p" -5.016203720048626e-06
"vdd" 1.200000000000000e+00
"vss" 0.000000000000000e+00
"time" 2.395802163418028e-11
"in0" 0.000000000000000e+00
"in1" 0.000000000000000e+00
"net13" -4.064719931125271e-01
"out" 1.115502248009809e+00
"V0:p" 7.212706966915566e-06
"V1:p" 8.306062770897156e-06
"VDD:p" -1.173164392268608e-05
"VSS:p" -3.787125815126669e-06
"vdd" 1.200000000000000e+00
"vss" 0.000000000000000e+00
"time" 2.595802163418028e-11
"in0" 0.000000000000000e+00
"in1" 0.000000000000000e+00
"net13" -3.942546323025262e-01
"out" 1.128127366050242e+00
"V0:p" 6.066693871774657e-06
"V1:p" 7.129599952880888e-06
"VDD:p" -1.007012931891945e-05
"VSS:p" -3.126164505736120e-06
"vdd" 1.200000000000000e+00
"vss" 0.000000000000000e+00
"time" 2.795802163418028e-11
"in0" 0.000000000000000e+00
"in1" 0.000000000000000e+00
"net13" -3.838815417651670e-01
"out" 1.139006202522608e+00
"V0:p" 5.061947881075931e-06
"V1:p" 5.888121246307245e-06
"VDD:p" -8.498696700298709e-06
"VSS:p" -2.451372427083843e-06
"vdd" 1.200000000000000e+00
"vss" 0.000000000000000e+00
"time" 2.995802163418028e-11
"in0" 0.000000000000000e+00
"in1" 0.000000000000000e+00
"net13" -3.749290467507937e-01
"out" 1.148301931643861e+00
"V0:p" 4.327786415706077e-06
"V1:p" 5.138186592107598e-06
"VDD:p" -7.312965516937775e-06
"VSS:p" -2.153007490876446e-06
"vdd" 1.200000000000000e+00
"vss" 0.000000000000000e+00
"time" 3.195802163418028e-11
"in0" 0.000000000000000e+00
"in1" 0.000000000000000e+00
"net13" -3.670978012827553e-01
"out" 1.156199454195973e+00
"V0:p" 3.640460566467260e-06
"V1:p" 4.236231045930395e-06
"VDD:p" -6.153201634218776e-06
"VSS:p" -1.723489978177373e-06
"vdd" 1.200000000000000e+00
"vss" 0.000000000000000e+00
"time" 3.395802163418028e-11
"in0" 0.000000000000000e+00
"in1" 0.000000000000000e+00
"net13" -3.601691934797548e-01
"out" 1.162882109205978e+00
"V0:p" 3.156714718714898e-06
"V1:p" 3.761680110323664e-06
"VDD:p" -5.322524952688121e-06
"VSS:p" -1.595869876352170e-06
"vdd" 1.200000000000000e+00
"vss" 0.000000000000000e+00
"time" 3.595802163418028e-11
"in0" 0.000000000000000e+00
"in1" 0.000000000000000e+00
"net13" -3.539791635929225e-01
"out" 1.168520665646247e+00
"V0:p" 2.670157129154750e-06
"V1:p" 3.085711738881903e-06
"VDD:p" -4.467645515231075e-06
"VSS:p" -1.288223352803945e-06
"vdd" 1.200000000000000e+00
"vss" 0.000000000000000e+00
"time" 3.795802163418028e-11
"in0" 0.000000000000000e+00
"in1" 0.000000000000000e+00
"net13" -3.484017906547510e-01
"out" 1.173268718699116e+00
"V0:p" 2.349188626453464e-06
"V1:p" 2.797947197369248e-06
"VDD:p" -3.897602964679190e-06
"VSS:p" -1.249532859144734e-06
"vdd" 1.200000000000000e+00
"vss" 0.000000000000000e+00
"time" 3.995802163418028e-11
"in0" 0.000000000000000e+00
"in1" 0.000000000000000e+00
"net13" -3.433386036432932e-01
"out" 1.177261451170550e+00
"V0:p" 1.995649921191585e-06
"V1:p" 2.277040363968690e-06
"VDD:p" -3.264616953028324e-06
"VSS:p" -1.008073332130942e-06
"vdd" 1.200000000000000e+00
"vss" 0.000000000000000e+00
"time" 4.195802163418028e-11
"in0" 0.000000000000000e+00
"in1" 0.000000000000000e+00
"net13" -3.387113823051389e-01
"out" 1.180616134318724e+00
"V0:p" 1.783998361979029e-06
"V1:p" 2.118344210832835e-06
"VDD:p" -2.882812050710500e-06
"VSS:p" -1.019530522102319e-06
"vdd" 1.200000000000000e+00
"vss" 0.000000000000000e+00
"time" 4.395802163418028e-11
"in0" 0.000000000000000e+00
"in1" 0.000000000000000e+00
"net13" -3.344571625699548e-01
"out" 1.183433477969392e+00
"V0:p" 1.520674175907653e-06
"V1:p" 1.705047815443353e-06
"VDD:p" -2.409033015216235e-06
"VSS:p" -8.166889761334828e-07
"vdd" 1.200000000000000e+00
"vss" 0.000000000000000e+00
"time" 4.595802163418028e-11
"in0" 0.000000000000000e+00
"in1" 0.000000000000000e+00
"net13" -3.305246803677835e-01
"out" 1.185799337184357e+00
"V0:p" 1.383712256191555e-06
"V1:p" 1.636168740682219e-06
"VDD:p" -2.161549228632686e-06
"VSS:p" -8.583317682418118e-07
"vdd" 1.200000000000000e+00
"vss" 0.000000000000000e+00
"time" 4.795802163418028e-11
"in0" 0.000000000000000e+00
"in1" 0.000000000000000e+00
"net13" -3.268717816453723e-01
"out" 1.187786504018613e+00
"V0:p" 1.182384781935542e-06
"V1:p" 1.297896893987538e-06
"VDD:p" -1.800870945667913e-06
"VSS:p" -6.794107302547195e-07
"vdd" 1.200000000000000e+00
"vss" 0.000000000000000e+00
"time" 4.995802163418028e-11
"in0" 0.000000000000000e+00
"in1" 0.000000000000000e+00
"net13" -3.234634985936512e-01
"out" 1.189456438815273e+00
"V0:p" 1.096997040084429e-06
"V1:p" 1.291727137024280e-06
"VDD:p" -1.648472949737506e-06
"VSS:p" -7.402512273716310e-07
"vdd" 1.200000000000000e+00
"vss" 0.000000000000000e+00
"time" 5.195802163418028e-11
"in0" 0.000000000000000e+00
"in1" 0.000000000000000e+00
"net13" -3.202705961241827e-01
"out" 1.190860868025409e+00
"V0:p" 9.386580401748605e-07
"V1:p" 1.005904145521707e-06
"VDD:p" -1.367642544342498e-06
"VSS:p" -5.769196413530934e-07
"vdd" 1.200000000000000e+00
"vss" 0.000000000000000e+00
"time" 5.395802163418027e-11
"in0" 0.000000000000000e+00
"in1" 0.000000000000000e+00
"net13" -3.172684572742735e-01
"out" 1.192043217386591e+00
"V0:p" 8.891688393240897e-07
"V1:p" 1.043631489125137e-06
"VDD:p" -1.282242078793838e-06
"VSS:p" -6.505582496559985e-07
"vdd" 1.200000000000000e+00
"vss" 0.000000000000000e+00
"time" 5.595802163418027e-11
"in0" 0.000000000000000e+00
"in1" 0.000000000000000e+00
"net13" -3.144362174585851e-01
"out" 1.193039873137629e+00
"V0:p" 7.608621987485890e-07
"V1:p" 7.945765905430990e-07
"VDD:p" -1.057598711862706e-06
"VSS:p" -4.978400774283784e-07
"vdd" 1.200000000000000e+00
"vss" 0.000000000000000e+00
"time" 5.795802163418027e-11
"in0" 0.000000000000000e+00
"in1" 0.000000000000000e+00
"net13" -3.117560844432455e-01
"out" 1.193881277096939e+00
"V0:p" 7.365437902316889e-07
"V1:p" 8.631282674011362e-07
"VDD:p" -1.019308641852816e-06
"VSS:p" -5.803634157808768e-07
"vdd" 1.200000000000000e+00
"vss" 0.000000000000000e+00
"time" 5.995802163418028e-11
"in0" 0.000000000000000e+00
"in1" 0.000000000000000e+00
"net13" -3.092127989460648e-01
"out" 1.194592868200369e+00
"V0:p" 6.293731755271708e-07
"V1:p" 6.399414187072576e-07
"VDD:p" -8.341665950122208e-07
"VSS:p" -4.351479992214487e-07
"vdd" 1.200000000000000e+00
"vss" 0.000000000000000e+00
"time" 6.195802163418029e-11
"in0" 0.000000000000000e+00
"in1" 0.000000000000000e+00
"net13" -3.067932030784714e-01
"out" 1.195195886072112e+00
"V0:p" 6.228377935091165e-07
"V1:p" 7.302274576026632e-07
"VDD:p" -8.290066938252682e-07
"VSS:p" -5.240585572872368e-07
"vdd" 1.200000000000000e+00
"vss" 0.000000000000000e+00
"time" 6.395802163418029e-11
"in0" 0.000000000000000e+00
"in1" 0.000000000000000e+00
"net13" -3.044858924186398e-01
"out" 1.195708052965273e+00
"V0:p" 5.306602340031421e-07
"V1:p" 5.253263790718093e-07
"VDD:p" -6.716649615936686e-07
"VSS:p" -3.843216514803682e-07
"vdd" 1.200000000000000e+00
"vss" 0.000000000000000e+00
"time" 6.595802163418030e-11
"in0" 0.000000000000000e+00
"in1" 0.000000000000000e+00
"net13" -3.022809335839643e-01
"out" 1.196144149921194e+00
"V0:p" 5.367934872841474e-07
"V1:p" 6.310200492131201e-07
"VDD:p" -6.898494334576665e-07
"VSS:p" -4.779641030398180e-07
"vdd" 1.200000000000000e+00
"vss" 0.000000000000000e+00
"time" 6.795802163418030e-11
"in0" 0.000000000000000e+00
"in1" 0.000000000000000e+00
"net13" -3.001696335520868e-01
"out" 1.196516501848969e+00
"V0:p" 4.553455114300354e-07
"V1:p" 4.391233718617955e-07
"VDD:p" -5.521282225842795e-07
"VSS:p" -3.423406607076328e-07
"vdd" 1.200000000000000e+00
"vss" 0.000000000000000e+00
"time" 6.995802163418031e-11
"in0" 0.000000000000000e+00
"in1" 0.000000000000000e+00
"net13" -2.981443501849401e-01
"out" 1.196835384776917e+00
"V0:p" 4.705886062929224e-07
"V1:p" 5.558135373656982e-07
"VDD:p" -5.868217475202852e-07
"VSS:p" -4.395803961380372e-07
"vdd" 1.200000000000000e+00
"vss" 0.000000000000000e+00
"time" 7.195802163418032e-11
"in0" 0.000000000000000e+00
"in1" 0.000000000000000e+00
"net13" -2.961983357874260e-01
"out" 1.197109366989533e+00
"V0:p" 3.968955518463382e-07
"V1:p" 3.732345185089727e-07
"VDD:p" -4.630097800253722e-07
"VSS:p" -3.071202903302029e-07
"vdd" 1.200000000000000e+00
"vss" 0.000000000000000e+00
"time" 7.395802163418032e-11
"in0" 0.000000000000000e+00
"in1" 0.000000000000000e+00
"net13" -2.943256073172311e-01
"out" 1.197345594259741e+00
"V0:p" 4.187584821563003e-07
"V1:p" 4.978374432784197e-07
"VDD:p" -5.094398592106278e-07
"VSS:p" -4.071560662236113e-07
"vdd" 1.200000000000000e+00
