HEADER
"PSFversion" "1.00"
"simulator" "spectre"
"version" "19.1.0.237.isr3"
"date" "1:46:51 AM, Sat Sep 10, 2022"
"design" "// Generated for: spectre"
"analysis type" "tran"
"analysis name" "sim"
"analysis description" "Transient Analysis `sim': time = (0 s -> 100 ps)"
"xVecSorted" "ascending"
"tolerance.relative" 0.00100000
"start" 0.00000
"outputstart" 0.00000
"stop" 1.00000e-10
"step" 1.00000e-13
"istep" 0.00100000
"maxstep" 2.00000e-12
"ic" "all"
"useprevic" "no"
"skipdc" "no"
"reltol" 0.00100000
"abstol(V)" 1.00000e-06
"abstol(I)" 1.00000e-12
"temp" 27.0000
"tnom" 27.0000
"tempeffects" "all"
"errpreset" "moderate"
"method" "traponly"
"lteratio" 3.50000
"relref" "sigglobal"
"cmin" 0.00000
"gmin" 1.00000e-12
TYPE
"sweep" FLOAT DOUBLE PROP(
"key" "sweep"
)
"LogicV" FLOAT DOUBLE PROP(
"key" "node"
)
"Tau" FLOAT DOUBLE PROP(
"units" "N*m"
"key" "node"
"tolerance" 1.00000e-06
)
"Alpha" FLOAT DOUBLE PROP(
"units" "rads/s^2"
"key" "node"
"tolerance" 1.00000e-06
)
"Omega" FLOAT DOUBLE PROP(
"units" "rads/s"
"key" "node"
"tolerance" 1.00000e-06
)
"Theta" FLOAT DOUBLE PROP(
"units" "rads"
"key" "node"
"tolerance" 1.00000e-06
)
"F" FLOAT DOUBLE PROP(
"units" "N"
"key" "node"
"tolerance" 1.00000e-06
)
"Imp" FLOAT DOUBLE PROP(
"units" "m/s^3"
"key" "node"
"tolerance" 1.00000e-06
)
"Acc" FLOAT DOUBLE PROP(
"units" "m/s^2"
"key" "node"
"tolerance" 1.00000e-06
)
"Vel" FLOAT DOUBLE PROP(
"units" "m/s"
"key" "node"
"tolerance" 1.00000e-06
)
"Pos" FLOAT DOUBLE PROP(
"units" "m"
"key" "node"
"tolerance" 1.00000e-06
)
"Phi" FLOAT DOUBLE PROP(
"units" "Wb"
"key" "node"
"tolerance" 1.00000e-09
)
"V" FLOAT DOUBLE PROP(
"units" "V"
"key" "node"
"tolerance" 1.00000e-06
)
"I" FLOAT DOUBLE PROP(
"units" "A"
"key" "branch"
"tolerance" 1.00000e-12
)
"MMF" FLOAT DOUBLE PROP(
"units" "A*turn"
"key" "node"
"tolerance" 1.00000e-12
)
"Wb" FLOAT DOUBLE PROP(
"units" "Wb"
"key" "node"
"tolerance" 1.00000e-09
)
"Temp" FLOAT DOUBLE PROP(
"units" "C"
"key" "node"
"tolerance" 0.000100000
)
"Pwr" FLOAT DOUBLE PROP(
"units" "W"
"key" "node"
"tolerance" 1.00000e-09
)
"U" FLOAT DOUBLE PROP(
"units" ""
"key" "node"
"tolerance" 1.00000e-06
)
"V/Sec" FLOAT DOUBLE PROP(
"units" "V/s"
"key" "node"
"tolerance" 0.000100000
)
"I/Sec" FLOAT DOUBLE PROP(
"units" "A/s"
"key" "node"
"tolerance" 1.00000e-06
)
"1/Sec" FLOAT DOUBLE PROP(
"units" "1/s"
"key" "node"
"tolerance" 0.000100000
)
"HOD" FLOAT DOUBLE PROP(
"units" ""
"key" "node"
"tolerance" 0.0100000
)
"Q" FLOAT DOUBLE PROP(
"units" "coul"
"key" "node"
"tolerance" 1.00000e-14
)
SWEEP
"time" "sweep" PROP(
"sweep_direction" 0
"units" "s"
"plot" 0
"grid" 1
)
TRACE
"in0" "V"
"in1" "V"
"net13" "V"
"out" "V"
"V0:p" "I"
"V1:p" "I"
"VDD:p" "I"
"VSS:p" "I"
"vdd" "V"
"vss" "V"
VALUE
"time" 0.000000000000000e+00
"in0" 1.200000000000000e+00
"in1" 0.000000000000000e+00
"net13" 1.175255987389764e+00
"out" 1.199998622265821e+00
"V0:p" 2.999488749051789e-11
"V1:p" -2.885339490148764e-16
"VDD:p" -1.571690853367175e-10
"VSS:p" 1.271602942602738e-10
"vdd" 1.200000000000000e+00
"vss" 0.000000000000000e+00
"time" 1.000000000000000e-13
"in0" 1.200000000000000e+00
"in1" 0.000000000000000e+00
"net13" 1.177468793315804e+00
"out" 1.199086207993239e+00
"V0:p" 4.478750460945434e-07
"V1:p" 2.871915350387618e-06
"VDD:p" -5.844482256933579e-06
"VSS:p" 2.524691860456623e-06
"vdd" 1.200000000000000e+00
"vss" 0.000000000000000e+00
"time" 2.929576043910464e-13
"in0" 1.200000000000000e+00
"in1" 0.000000000000000e+00
"net13" 1.189952920735670e+00
"out" 1.193920666773868e+00
"V0:p" 1.287246221667077e-06
"V1:p" 8.690908707747558e-06
"VDD:p" -1.734851663288028e-05
"VSS:p" 7.370361703465967e-06
"vdd" 1.200000000000000e+00
"vss" 0.000000000000000e+00
"time" 6.126714900950697e-13
"in0" 1.200000000000000e+00
"in1" 0.000000000000000e+00
"net13" 1.221965953390814e+00
"out" 1.180551590843846e+00
"V0:p" 2.550258936404474e-06
"V1:p" 1.862775670044334e-05
"VDD:p" -3.651721527562207e-05
"VSS:p" 1.533919963877447e-05
"vdd" 1.200000000000000e+00
"vss" 0.000000000000000e+00
"time" 8.063357450475348e-13
"in0" 1.200000000000000e+00
"in1" 0.000000000000000e+00
"net13" 1.252608555807303e+00
"out" 1.167842684607232e+00
"V0:p" 4.507774491652695e-06
"V1:p" 2.302675195209392e-05
"VDD:p" -4.785629729975657e-05
"VSS:p" 2.032177085600843e-05
"vdd" 1.200000000000000e+00
"vss" 0.000000000000000e+00
"time" 1.000000000000000e-12
"in0" 1.200000000000000e+00
"in1" 0.000000000000000e+00
"net13" 1.291951900071060e+00
"out" 1.151747652445130e+00
"V0:p" 6.501136078605622e-06
"V1:p" 2.763428152184686e-05
"VDD:p" -5.927933078756668e-05
"VSS:p" 2.514391318711334e-05
"vdd" 1.200000000000000e+00
"vss" 0.000000000000000e+00
"time" 1.387328509904930e-12
"in0" 1.200000000000000e+00
"in1" 0.000000000000000e+00
"net13" 1.380224396338132e+00
"out" 1.117144707777967e+00
"V0:p" 8.901242851621830e-06
"V1:p" 2.644052170565892e-05
"VDD:p" -6.053184002753804e-05
"VSS:p" 2.519007547025692e-05
"vdd" 1.200000000000000e+00
"vss" 0.000000000000000e+00
"time" 1.714443211694181e-12
"in0" 1.200000000000000e+00
"in1" 0.000000000000000e+00
"net13" 1.455564753357613e+00
"out" 1.088432784123275e+00
"V0:p" 1.372954545621045e-05
"V1:p" 2.078574661872114e-05
"VDD:p" -5.945793869813291e-05
"VSS:p" 2.494264662320239e-05
"vdd" 1.200000000000000e+00
"vss" 0.000000000000000e+00
"time" 2.147096261165575e-12
"in0" 1.200000000000000e+00
"in1" 0.000000000000000e+00
"net13" 1.555902749508756e+00
"out" 1.051580192201541e+00
"V0:p" 1.461202675421168e-05
"V1:p" 2.212188617760864e-05
"VDD:p" -6.146427882245591e-05
"VSS:p" 2.473036589063429e-05
"vdd" 1.200000000000000e+00
"vss" 0.000000000000000e+00
"time" 3.012402360108364e-12
"in0" 1.200000000000000e+00
"in1" 0.000000000000000e+00
"net13" 1.754837211056047e+00
"out" 9.824717843443717e-01
"V0:p" 2.219868360486180e-05
"V1:p" 1.359229519813555e-05
"VDD:p" -5.904135781485951e-05
"VSS:p" 2.325037901186260e-05
"vdd" 1.200000000000000e+00
"vss" 0.000000000000000e+00
"time" 3.320772264067470e-12
"in0" 1.200000000000000e+00
"in1" 0.000000000000000e+00
"net13" 1.811991327037070e+00
"out" 9.643250433517658e-01
"V0:p" 1.538535371693664e-05
"V1:p" 1.328538836272809e-05
"VDD:p" -4.328618481933634e-05
"VSS:p" 1.461544273967097e-05
"vdd" 1.200000000000000e+00
"vss" 0.000000000000000e+00
"time" 3.356830014374846e-12
"in0" 1.200000000000000e+00
"in1" 0.000000000000000e+00
"net13" 1.816780638391758e+00
"out" 9.629665768386523e-01
"V0:p" 1.560790067473508e-05
"V1:p" 9.856158348278087e-06
"VDD:p" -3.785071059200505e-05
"VSS:p" 1.238665156900541e-05
"vdd" 1.200000000000000e+00
"vss" 0.000000000000000e+00
"time" 3.428945514989598e-12
"in0" 1.200000000000000e+00
"in1" 0.000000000000000e+00
"net13" 1.824025137866017e+00
"out" 9.611633819712779e-01
"V0:p" 1.060471924086586e-05
"V1:p" 1.162097004014271e-05
"VDD:p" -3.024134628349655e-05
"VSS:p" 8.015657002481430e-06
"vdd" 1.200000000000000e+00
"vss" 0.000000000000000e+00
"time" 3.573176516219102e-12
"in0" 1.200000000000000e+00
"in1" 0.000000000000000e+00
"net13" 1.831520447166094e+00
"out" 9.602804488908794e-01
"V0:p" 8.250741163885289e-06
"V1:p" 7.562808099746081e-06
"VDD:p" -1.833982721376402e-05
"VSS:p" 2.526277950140361e-06
"vdd" 1.200000000000000e+00
"vss" 0.000000000000000e+00
"time" 3.818649353340848e-12
"in0" 1.200000000000000e+00
"in1" 0.000000000000000e+00
"net13" 1.835575880455929e+00
"out" 9.621410961890584e-01
"V0:p" 5.116505943275832e-06
"V1:p" 9.952837796935706e-06
"VDD:p" -1.589162182418862e-05
"VSS:p" 8.222780839697995e-07
"vdd" 1.200000000000000e+00
"vss" 0.000000000000000e+00
"time" 4.066860188820452e-12
"in0" 1.200000000000000e+00
"in1" 0.000000000000000e+00
"net13" 1.837849069245151e+00
"out" 9.647012669899092e-01
"V0:p" 7.057883995239662e-06
"V1:p" 7.054904941520689e-06
"VDD:p" -1.514598975223370e-05
"VSS:p" 1.033200815478218e-06
"vdd" 1.200000000000000e+00
"vss" 0.000000000000000e+00
"time" 4.400193584088368e-12
"in0" 1.200000000000000e+00
"in1" 0.000000000000000e+00
"net13" 1.841177082248505e+00
"out" 9.679827322535414e-01
"V0:p" 5.166699903258505e-06
"V1:p" 9.772854716231480e-06
"VDD:p" -1.592814336198697e-05
"VSS:p" 9.885887424942240e-07
"vdd" 1.200000000000000e+00
"vss" 0.000000000000000e+00
"time" 5.007469530104609e-12
"in0" 1.200000000000000e+00
"in1" 0.000000000000000e+00
"net13" 1.847126592345371e+00
"out" 9.738598659212794e-01
"V0:p" 6.903901493344805e-06
"V1:p" 6.706920455209292e-06
"VDD:p" -1.460478717593470e-05
"VSS:p" 9.939652273848925e-07
"vdd" 1.200000000000000e+00
"vss" 0.000000000000000e+00
"time" 5.999999999999999e-12
"in0" 1.200000000000000e+00
"in1" 0.000000000000000e+00
"net13" 1.856474256599273e+00
"out" 9.832119048907506e-01
"V0:p" 4.891333285703046e-06
"V1:p" 9.195691522662659e-06
"VDD:p" -1.499660606650911e-05
"VSS:p" 9.095812581391880e-07
"vdd" 1.200000000000000e+00
"vss" 0.000000000000000e+00
"time" 7.825726621000325e-12
"in0" 1.200000000000000e+00
"in1" 0.000000000000000e+00
"net13" 1.863288215856060e+00
"out" 1.002147091489558e+00
"V0:p" 5.082188227282918e-06
"V1:p" 6.971619771749237e-06
"VDD:p" -1.243060575302129e-05
"VSS:p" 3.767977539893868e-07
"vdd" 1.200000000000000e+00
"vss" 0.000000000000000e+00
"time" 9.412863310500161e-12
"in0" 1.200000000000000e+00
"in1" 0.000000000000000e+00
"net13" 1.863706296002415e+00
"out" 1.019872114242743e+00
"V0:p" 4.413821581644695e-06
"V1:p" 5.914696321947697e-06
"VDD:p" -1.000515554699618e-05
"VSS:p" -3.233623565959979e-07
"vdd" 1.200000000000000e+00
"vss" 0.000000000000000e+00
"time" 1.100000000000000e-11
"in0" 1.200000000000000e+00
"in1" 0.000000000000000e+00
"net13" 1.847274231873134e+00
"out" 1.042232685984460e+00
"V0:p" 3.043710231296924e-06
"V1:p" 4.531243075535334e-06
"VDD:p" -5.807741319552494e-06
"VSS:p" -1.767211987279735e-06
"vdd" 1.200000000000000e+00
"vss" 0.000000000000000e+00
"time" 1.300000000000000e-11
"in0" 1.200000000000000e+00
"in1" 0.000000000000000e+00
"net13" 1.836542517738283e+00
"out" 1.062985578753255e+00
"V0:p" 3.381148927761685e-06
"V1:p" 4.358303855198042e-06
"VDD:p" -7.196471160691928e-06
"VSS:p" -5.429816222676888e-07
"vdd" 1.200000000000000e+00
"vss" 0.000000000000000e+00
"time" 1.469763753887416e-11
"in0" 1.200000000000000e+00
"in1" 0.000000000000000e+00
"net13" 1.830737281192387e+00
"out" 1.078500701756294e+00
"V0:p" 3.327341299748091e-06
"V1:p" 3.942474683781320e-06
"VDD:p" -7.120399177196717e-06
"VSS:p" -1.494168063319306e-07
"vdd" 1.200000000000000e+00
"vss" 0.000000000000000e+00
"time" 1.669763753887416e-11
"in0" 1.200000000000000e+00
"in1" 0.000000000000000e+00
"net13" 1.828108295076328e+00
"out" 1.093380644369477e+00
"V0:p" 2.911629712770593e-06
"V1:p" 3.567300116782739e-06
"VDD:p" -6.362115547422408e-06
"VSS:p" -1.168142821316563e-07
"vdd" 1.200000000000000e+00
"vss" 0.000000000000000e+00
"time" 1.869763753887416e-11
"in0" 1.200000000000000e+00
"in1" 0.000000000000000e+00
"net13" 1.827211029760278e+00
"out" 1.105968790072771e+00
"V0:p" 2.744537498809298e-06
"V1:p" 3.133635863197374e-06
"VDD:p" -5.904388422613382e-06
"VSS:p" 2.621506060689768e-08
"vdd" 1.200000000000000e+00
"vss" 0.000000000000000e+00
"time" 2.069763753887416e-11
"in0" 1.200000000000000e+00
"in1" 0.000000000000000e+00
"net13" 1.827015425528412e+00
"out" 1.116882578847454e+00
"V0:p" 2.346330466814847e-06
"V1:p" 2.832470917499478e-06
"VDD:p" -5.133097129543832e-06
"VSS:p" -4.570425477049412e-08
"vdd" 1.200000000000000e+00
"vss" 0.000000000000000e+00
"time" 2.269763753887416e-11
"in0" 1.200000000000000e+00
"in1" 0.000000000000000e+00
"net13" 1.827146408203917e+00
"out" 1.126439139195519e+00
"V0:p" 2.220041451198945e-06
"V1:p" 2.477080822567774e-06
"VDD:p" -4.756457638867017e-06
"VSS:p" 5.933536510029703e-08
"vdd" 1.200000000000000e+00
"vss" 0.000000000000000e+00
"time" 2.469763753887416e-11
"in0" 1.200000000000000e+00
"in1" 0.000000000000000e+00
"net13" 1.827428067460861e+00
"out" 1.134850723514888e+00
"V0:p" 1.866774268730069e-06
"V1:p" 2.246847355288967e-06
"VDD:p" -4.083199691883036e-06
"VSS:p" -3.042193213600088e-08
"vdd" 1.200000000000000e+00
"vss" 0.000000000000000e+00
"time" 2.669763753887416e-11
"in0" 1.200000000000000e+00
"in1" 0.000000000000000e+00
"net13" 1.827771681840194e+00
"out" 1.142275934027654e+00
"V0:p" 1.784815216256228e-06
"V1:p" 1.955124280650463e-06
"VDD:p" -3.805557308643888e-06
"VSS:p" 6.561781173703399e-08
"vdd" 1.200000000000000e+00
"vss" 0.000000000000000e+00
"time" 2.869763753887416e-11
"in0" 1.200000000000000e+00
"in1" 0.000000000000000e+00
"net13" 1.828130579807399e+00
"out" 1.148841493372322e+00
"V0:p" 1.473570723549154e-06
"V1:p" 1.781856473451237e-06
"VDD:p" -3.226553440141301e-06
"VSS:p" -2.887375685898192e-08
"vdd" 1.200000000000000e+00
"vss" 0.000000000000000e+00
"time" 3.069763753887416e-11
"in0" 1.200000000000000e+00
"in1" 0.000000000000000e+00
"net13" 1.828479897128344e+00
"out" 1.154652787587356e+00
"V0:p" 1.430707154891150e-06
"V1:p" 1.541046892532740e-06
"VDD:p" -3.036398228412927e-06
"VSS:p" 6.464418098914496e-08
"vdd" 1.200000000000000e+00
"vss" 0.000000000000000e+00
"time" 3.269763753887416e-11
"in0" 1.200000000000000e+00
"in1" 0.000000000000000e+00
"net13" 1.828806674036019e+00
"out" 1.159799607919870e+00
"V0:p" 1.155448786833523e-06
"V1:p" 1.413259390419825e-06
"VDD:p" -2.537546726240276e-06
"VSS:p" -3.116145101355930e-08
"vdd" 1.200000000000000e+00
"vss" 0.000000000000000e+00
"time" 3.469763753887416e-11
"in0" 1.200000000000000e+00
"in1" 0.000000000000000e+00
"net13" 1.829104666914247e+00
"out" 1.164359615248613e+00
"V0:p" 1.145480700157403e-06
"V1:p" 1.213054742033929e-06
"VDD:p" -2.420259156521237e-06
"VSS:p" 6.172371433055484e-08
"vdd" 1.200000000000000e+00
"vss" 0.000000000000000e+00
"time" 3.669763753887416e-11
"in0" 1.200000000000000e+00
"in1" 0.000000000000000e+00
"net13" 1.829371488949628e+00
"out" 1.168400618929142e+00
"V0:p" 9.001445680587920e-07
"V1:p" 1.121494663882011e-06
"VDD:p" -1.987315702289257e-06
"VSS:p" -3.432352965165458e-08
"vdd" 1.200000000000000e+00
"vss" 0.000000000000000e+00
"time" 3.869763753887416e-11
"in0" 1.200000000000000e+00
"in1" 0.000000000000000e+00
"net13" 1.829606973969442e+00
"out" 1.171982187380955e+00
"V0:p" 9.172917393830358e-07
"V1:p" 9.535856823097978e-07
"VDD:p" -1.929422604503279e-06
"VSS:p" 5.854518281044467e-08
"vdd" 1.200000000000000e+00
"vss" 0.000000000000000e+00
"time" 4.069763753887416e-11
"in0" 1.200000000000000e+00
"in1" 0.000000000000000e+00
"net13" 1.829812214060110e+00
"out" 1.175156854337529e+00
"V0:p" 6.964524593296134e-07
"V1:p" 8.907909627948708e-07
"VDD:p" -1.549852441139774e-06
"VSS:p" -3.739098098492642e-08
"vdd" 1.200000000000000e+00
"vss" 0.000000000000000e+00
"time" 4.269763753887416e-11
"in0" 1.200000000000000e+00
"in1" 0.000000000000000e+00
"net13" 1.829988982578262e+00
"out" 1.177971064241070e+00
"V0:p" 7.356739647326224e-07
"V1:p" 7.484804989401785e-07
"VDD:p" -1.539812289493531e-06
"VSS:p" 5.565782582110798e-08
"vdd" 1.200000000000000e+00
"vss" 0.000000000000000e+00
"time" 4.469763753887416e-11
"in0" 1.200000000000000e+00
"in1" 0.000000000000000e+00
"net13" 1.830139384332976e+00
"out" 1.180465939458827e+00
"V0:p" 5.346810690600353e-07
"V1:p" 7.084477028148225e-07
"VDD:p" -1.203064072549350e-06
"VSS:p" -4.006469932577888e-08
"vdd" 1.200000000000000e+00
"vss" 0.000000000000000e+00
"time" 4.669763753887415e-11
"in0" 1.200000000000000e+00
"in1" 0.000000000000000e+00
"net13" 1.830265642943272e+00
"out" 1.182677919661010e+00
"V0:p" 5.917093510370687e-07
"V1:p" 5.863630652713669e-07
"VDD:p" -1.231282152543144e-06
"VSS:p" 5.320973623487105e-08
"vdd" 1.200000000000000e+00
"vss" 0.000000000000000e+00
"time" 4.869763753887415e-11
"in0" 1.200000000000000e+00
"in1" 0.000000000000000e+00
"net13" 1.830369972632088e+00
"out" 1.184639305627988e+00
"V0:p" 4.066630923236609e-07
"V1:p" 5.642932600555982e-07
"VDD:p" -9.286681919667020e-07
"VSS:p" -4.228816041250297e-08
"vdd" 1.200000000000000e+00
"vss" 0.000000000000000e+00
"time" 5.069763753887415e-11
"in0" 1.200000000000000e+00
"in1" 0.000000000000000e+00
"net13" 1.830454502767616e+00
"out" 1.186378729116473e+00
"V0:p" 4.779471778142029e-07
"V1:p" 4.581566808623563e-07
"VDD:p" -9.873061202235716e-07
"VSS:p" 5.120226154679559e-08
"vdd" 1.200000000000000e+00
"vss" 0.000000000000000e+00
"time" 5.269763753887415e-11
"in0" 1.200000000000000e+00
"in1" 0.000000000000000e+00
"net13" 1.830521235697547e+00
"out" 1.187921563801898e+00
"V0:p" 3.056245270230452e-07
"V1:p" 4.502440651950213e-07
"VDD:p" -7.117760344746056e-07
"VSS:p" -4.409255774329823e-08
"vdd" 1.200000000000000e+00
"vss" 0.000000000000000e+00
"time" 5.469763753887415e-11
"in0" 1.200000000000000e+00
"in1" 0.000000000000000e+00
"net13" 1.830572025705125e+00
"out" 1.189290287987733e+00
"V0:p" 3.882479046436966e-07
"V1:p" 3.566754134548825e-07
"VDD:p" -7.945092241145928e-07
"VSS:p" 4.958590601601399e-08
"vdd" 1.200000000000000e+00
"vss" 0.000000000000000e+00
"time" 5.669763753887415e-11
"in0" 1.200000000000000e+00
"in1" 0.000000000000000e+00
"net13" 1.830608571343273e+00
"out" 1.190504806830720e+00
"V0:p" 2.260174634283729e-07
"V1:p" 3.599220033216766e-07
"VDD:p" -5.404027883827154e-07
"VSS:p" -4.553667836755083e-08
"vdd" 1.200000000000000e+00
"vss" 0.000000000000000e+00
"time" 5.869763753887415e-11
"in0" 1.200000000000000e+00
"in1" 0.000000000000000e+00
"net13" 1.830632416146656e+00
"out" 1.191582739793238e+00
"V0:p" 3.176127579434477e-07
"V1:p" 2.762647806014331e-07
"VDD:p" -6.421758288953675e-07
"VSS:p" 4.829829035081200e-08
"vdd" 1.200000000000000e+00
"vss" 0.000000000000000e+00
"time" 6.069763753887416e-11
"in0" 1.200000000000000e+00
"in1" 0.000000000000000e+00
"net13" 1.830644954454045e+00
"out" 1.192539677625872e+00
"V0:p" 1.633505410845153e-07
"V1:p" 2.883179380242326e-07
"VDD:p" -4.049855541477769e-07
"VSS:p" -4.668292496059159e-08
"vdd" 1.200000000000000e+00
"vss" 0.000000000000000e+00
"time" 6.269763753887416e-11
"in0" 1.200000000000000e+00
"in1" 0.000000000000000e+00
"net13" 1.830647440188260e+00
"out" 1.193389412228177e+00
"V0:p" 2.620170775721979e-07
"V1:p" 2.124889328989542e-07
"VDD:p" -5.217851804879277e-07
"VSS:p" 4.727917001596233e-08
"vdd" 1.200000000000000e+00
"vss" 0.000000000000000e+00
"time" 6.469763753887417e-11
"in0" 1.200000000000000e+00
"in1" 0.000000000000000e+00
"net13" 1.830640997172044e+00
"out" 1.194144142105284e+00
"V0:p" 1.140262954704259e-07
"V1:p" 2.315037044059275e-07
"VDD:p" -2.979418861235239e-07
"VSS:p" -4.758811375174524e-08
"vdd" 1.200000000000000e+00
"vss" 0.000000000000000e+00
"time" 6.669763753887418e-11
"in0" 1.200000000000000e+00
"in1" 0.000000000000000e+00
"net13" 1.830626630045832e+00
"out" 1.194814655731877e+00
"V0:p" 2.182525180952311e-07
"V1:p" 1.618682878075404e-07
"VDD:p" -4.265966325254105e-07
"VSS:p" 4.647582662182608e-08
"vdd" 1.200000000000000e+00
"vss" 0.000000000000000e+00
"time" 6.869763753887418e-11
"in0" 1.200000000000000e+00
"in1" 0.000000000000000e+00
"net13" 1.830605235183243e+00
"out" 1.195410494874428e+00
"V0:p" 7.518909793376264e-08
"V1:p" 1.863955412851013e-07
"VDD:p" -2.132840492200920e-07
"VSS:p" -4.830058999801286e-08
"vdd" 1.200000000000000e+00
"vss" 0.000000000000000e+00
"time" 7.069763753887419e-11
"in0" 1.200000000000000e+00
"in1" 0.000000000000000e+00
"net13" 1.830577611225201e+00
"out" 1.195940099748246e+00
"V0:p" 1.837816868067916e-07
"V1:p" 1.216681513926067e-07
"VDD:p" -3.512941463667063e-07
"VSS:p" 4.584430816671176e-08
"vdd" 1.200000000000000e+00
"vss" 0.000000000000000e+00
"time" 7.269763753887419e-11
"in0" 1.200000000000000e+00
"in1" 0.000000000000000e+00
"net13" 1.830544469007581e+00
"out" 1.196410937756616e+00
"V0:p" 4.458744934189380e-08
"V1:p" 1.505666160077212e-07
"VDD:p" -1.462940124741086e-07
"VSS:p" -4.886005287480160e-08
"vdd" 1.200000000000000e+00
"vss" 0.000000000000000e+00
"time" 7.469763753887420e-11
"in0" 1.200000000000000e+00
"in1" 0.000000000000000e+00
"net13" 1.830506440762184e+00
"out" 1.196829617448799e+00
"V0:p" 1.566089362019742e-07
"V1:p" 8.973336614693775e-08
"VDD:p" -2.916912342769475e-07
"VSS:p" 4.534893192754778e-08
"vdd" 1.200000000000000e+00
"vss" 0.000000000000000e+00
"time" 7.669763753887421e-11
"in0" 1.200000000000000e+00
