HEADER
"PSFversion" "1.00"
"simulator" "spectre"
"version" "19.1.0.237.isr3"
"date" "2:47:12 PM, Tue Aug 30, 2022"
"design" "// Generated for: spectre"
"analysis type" "tran"
"analysis name" "sim"
"analysis description" "Transient Analysis `sim': time = (0 s -> 100 ps)"
"xVecSorted" "ascending"
"tolerance.relative" 0.00100000
"start" 0.00000
"outputstart" 0.00000
"stop" 1.00000e-10
"step" 1.00000e-13
"istep" 0.00100000
"maxstep" 2.00000e-12
"ic" "all"
"useprevic" "no"
"skipdc" "no"
"reltol" 0.00100000
"abstol(V)" 1.00000e-06
"abstol(I)" 1.00000e-12
"temp" 27.0000
"tnom" 27.0000
"tempeffects" "all"
"errpreset" "moderate"
"method" "traponly"
"lteratio" 3.50000
"relref" "sigglobal"
"cmin" 0.00000
"gmin" 1.00000e-12
TYPE
"sweep" FLOAT DOUBLE PROP(
"key" "sweep"
)
"LogicV" FLOAT DOUBLE PROP(
"key" "node"
)
"Tau" FLOAT DOUBLE PROP(
"units" "N*m"
"key" "node"
"tolerance" 1.00000e-06
)
"Alpha" FLOAT DOUBLE PROP(
"units" "rads/s^2"
"key" "node"
"tolerance" 1.00000e-06
)
"Omega" FLOAT DOUBLE PROP(
"units" "rads/s"
"key" "node"
"tolerance" 1.00000e-06
)
"Theta" FLOAT DOUBLE PROP(
"units" "rads"
"key" "node"
"tolerance" 1.00000e-06
)
"F" FLOAT DOUBLE PROP(
"units" "N"
"key" "node"
"tolerance" 1.00000e-06
)
"Imp" FLOAT DOUBLE PROP(
"units" "m/s^3"
"key" "node"
"tolerance" 1.00000e-06
)
"Acc" FLOAT DOUBLE PROP(
"units" "m/s^2"
"key" "node"
"tolerance" 1.00000e-06
)
"Vel" FLOAT DOUBLE PROP(
"units" "m/s"
"key" "node"
"tolerance" 1.00000e-06
)
"Pos" FLOAT DOUBLE PROP(
"units" "m"
"key" "node"
"tolerance" 1.00000e-06
)
"Phi" FLOAT DOUBLE PROP(
"units" "Wb"
"key" "node"
"tolerance" 1.00000e-09
)
"V" FLOAT DOUBLE PROP(
"units" "V"
"key" "node"
"tolerance" 1.00000e-06
)
"I" FLOAT DOUBLE PROP(
"units" "A"
"key" "branch"
"tolerance" 1.00000e-12
)
"MMF" FLOAT DOUBLE PROP(
"units" "A*turn"
"key" "node"
"tolerance" 1.00000e-12
)
"Wb" FLOAT DOUBLE PROP(
"units" "Wb"
"key" "node"
"tolerance" 1.00000e-09
)
"Temp" FLOAT DOUBLE PROP(
"units" "C"
"key" "node"
"tolerance" 0.000100000
)
"Pwr" FLOAT DOUBLE PROP(
"units" "W"
"key" "node"
"tolerance" 1.00000e-09
)
"U" FLOAT DOUBLE PROP(
"units" ""
"key" "node"
"tolerance" 1.00000e-06
)
"V/Sec" FLOAT DOUBLE PROP(
"units" "V/s"
"key" "node"
"tolerance" 0.000100000
)
"I/Sec" FLOAT DOUBLE PROP(
"units" "A/s"
"key" "node"
"tolerance" 1.00000e-06
)
"1/Sec" FLOAT DOUBLE PROP(
"units" "1/s"
"key" "node"
"tolerance" 0.000100000
)
"HOD" FLOAT DOUBLE PROP(
"units" ""
"key" "node"
"tolerance" 0.0100000
)
"Q" FLOAT DOUBLE PROP(
"units" "coul"
"key" "node"
"tolerance" 1.00000e-14
)
SWEEP
"time" "sweep" PROP(
"sweep_direction" 0
"units" "s"
"plot" 0
"grid" 1
)
TRACE
"GND:p" "I"
"in" "V"
"out" "V"
"V0:p" "I"
"VDD:p" "I"
"vdd" "V"
"vss" "V"
VALUE
"time" 0.000000000000000e+00
"GND:p" 4.203984796060728e-10
"in" 0.000000000000000e+00
"out" 1.199998775758592e+00
"V0:p" 7.482181702941023e-12
"VDD:p" -4.278806268468402e-10
"vdd" 1.200000000000000e+00
"vss" 0.000000000000000e+00
"time" 1.000000000000000e-13
"GND:p" 6.201890613879347e-06
"in" 0.000000000000000e+00
"out" 1.209645116325799e+00
"V0:p" 6.416377374293234e-05
"VDD:p" -7.036566435681234e-05
"vdd" 1.200000000000000e+00
"vss" 0.000000000000000e+00
"time" 1.927874393518129e-13
"GND:p" 1.169042144102808e-05
"in" 0.000000000000000e+00
"out" 1.226555841710147e+00
"V0:p" 1.217931660663712e-04
"VDD:p" -1.334835875073956e-04
"vdd" 1.200000000000000e+00
"vss" 0.000000000000000e+00
"time" 3.783623180554387e-13
"GND:p" 2.167251861894321e-05
"in" 0.000000000000000e+00
"out" 1.275142132315802e+00
"V0:p" 2.330326109844627e-04
"VDD:p" -2.547051296034107e-04
"vdd" 1.200000000000000e+00
"vss" 0.000000000000000e+00
"time" 5.722043008609521e-13
"GND:p" 3.024559969396162e-05
"in" 0.000000000000000e+00
"out" 1.355111113809845e+00
"V0:p" 3.413487692964350e-04
"VDD:p" -3.715943689903900e-04
"vdd" 1.200000000000000e+00
"vss" 0.000000000000000e+00
"time" 8.120398072182770e-13
"GND:p" 3.818129592914698e-05
"in" 0.000000000000000e+00
"out" 1.488133911027669e+00
"V0:p" 4.668493746033358e-04
"VDD:p" -5.050306705324869e-04
"vdd" 1.200000000000000e+00
"vss" 0.000000000000000e+00
"time" 1.000000000000000e-12
"GND:p" 4.271080528285815e-05
"in" 0.000000000000000e+00
"out" 1.614251738767014e+00
"V0:p" 5.602759086884324e-04
"VDD:p" -6.029867139712879e-04
"vdd" 1.200000000000000e+00
"vss" 0.000000000000000e+00
"time" 1.351109102551248e-12
"GND:p" 3.717614965301944e-05
"in" 0.000000000000000e+00
"out" 1.837181567573178e+00
"V0:p" 5.027332294015315e-04
"VDD:p" -5.399093790545515e-04
"vdd" 1.200000000000000e+00
"vss" 0.000000000000000e+00
"time" 1.554285113089333e-12
"GND:p" 3.114471180970074e-05
"in" 0.000000000000000e+00
"out" 1.958997707916594e+00
"V0:p" 4.576647391133875e-04
"VDD:p" -4.888094509230899e-04
"vdd" 1.200000000000000e+00
"vss" 0.000000000000000e+00
"time" 1.960637134165504e-12
"GND:p" 2.466194549323806e-05
"in" 0.000000000000000e+00
"out" 2.162853225089199e+00
"V0:p" 3.488360573688827e-04
"VDD:p" -3.734980028621171e-04
"vdd" 1.200000000000000e+00
"vss" 0.000000000000000e+00
"time" 2.053691009832684e-12
"GND:p" 1.334492445525115e-05
"in" 0.000000000000000e+00
"out" 2.195184993553260e+00
"V0:p" 2.106426311506833e-04
"VDD:p" -2.239875556059497e-04
"vdd" 1.200000000000000e+00
"vss" 0.000000000000000e+00
"time" 2.239798761167044e-12
"GND:p" 6.059967132489076e-07
"in" 0.000000000000000e+00
"out" 2.219009216736278e+00
"V0:p" -4.451055832797843e-06
"VDD:p" 3.845059119565151e-06
"vdd" 1.200000000000000e+00
"vss" 0.000000000000000e+00
"time" 2.289071883543303e-12
"GND:p" -1.417212701991261e-06
"in" 0.000000000000000e+00
"out" 2.218640119369663e+00
"V0:p" -7.615456175297228e-06
"VDD:p" 9.032668877280704e-06
"vdd" 1.200000000000000e+00
"vss" 0.000000000000000e+00
"time" 2.387618128295822e-12
"GND:p" 1.162045987938461e-06
"in" 0.000000000000000e+00
"out" 2.218405579840834e+00
"V0:p" 3.781863034744217e-06
"VDD:p" -4.943909022665738e-06
"vdd" 1.200000000000000e+00
"vss" 0.000000000000000e+00
"time" 2.530495215104886e-12
"GND:p" -1.184420131405479e-06
"in" 0.000000000000000e+00
"out" 2.218371372112387e+00
"V0:p" -4.167188433562308e-06
"VDD:p" 5.351608564953459e-06
"vdd" 1.200000000000000e+00
"vss" 0.000000000000000e+00
"time" 2.816249388723014e-12
"GND:p" 1.190352058839201e-06
"in" 0.000000000000000e+00
"out" 2.218377349766572e+00
"V0:p" 4.201263539250246e-06
"VDD:p" -5.391615598079609e-06
"vdd" 1.200000000000000e+00
"vss" 0.000000000000000e+00
"time" 3.387757735959271e-12
"GND:p" -1.189603475792848e-06
"in" 0.000000000000000e+00
"out" 2.218362207084958e+00
"V0:p" -4.243532595366077e-06
"VDD:p" 5.433136071150414e-06
"vdd" 1.200000000000000e+00
"vss" 0.000000000000000e+00
"time" 4.530774430431783e-12
"GND:p" 1.194137546800077e-06
"in" 0.000000000000000e+00
"out" 2.218371710059625e+00
"V0:p" 4.257341787125739e-06
"VDD:p" -5.451479333918002e-06
"vdd" 1.200000000000000e+00
"vss" 0.000000000000000e+00
"time" 5.999999999999999e-12
"GND:p" -1.191100295395611e-06
"in" 0.000000000000000e+00
"out" 2.218363710313354e+00
"V0:p" -4.265696969652728e-06
"VDD:p" 5.456797265040035e-06
"vdd" 1.200000000000000e+00
"vss" 0.000000000000000e+00
"time" 6.499999999999999e-12
"GND:p" -4.807377017388823e-07
"in" 0.000000000000000e+00
"out" 2.213929145389424e+00
"V0:p" -7.143231879789986e-06
"VDD:p" 7.623969581529191e-06
"vdd" 1.200000000000000e+00
"vss" 0.000000000000000e+00
"time" 7.500000000000000e-12
"GND:p" -8.784014291841512e-07
"in" 0.000000000000000e+00
"out" 2.201420139737083e+00
"V0:p" -1.300487227124086e-05
"VDD:p" 1.388327370042487e-05
"vdd" 1.200000000000000e+00
"vss" 0.000000000000000e+00
"time" 9.468600711539375e-12
"GND:p" -2.821039032972958e-06
"in" 0.000000000000000e+00
"out" 2.134877767090924e+00
"V0:p" -4.141688022902882e-05
"VDD:p" 4.423791926200202e-05
"vdd" 1.200000000000000e+00
"vss" 0.000000000000000e+00
"time" 1.023430035576969e-11
"GND:p" -6.848029078321517e-06
"in" 0.000000000000000e+00
"out" 2.067901859116299e+00
"V0:p" -9.929757292639133e-05
"VDD:p" 1.061456020047112e-04
"vdd" 1.200000000000000e+00
"vss" 0.000000000000000e+00
"time" 1.100000000000000e-11
"GND:p" -1.195011002305937e-05
"in" 0.000000000000000e+00
"out" 1.939441699654366e+00
"V0:p" -1.701908407164237e-04
"VDD:p" 1.821409507394847e-04
"vdd" 1.200000000000000e+00
"vss" 0.000000000000000e+00
"time" 1.182848430451657e-11
"GND:p" -9.990110456253457e-06
"in" 0.000000000000000e+00
"out" 1.794846084203502e+00
"V0:p" -1.396230932279090e-04
"VDD:p" 1.496132036841620e-04
"vdd" 1.200000000000000e+00
"vss" 0.000000000000000e+00
"time" 1.246755905998695e-11
"GND:p" -9.033943458051594e-06
"in" 0.000000000000000e+00
"out" 1.690695263583454e+00
"V0:p" -1.192310145086302e-04
"VDD:p" 1.282649579666837e-04
"vdd" 1.200000000000000e+00
"vss" 0.000000000000000e+00
"time" 1.346163184761931e-11
"GND:p" -6.592208281385278e-06
"in" 0.000000000000000e+00
"out" 1.560158280892153e+00
"V0:p" -8.583866711358252e-05
"VDD:p" 9.243087539496564e-05
"vdd" 1.200000000000000e+00
"vss" 0.000000000000000e+00
"time" 1.450635758972800e-11
"GND:p" -5.374379645225191e-06
"in" 0.000000000000000e+00
"out" 1.457205588846449e+00
"V0:p" -6.288818159959746e-05
"VDD:p" 6.826256124482483e-05
"vdd" 1.200000000000000e+00
"vss" 0.000000000000000e+00
"time" 1.613401682995032e-11
"GND:p" -2.908209503776175e-06
"in" 0.000000000000000e+00
"out" 1.348254875496069e+00
"V0:p" -3.394292563543337e-05
"VDD:p" 3.685113513920713e-05
"vdd" 1.200000000000000e+00
"vss" 0.000000000000000e+00
"time" 1.779750311257436e-11
"GND:p" -2.015087169490933e-06
"in" 0.000000000000000e+00
"out" 1.283117530401268e+00
"V0:p" -2.065564994254730e-05
"VDD:p" 2.267073711204066e-05
"vdd" 1.200000000000000e+00
"vss" 0.000000000000000e+00
"time" 1.969424339342986e-11
"GND:p" -7.080671013945891e-07
"in" 0.000000000000000e+00
"out" 1.242415654118600e+00
"V0:p" -8.659353209282785e-06
"VDD:p" 9.367420310675387e-06
"vdd" 1.200000000000000e+00
"vss" 0.000000000000000e+00
"time" 2.169172066747446e-11
"GND:p" -6.770394394645242e-07
"in" 0.000000000000000e+00
"out" 1.220738679731041e+00
"V0:p" -5.978376384464684e-06
"VDD:p" 6.655415823931216e-06
"vdd" 1.200000000000000e+00
"vss" 0.000000000000000e+00
"time" 2.369172066747446e-11
"GND:p" -3.588198150998468e-09
"in" 0.000000000000000e+00
"out" 1.210104315781276e+00
"V0:p" -1.141518717963773e-06
"VDD:p" 1.145106916112777e-06
"vdd" 1.200000000000000e+00
"vss" 0.000000000000000e+00
"time" 2.569172066747446e-11
"GND:p" -3.288937461928225e-07
"in" 0.000000000000000e+00
"out" 1.204913413927497e+00
"V0:p" -2.319380639322554e-06
"VDD:p" 2.648274385517262e-06
"vdd" 1.200000000000000e+00
"vss" 0.000000000000000e+00
"time" 2.769172066747446e-11
"GND:p" 1.672846090929219e-07
"in" 0.000000000000000e+00
"out" 1.202386276624877e+00
"V0:p" 6.381806629085729e-07
"VDD:p" -8.054652720028879e-07
"vdd" 1.200000000000000e+00
"vss" 0.000000000000000e+00
"time" 2.969172066747446e-11
"GND:p" -2.454438940798098e-07
"in" 0.000000000000000e+00
"out" 1.201157971995569e+00
"V0:p" -1.454432013392853e-06
"VDD:p" 1.699875907474236e-06
"vdd" 1.200000000000000e+00
"vss" 0.000000000000000e+00
"time" 3.169172066747446e-11
"GND:p" 2.079081641155532e-07
"in" 0.000000000000000e+00
"out" 1.200561443737648e+00
"V0:p" 1.058235399138373e-06
"VDD:p" -1.266143563255459e-06
"vdd" 1.200000000000000e+00
"vss" 0.000000000000000e+00
"time" 3.369172066747446e-11
"GND:p" -2.256998640970212e-07
"in" 0.000000000000000e+00
"out" 1.200271855374934e+00
"V0:p" -1.250514153471759e-06
"VDD:p" 1.476214017570527e-06
"vdd" 1.200000000000000e+00
"vss" 0.000000000000000e+00
"time" 3.569172066747446e-11
"GND:p" 2.174966337057354e-07
"in" 0.000000000000000e+00
"out" 1.200131300800551e+00
"V0:p" 1.157209192571375e-06
"VDD:p" -1.374705826278696e-06
"vdd" 1.200000000000000e+00
"vss" 0.000000000000000e+00
"time" 3.769172066747446e-11
"GND:p" -2.210451509546921e-07
"in" 0.000000000000000e+00
"out" 1.200063087871561e+00
"V0:p" -1.202480812066708e-06
"VDD:p" 1.423525963022741e-06
"vdd" 1.200000000000000e+00
"vss" 0.000000000000000e+00
"time" 3.969172066747446e-11
"GND:p" 2.197558272781287e-07
"in" 0.000000000000000e+00
"out" 1.200029984832278e+00
"V0:p" 1.180519310866587e-06
"VDD:p" -1.400275138146207e-06
"vdd" 1.200000000000000e+00
"vss" 0.000000000000000e+00
"time" 4.169172066747446e-11
"GND:p" -2.199487397279247e-07
"in" 0.000000000000000e+00
"out" 1.200013920634120e+00
"V0:p" -1.191168902422714e-06
"VDD:p" 1.411117642151953e-06
"vdd" 1.200000000000000e+00
"vss" 0.000000000000000e+00
"time" 4.369172066747446e-11
"GND:p" 2.202879034559336e-07
"in" 0.000000000000000e+00
"out" 1.200006125108837e+00
"V0:p" 1.186008679464235e-06
"VDD:p" -1.406296582921618e-06
"vdd" 1.200000000000000e+00
"vss" 0.000000000000000e+00
"time" 4.569172066747446e-11
"GND:p" -2.196905347610176e-07
"in" 0.000000000000000e+00
"out" 1.200002342169641e+00
"V0:p" -1.188505072848214e-06
"VDD:p" 1.408195607610708e-06
"vdd" 1.200000000000000e+00
"vss" 0.000000000000000e+00
"time" 4.769172066747446e-11
"GND:p" 2.204132033564816e-07
"in" 0.000000000000000e+00
"out" 1.200000506425318e+00
"V0:p" 1.187301354321575e-06
"VDD:p" -1.407714557679521e-06
"vdd" 1.200000000000000e+00
"vss" 0.000000000000000e+00
"time" 4.969172066747446e-11
"GND:p" -2.196297304171123e-07
"in" 0.000000000000000e+00
"out" 1.199999615596060e+00
"V0:p" -1.187877778180229e-06
"VDD:p" 1.407507508598899e-06
"vdd" 1.200000000000000e+00
"vss" 0.000000000000000e+00
"time" 5.169172066747446e-11
"GND:p" 2.204476422792641e-07
"in" 0.000000000000000e+00
"out" 1.199999259953838e+00
"V0:p" 1.187664437712783e-06
"VDD:p" -1.408112079993645e-06
"vdd" 1.200000000000000e+00
"vss" 0.000000000000000e+00
"time" 5.369172066747446e-11
"GND:p" -2.196200393765196e-07
"in" 0.000000000000000e+00
"out" 1.199999054913703e+00
"V0:p" -1.187781099037046e-06
"VDD:p" 1.407401138414908e-06
"vdd" 1.200000000000000e+00
"vss" 0.000000000000000e+00
"time" 5.569172066747446e-11
"GND:p" 2.204532294987210e-07
"in" 0.000000000000000e+00
"out" 1.199998936700874e+00
"V0:p" 1.187720176587560e-06
"VDD:p" -1.408173406087365e-06
"vdd" 1.200000000000000e+00
"vss" 0.000000000000000e+00
"time" 5.769172066747446e-11
"GND:p" -2.196168181463381e-07
"in" 0.000000000000000e+00
"out" 1.199998868547057e+00
"V0:p" -1.187748963620051e-06
"VDD:p" 1.407365781767379e-06
"vdd" 1.200000000000000e+00
"vss" 0.000000000000000e+00
"time" 5.969172066747446e-11
"GND:p" 2.204550866502263e-07
"in" 0.000000000000000e+00
"out" 1.199998829254004e+00
"V0:p" 1.187738703774808e-06
"VDD:p" -1.408193790426268e-06
"vdd" 1.200000000000000e+00
"vss" 0.000000000000000e+00
"time" 6.169172066747447e-11
"GND:p" -2.196157474336189e-07
"in" 0.000000000000000e+00
"out" 1.199998806600190e+00
"V0:p" -1.187738282050178e-06
"VDD:p" 1.407354029485058e-06
"vdd" 1.200000000000000e+00
"vss" 0.000000000000000e+00
"time" 6.369172066747447e-11
"GND:p" 2.204557039533339e-07
"in" 0.000000000000000e+00
"out" 1.199998793539475e+00
"V0:p" 1.187744862071491e-06
"VDD:p" -1.408200566026209e-06
"vdd" 1.200000000000000e+00
"vss" 0.000000000000000e+00
"time" 6.569172066747448e-11
"GND:p" -2.196153915368290e-07
"in" 0.000000000000000e+00
"out" 1.199998786009518e+00
"V0:p" -1.187734731577042e-06
"VDD:p" 1.407350123115351e-06
"vdd" 1.200000000000000e+00
"vss" 0.000000000000000e+00
"time" 6.769172066747449e-11
"GND:p" 2.204559091402745e-07
"in" 0.000000000000000e+00
"out" 1.199998781668235e+00
"V0:p" 1.187746909043414e-06
"VDD:p" -1.408202818184867e-06
"vdd" 1.200000000000000e+00
"vss" 0.000000000000000e+00
"time" 6.969172066747449e-11
"GND:p" -2.196152732394077e-07
"in" 0.000000000000000e+00
"out" 1.199998779165334e+00
"V0:p" -1.187733551426949e-06
"VDD:p" 1.407348824667631e-06
"vdd" 1.200000000000000e+00
"vss" 0.000000000000000e+00
"time" 7.169172066747450e-11
"GND:p" 2.204559773428930e-07
"in" 0.000000000000000e+00
"out" 1.199998777722325e+00
"V0:p" 1.187747589441142e-06
"VDD:p" -1.408203566785189e-06
"vdd" 1.200000000000000e+00
"vss" 0.000000000000000e+00
"time" 7.369172066747450e-11
"GND:p" -2.196152339182198e-07
"in" 0.000000000000000e+00
"out" 1.199998776890379e+00
"V0:p" -1.187733159153704e-06
"VDD:p" 1.407348393073183e-06
"vdd" 1.200000000000000e+00
"vss" 0.000000000000000e+00
"time" 7.569172066747451e-11
"GND:p" 2.204560000128994e-07
"in" 0.000000000000000e+00
"out" 1.199998776410734e+00
"V0:p" 1.187747815599481e-06
"VDD:p" -1.408203815614128e-06
"vdd" 1.200000000000000e+00
"vss" 0.000000000000000e+00
"time" 7.769172066747452e-11
"GND:p" -2.196152208481918e-07
"in" 0.000000000000000e+00
"out" 1.199998776134201e+00
"V0:p" -1.187733028764750e-06
"VDD:p" 1.407348249614635e-06
"vdd" 1.200000000000000e+00
"vss" 0.000000000000000e+00
"time" 7.969172066747452e-11
"GND:p" 2.204560075482298e-07
"in" 0.000000000000000e+00
"out" 1.199998775974771e+00
"V0:p" 1.187747890773008e-06
"VDD:p" -1.408203898323189e-06
"vdd" 1.200000000000000e+00
"vss" 0.000000000000000e+00
"time" 8.169172066747453e-11
"GND:p" -2.196152165037723e-07
"in" 0.000000000000000e+00
"out" 1.199998775882853e+00
"V0:p" -1.187732985424041e-06
"VDD:p" 1.407348201929941e-06
"vdd" 1.200000000000000e+00
"vss" 0.000000000000000e+00
"time" 8.369172066747453e-11
"GND:p" 2.204560100529170e-07
"in" 0.000000000000000e+00
"out" 1.199998775829860e+00
"V0:p" 1.187747915760180e-06
"VDD:p" -1.408203925814941e-06
"vdd" 1.200000000000000e+00
"vss" 0.000000000000000e+00
"time" 8.569172066747454e-11
"GND:p" -2.196152150597216e-07
"in" 0.000000000000000e+00
"out" 1.199998775799307e+00
"V0:p" -1.187732971018696e-06
"VDD:p" 1.407348186080085e-06
"vdd" 1.200000000000000e+00
"vss" 0.000000000000000e+00
"time" 8.769172066747455e-11
"GND:p" 2.204560108854153e-07
"in" 0.000000000000000e+00
"out" 1.199998775781692e+00
"V0:p" 1.187747924066246e-06
"VDD:p" -1.408203934953342e-06
"vdd" 1.200000000000000e+00
"vss" 0.000000000000000e+00
"time" 8.969172066747455e-11
"GND:p" -2.196152145796661e-07
"in" 0.000000000000000e+00
"out" 1.199998775771537e+00
"V0:p" -1.187732966230527e-06
"VDD:p" 1.407348180811684e-06
"vdd" 1.200000000000000e+00
"vss" 0.000000000000000e+00
"time" 9.169172066747456e-11
"GND:p" 2.204560111620836e-07
"in" 0.000000000000000e+00
"out" 1.199998775765682e+00
"V0:p" 1.187747926827214e-06
"VDD:p" -1.408203937990626e-06
"vdd" 1.200000000000000e+00
"vss" 0.000000000000000e+00
"time" 9.369172066747456e-11
"GND:p" -2.196152144200590e-07
"in" 0.000000000000000e+00
"out" 1.199998775762307e+00
"V0:p" -1.187732964639365e-06
"VDD:p" 1.407348179060821e-06
"vdd" 1.200000000000000e+00
"vss" 0.000000000000000e+00
"time" 9.569172066747457e-11
"GND:p" 2.204560112540218e-07
"in" 0.000000000000000e+00
"out" 1.199998775760360e+00
"V0:p" 1.187747927744780e-06
"VDD:p" -1.408203939000577e-06
"vdd" 1.200000000000000e+00
"vss" 0.000000000000000e+00
"time" 9.769172066747458e-11
"GND:p" -2.196152143670447e-07
"in" 0.000000000000000e+00
"out" 1.199998775759238e+00
"V0:p" -1.187732964109987e-06
"VDD:p" 1.407348178478575e-06
"vdd" 1.200000000000000e+00
"vss" 0.000000000000000e+00
"time" 9.884586033373729e-11
"GND:p" 2.204560112804848e-07
"in" 0.000000000000000e+00
"out" 1.199998775758828e+00
"V0:p" 1.187747928009811e-06
"VDD:p" -1.408203939291434e-06
"vdd" 1.200000000000000e+00
"vss" 0.000000000000000e+00
"time" 1.000000000000000e-10
"GND:p" -2.196152143546892e-07
"in" 0.000000000000000e+00
"out" 1.199998775758528e+00
"V0:p" -1.187732963988119e-06
"VDD:p" 1.407348178344272e-06
"vdd" 1.200000000000000e+00
"vss" 0.000000000000000e+00
END
