HEADER
"PSFversion" "1.00"
"simulator" "spectre"
"version" "19.1.0.237.isr3"
"date" "4:07:41 PM, Tue Aug 30, 2022"
"design" "// Generated for: spectre"
"analysis type" "tran"
"analysis name" "sim"
"analysis description" "Transient Analysis `sim': time = (0 s -> 100 ps)"
"xVecSorted" "ascending"
"tolerance.relative" 0.00100000
"start" 0.00000
"outputstart" 0.00000
"stop" 1.00000e-10
"step" 1.00000e-13
"istep" 0.00100000
"maxstep" 2.00000e-12
"ic" "all"
"useprevic" "no"
"skipdc" "no"
"reltol" 0.00100000
"abstol(V)" 1.00000e-06
"abstol(I)" 1.00000e-12
"temp" 27.0000
"tnom" 27.0000
"tempeffects" "all"
"errpreset" "moderate"
"method" "traponly"
"lteratio" 3.50000
"relref" "sigglobal"
"cmin" 0.00000
"gmin" 1.00000e-12
TYPE
"sweep" FLOAT DOUBLE PROP(
"key" "sweep"
)
"LogicV" FLOAT DOUBLE PROP(
"key" "node"
)
"Tau" FLOAT DOUBLE PROP(
"units" "N*m"
"key" "node"
"tolerance" 1.00000e-06
)
"Alpha" FLOAT DOUBLE PROP(
"units" "rads/s^2"
"key" "node"
"tolerance" 1.00000e-06
)
"Omega" FLOAT DOUBLE PROP(
"units" "rads/s"
"key" "node"
"tolerance" 1.00000e-06
)
"Theta" FLOAT DOUBLE PROP(
"units" "rads"
"key" "node"
"tolerance" 1.00000e-06
)
"F" FLOAT DOUBLE PROP(
"units" "N"
"key" "node"
"tolerance" 1.00000e-06
)
"Imp" FLOAT DOUBLE PROP(
"units" "m/s^3"
"key" "node"
"tolerance" 1.00000e-06
)
"Acc" FLOAT DOUBLE PROP(
"units" "m/s^2"
"key" "node"
"tolerance" 1.00000e-06
)
"Vel" FLOAT DOUBLE PROP(
"units" "m/s"
"key" "node"
"tolerance" 1.00000e-06
)
"Pos" FLOAT DOUBLE PROP(
"units" "m"
"key" "node"
"tolerance" 1.00000e-06
)
"Phi" FLOAT DOUBLE PROP(
"units" "Wb"
"key" "node"
"tolerance" 1.00000e-09
)
"V" FLOAT DOUBLE PROP(
"units" "V"
"key" "node"
"tolerance" 1.00000e-06
)
"I" FLOAT DOUBLE PROP(
"units" "A"
"key" "branch"
"tolerance" 1.00000e-12
)
"MMF" FLOAT DOUBLE PROP(
"units" "A*turn"
"key" "node"
"tolerance" 1.00000e-12
)
"Wb" FLOAT DOUBLE PROP(
"units" "Wb"
"key" "node"
"tolerance" 1.00000e-09
)
"Temp" FLOAT DOUBLE PROP(
"units" "C"
"key" "node"
"tolerance" 0.000100000
)
"Pwr" FLOAT DOUBLE PROP(
"units" "W"
"key" "node"
"tolerance" 1.00000e-09
)
"U" FLOAT DOUBLE PROP(
"units" ""
"key" "node"
"tolerance" 1.00000e-06
)
"V/Sec" FLOAT DOUBLE PROP(
"units" "V/s"
"key" "node"
"tolerance" 0.000100000
)
"I/Sec" FLOAT DOUBLE PROP(
"units" "A/s"
"key" "node"
"tolerance" 1.00000e-06
)
"1/Sec" FLOAT DOUBLE PROP(
"units" "1/s"
"key" "node"
"tolerance" 0.000100000
)
"HOD" FLOAT DOUBLE PROP(
"units" ""
"key" "node"
"tolerance" 0.0100000
)
"Q" FLOAT DOUBLE PROP(
"units" "coul"
"key" "node"
"tolerance" 1.00000e-14
)
SWEEP
"time" "sweep" PROP(
"sweep_direction" 0
"units" "s"
"plot" 0
"grid" 1
)
TRACE
"GND:p" "I"
"in0" "V"
"in1" "V"
"net13" "V"
"out" "V"
"V0:p" "I"
"V1:p" "I"
"VDD:p" "I"
"vdd" "V"
"vss" "V"
VALUE
"time" 0.000000000000000e+00
"GND:p" 5.610122483096415e-11
"in0" 0.000000000000000e+00
"in1" 0.000000000000000e+00
"net13" 2.470546966412399e-02
"out" 1.199999584058010e+00
"V0:p" 3.016613384934715e-11
"V1:p" 2.859123199320163e-11
"VDD:p" -1.148585513731463e-10
"vdd" 1.200000000000000e+00
"vss" 0.000000000000000e+00
"time" 1.000000000000000e-13
"GND:p" 4.846206929932048e-06
"in0" 0.000000000000000e+00
"in1" 0.000000000000000e+00
"net13" 2.399126720956408e-02
"out" 1.199960993226802e+00
"V0:p" -2.695450623997428e-06
"V1:p" -1.855283940546671e-06
"VDD:p" -2.954723653879483e-07
"vdd" 1.200000000000000e+00
"vss" 0.000000000000000e+00
"time" 3.000000000000000e-13
"GND:p" 1.453555842758814e-05
"in0" 0.000000000000000e+00
"in1" 0.000000000000000e+00
"net13" 1.970643082734126e-02
"out" 1.199732547463602e+00
"V0:p" -8.071087226181308e-06
"V1:p" -5.558495849586378e-06
"VDD:p" -9.059753518187155e-07
"vdd" 1.200000000000000e+00
"vss" 0.000000000000000e+00
"time" 7.000000000000000e-13
"GND:p" 3.385893795590008e-05
"in0" 0.000000000000000e+00
"in1" 0.000000000000000e+00
"net13" 5.426871199525314e-03
"out" 1.198980330744126e+00
"V0:p" -1.874056979528511e-05
"V1:p" -1.295763806435515e-05
"VDD:p" -2.160730096262208e-06
"vdd" 1.200000000000000e+00
"vss" 0.000000000000000e+00
"time" 1.139259827347846e-12
"GND:p" 5.523218538445752e-05
"in0" 0.000000000000000e+00
"in1" 0.000000000000000e+00
"net13" -2.340941090672253e-02
"out" 1.197492824221101e+00
"V0:p" -3.023831070457405e-05
"V1:p" -2.138489726092589e-05
"VDD:p" -3.608977418957950e-06
"vdd" 1.200000000000000e+00
"vss" 0.000000000000000e+00
"time" 1.770875169940138e-12
"GND:p" 8.712908057765998e-05
"in0" 0.000000000000000e+00
"in1" 0.000000000000000e+00
"net13" -8.891406105056782e-02
"out" 1.194231141964794e+00
"V0:p" -4.625540081111504e-05
"V1:p" -3.509530266902637e-05
"VDD:p" -5.778377097519127e-06
"vdd" 1.200000000000000e+00
"vss" 0.000000000000000e+00
"time" 3.034105855124723e-12
"GND:p" 1.557255638891999e-04
"in0" 0.000000000000000e+00
"in1" 0.000000000000000e+00
"net13" -2.979706395928931e-01
"out" 1.184968221530161e+00
"V0:p" -7.665572516869138e-05
"V1:p" -6.969889562455046e-05
"VDD:p" -9.370943095957889e-06
"vdd" 1.200000000000000e+00
"vss" 0.000000000000000e+00
"time" 3.704082991991508e-12
"GND:p" 2.243429812391101e-04
"in0" 0.000000000000000e+00
"in1" 0.000000000000000e+00
"net13" -4.216625219071471e-01
"out" 1.182239014140916e+00
"V0:p" -1.007744396846273e-04
"V1:p" -1.201869899756521e-04
"VDD:p" -3.381551578830836e-06
"vdd" 1.200000000000000e+00
"vss" 0.000000000000000e+00
"time" 4.392066975593974e-12
"GND:p" 2.527136206775248e-04
"in0" 0.000000000000000e+00
"in1" 0.000000000000000e+00
"net13" -5.348582169818807e-01
"out" 1.181454380423688e+00
"V0:p" -1.264399351254725e-04
"V1:p" -1.205259347796475e-04
"VDD:p" -5.747750772403225e-06
"vdd" 1.200000000000000e+00
"vss" 0.000000000000000e+00
"time" 5.000000000000000e-12
"GND:p" 2.795216459727547e-04
"in0" 0.000000000000000e+00
"in1" 0.000000000000000e+00
"net13" -6.288778104777056e-01
"out" 1.177580497590839e+00
"V0:p" -1.295876917801872e-04
"V1:p" -1.378781388458492e-04
"VDD:p" -1.205581534672277e-05
"vdd" 1.200000000000000e+00
"vss" 0.000000000000000e+00
"time" 5.500000000000000e-12
"GND:p" 2.583246291298566e-04
"in0" 0.000000000000000e+00
"in1" 0.000000000000000e+00
"net13" -6.932733052429189e-01
"out" 1.168253868344480e+00
"V0:p" -1.204964010644028e-04
"V1:p" -1.176415113129330e-04
"VDD:p" -2.018671675252018e-05
"vdd" 1.200000000000000e+00
"vss" 0.000000000000000e+00
"time" 5.999999999999999e-12
"GND:p" 2.388038440942180e-04
"in0" 0.000000000000000e+00
"in1" 0.000000000000000e+00
"net13" -7.512430197145021e-01
"out" 1.156941720740270e+00
"V0:p" -1.079863841802381e-04
"V1:p" -1.027482129590608e-04
"VDD:p" -2.806924695492060e-05
"vdd" 1.200000000000000e+00
"vss" 0.000000000000000e+00
"time" 6.190421601093607e-12
"GND:p" 2.190969600279457e-04
"in0" 0.000000000000000e+00
"in1" 0.000000000000000e+00
"net13" -7.681964963970452e-01
"out" 1.151333756676894e+00
"V0:p" -9.686378200022918e-05
"V1:p" -9.099187737757760e-05
"VDD:p" -3.124130065013849e-05
"vdd" 1.200000000000000e+00
"vss" 0.000000000000000e+00
"time" 6.571264803280823e-12
"GND:p" 1.774077221733268e-04
"in0" 0.000000000000000e+00
"in1" 0.000000000000000e+00
"net13" -7.961481066236266e-01
"out" 1.139212401129160e+00
"V0:p" -7.390845111296331e-05
"V1:p" -6.666572326122432e-05
"VDD:p" -3.683354779914596e-05
"vdd" 1.200000000000000e+00
"vss" 0.000000000000000e+00
"time" 7.214621864436471e-12
"GND:p" 1.122471565267777e-04
"in0" 0.000000000000000e+00
"in1" 0.000000000000000e+00
"net13" -8.192319575084707e-01
"out" 1.115986162133754e+00
"V0:p" -3.853941550246408e-05
"V1:p" -3.004215965737419e-05
"VDD:p" -4.366558136693519e-05
"vdd" 1.200000000000000e+00
"vss" 0.000000000000000e+00
"time" 7.937965680665507e-12
"GND:p" 6.606527903806101e-05
"in0" 0.000000000000000e+00
"in1" 0.000000000000000e+00
"net13" -8.192157044069047e-01
"out" 1.088803353959533e+00
"V0:p" -1.356615266379466e-05
"V1:p" -4.993776070136035e-06
"VDD:p" -4.750535030413449e-05
"vdd" 1.200000000000000e+00
"vss" 0.000000000000000e+00
"time" 8.724469452769485e-12
"GND:p" 3.545453090814420e-05
"in0" 0.000000000000000e+00
"in1" 0.000000000000000e+00
"net13" -8.022911699929769e-01
"out" 1.061292083251242e+00
"V0:p" 2.861012608772514e-06
"V1:p" 1.057217969759067e-05
"VDD:p" -4.888772321450241e-05
"vdd" 1.200000000000000e+00
"vss" 0.000000000000000e+00
"time" 9.526560533056238e-12
"GND:p" 4.271591451878058e-06
"in0" 0.000000000000000e+00
"in1" 0.000000000000000e+00
"net13" -7.734470180479330e-01
"out" 1.037369671367976e+00
"V0:p" 1.882635471257832e-05
"V1:p" 2.532092029506884e-05
"VDD:p" -4.841886645953125e-05
"vdd" 1.200000000000000e+00
"vss" 0.000000000000000e+00
"time" 1.026328026652812e-11
"GND:p" -2.703063801017148e-05
"in0" 0.000000000000000e+00
"in1" 0.000000000000000e+00
"net13" -7.370977690174652e-01
"out" 1.020051033533968e+00
"V0:p" 3.426038067192831e-05
"V1:p" 3.935140420980169e-05
"VDD:p" -4.658114687155401e-05
"vdd" 1.200000000000000e+00
"vss" 0.000000000000000e+00
"time" 1.100000000000000e-11
"GND:p" -5.883965579348742e-05
"in0" 0.000000000000000e+00
"in1" 0.000000000000000e+00
"net13" -6.912984395030879e-01
"out" 1.007938241762398e+00
"V0:p" 4.933855633044167e-05
"V1:p" 5.289637434567860e-05
"VDD:p" -4.339527488263749e-05
"vdd" 1.200000000000000e+00
"vss" 0.000000000000000e+00
"time" 1.177007408666781e-11
"GND:p" -4.694247988618689e-05
"in0" 0.000000000000000e+00
"in1" 0.000000000000000e+00
"net13" -6.489758592453473e-01
"out" 1.003681369950371e+00
"V0:p" 4.225846018625521e-05
"V1:p" 4.408201884752852e-05
"VDD:p" -3.939799914759713e-05
"vdd" 1.200000000000000e+00
"vss" 0.000000000000000e+00
"time" 1.255283400133010e-11
"GND:p" -3.690134798110593e-05
"in0" 0.000000000000000e+00
"in1" 0.000000000000000e+00
"net13" -6.100737896652512e-01
"out" 1.001662782870206e+00
"V0:p" 3.606748748724844e-05
"V1:p" 3.661880202662148e-05
"VDD:p" -3.578494153276462e-05
"vdd" 1.200000000000000e+00
"vss" 0.000000000000000e+00
"time" 1.362586360197440e-11
"GND:p" -2.741092119836849e-05
"in0" 0.000000000000000e+00
"in1" 0.000000000000000e+00
"net13" -5.684343215618950e-01
"out" 1.004763521713209e+00
"V0:p" 3.004433445719934e-05
"V1:p" 2.938510717062849e-05
"VDD:p" -3.201852042945787e-05
"vdd" 1.200000000000000e+00
"vss" 0.000000000000000e+00
"time" 1.507617935494998e-11
"GND:p" -1.901192923004787e-05
"in0" 0.000000000000000e+00
"in1" 0.000000000000000e+00
"net13" -5.265960964972026e-01
"out" 1.015276962696754e+00
"V0:p" 2.411956145396525e-05
"V1:p" 2.275611326460696e-05
"VDD:p" -2.786374548852662e-05
"vdd" 1.200000000000000e+00
"vss" 0.000000000000000e+00
"time" 1.678116372482645e-11
"GND:p" -1.315164055961792e-05
"in0" 0.000000000000000e+00
"in1" 0.000000000000000e+00
"net13" -4.909640638302384e-01
"out" 1.031969310226069e+00
"V0:p" 1.952516660390772e-05
"V1:p" 1.776928188188063e-05
"VDD:p" -2.414280792616834e-05
"vdd" 1.200000000000000e+00
"vss" 0.000000000000000e+00
"time" 1.878116372482644e-11
"GND:p" -8.927958356243240e-06
"in0" 0.000000000000000e+00
"in1" 0.000000000000000e+00
"net13" -4.604927393651436e-01
"out" 1.053052473870414e+00
"V0:p" 1.553954621467374e-05
"V1:p" 1.381153085291904e-05
"VDD:p" -2.042311871135146e-05
"vdd" 1.200000000000000e+00
"vss" 0.000000000000000e+00
"time" 2.078116372482644e-11
"GND:p" -6.497622658876910e-06
"in0" 0.000000000000000e+00
"in1" 0.000000000000000e+00
"net13" -4.376431422908725e-01
"out" 1.073328716327656e+00
"V0:p" 1.282893280094676e-05
"V1:p" 1.113931150133176e-05
"VDD:p" -1.747062164339926e-05
"vdd" 1.200000000000000e+00
"vss" 0.000000000000000e+00
"time" 2.278116372482644e-11
"GND:p" -4.797541066963092e-06
"in0" 0.000000000000000e+00
"in1" 0.000000000000000e+00
"net13" -4.197040063253294e-01
"out" 1.091729655922339e+00
"V0:p" 1.053248853233844e-05
"V1:p" 9.067076448723670e-06
"VDD:p" -1.480202391410151e-05
"vdd" 1.200000000000000e+00
"vss" 0.000000000000000e+00
"time" 2.478116372482644e-11
"GND:p" -3.795217244955016e-06
"in0" 0.000000000000000e+00
"in1" 0.000000000000000e+00
"net13" -4.051399241597113e-01
"out" 1.107940515806123e+00
"V0:p" 8.916553139663270e-06
"V1:p" 7.556244127065257e-06
"VDD:p" -1.267758002177148e-05
"vdd" 1.200000000000000e+00
"vss" 0.000000000000000e+00
"time" 2.678116372482644e-11
"GND:p" -2.953444132206160e-06
"in0" 0.000000000000000e+00
"in1" 0.000000000000000e+00
"net13" -3.930118228346334e-01
"out" 1.121978945782634e+00
"V0:p" 7.390405224855564e-06
"V1:p" 6.266209861171456e-06
"VDD:p" -1.070317095382348e-05
"vdd" 1.200000000000000e+00
"vss" 0.000000000000000e+00
"time" 2.878116372482644e-11
"GND:p" -2.491819763562111e-06
"in0" 0.000000000000000e+00
"in1" 0.000000000000000e+00
"net13" -3.827090686460892e-01
"out" 1.134005762514490e+00
"V0:p" 6.350248653790159e-06
"V1:p" 5.317338907202718e-06
"VDD:p" -9.175767797427455e-06
"vdd" 1.200000000000000e+00
"vss" 0.000000000000000e+00
"time" 3.078116372482644e-11
"GND:p" -2.004117614931710e-06
"in0" 0.000000000000000e+00
"in1" 0.000000000000000e+00
"net13" -3.738154533814626e-01
"out" 1.144235634135299e+00
"V0:p" 5.272834981766026e-06
"V1:p" 4.449980529517060e-06
"VDD:p" -7.718697896354589e-06
"vdd" 1.200000000000000e+00
"vss" 0.000000000000000e+00
"time" 3.278116372482644e-11
"GND:p" -1.782096701487079e-06
"in0" 0.000000000000000e+00
"in1" 0.000000000000000e+00
"net13" -3.660358652506936e-01
"out" 1.152894011031835e+00
"V0:p" 4.592043340294133e-06
"V1:p" 3.829334988263715e-06
"VDD:p" -6.639281627067266e-06
"vdd" 1.200000000000000e+00
"vss" 0.000000000000000e+00
"time" 3.478116372482644e-11
"GND:p" -1.461181784269030e-06
"in0" 0.000000000000000e+00
"in1" 0.000000000000000e+00
"net13" -3.591541212933067e-01
"out" 1.160196622782544e+00
"V0:p" 3.807358054639325e-06
"V1:p" 3.222464516289262e-06
"VDD:p" -5.568640786663056e-06
"vdd" 1.200000000000000e+00
"vss" 0.000000000000000e+00
"time" 3.678116372482644e-11
"GND:p" -1.358161231916424e-06
"in0" 0.000000000000000e+00
"in1" 0.000000000000000e+00
"net13" -3.530075586300115e-01
"out" 1.166340354092815e+00
"V0:p" 3.367488637179920e-06
"V1:p" 2.811619094094107e-06
"VDD:p" -4.820946499353984e-06
"vdd" 1.200000000000000e+00
"vss" 0.000000000000000e+00
"time" 3.878116372482644e-11
"GND:p" -1.124028525250078e-06
"in0" 0.000000000000000e+00
"in1" 0.000000000000000e+00
"net13" -3.474710561025179e-01
"out" 1.171499980208920e+00
"V0:p" 2.782307091872835e-06
"V1:p" 2.375426815069507e-06
"VDD:p" -4.033705381696102e-06
"vdd" 1.200000000000000e+00
"vss" 0.000000000000000e+00
"time" 4.078116372482644e-11
"GND:p" -1.085548684138328e-06
"in0" 0.000000000000000e+00
"in1" 0.000000000000000e+00
"net13" -3.424465967209812e-01
"out" 1.175827921690714e+00
"V0:p" 2.508234727397384e-06
"V1:p" 2.104394605407125e-06
"VDD:p" -3.527080648662940e-06
"vdd" 1.200000000000000e+00
"vss" 0.000000000000000e+00
"time" 4.278116372482644e-11
"GND:p" -9.002765637649867e-07
"in0" 0.000000000000000e+00
"in1" 0.000000000000000e+00
"net13" -3.378562160959698e-01
"out" 1.179455507178145e+00
"V0:p" 2.061121624173294e-06
"V1:p" 1.783289679130836e-06
"VDD:p" -2.944134739542308e-06
"vdd" 1.200000000000000e+00
"vss" 0.000000000000000e+00
"time" 4.478116372482644e-11
"GND:p" -8.993923999765534e-07
"in0" 0.000000000000000e+00
"in1" 0.000000000000000e+00
"net13" -3.336370952146695e-01
"out" 1.182494922244130e+00
"V0:p" 1.902162489579236e-06
"V1:p" 1.607326651873208e-06
"VDD:p" -2.610096741472063e-06
"vdd" 1.200000000000000e+00
"vss" 0.000000000000000e+00
"time" 4.678116372482644e-11
"GND:p" -7.434833549505903e-07
"in0" 0.000000000000000e+00
"in1" 0.000000000000000e+00
"net13" -3.297380558720887e-01
"out" 1.185041394351384e+00
"V0:p" 1.551092086410251e-06
"V1:p" 1.364965478580475e-06
"VDD:p" -2.172574210043965e-06
"vdd" 1.200000000000000e+00
"vss" 0.000000000000000e+00
"time" 4.878116372482644e-11
"GND:p" -7.658507977684265e-07
"in0" 0.000000000000000e+00
"in1" 0.000000000000000e+00
"net13" -3.261170008119268e-01
"out" 1.187175370757828e+00
"V0:p" 1.472303332343210e-06
"V1:p" 1.254364659721044e-06
"VDD:p" -1.960817194292582e-06
"vdd" 1.200000000000000e+00
"vss" 0.000000000000000e+00
"time" 5.078116372482644e-11
"GND:p" -6.285905688710831e-07
"in0" 0.000000000000000e+00
"in1" 0.000000000000000e+00
"net13" -3.227390070862683e-01
"out" 1.188964563618137e+00
"V0:p" 1.188181610840398e-06
"V1:p" 1.066357876209774e-06
"VDD:p" -1.625948918182701e-06
"vdd" 1.200000000000000e+00
"vss" 0.000000000000000e+00
"time" 5.278116372482644e-11
"GND:p" -6.660935672918849e-07
"in0" 0.000000000000000e+00
"in1" 0.000000000000000e+00
"net13" -3.195748818220882e-01
"out" 1.190465803800244e+00
"V0:p" 1.165324453834341e-06
"V1:p" 1.001032815093473e-06
"VDD:p" -1.500263701631944e-06
"vdd" 1.200000000000000e+00
"vss" 0.000000000000000e+00
"time" 5.478116372482644e-11
"GND:p" -5.412535757034088e-07
"in0" 0.000000000000000e+00
"in1" 0.000000000000000e+00
"net13" -3.166000522297819e-01
"out" 1.191726683335596e+00
"V0:p" 9.279539765594373e-07
"V1:p" 8.507996735281527e-07
"VDD:p" -1.237500074388756e-06
"vdd" 1.200000000000000e+00
"vss" 0.000000000000000e+00
"time" 5.678116372482644e-11
"GND:p" -5.890535275933270e-07
"in0" 0.000000000000000e+00
"in1" 0.000000000000000e+00
"net13" -3.137937017148332e-01
"out" 1.192786987877883e+00
"V0:p" 9.441988334424080e-07
"V1:p" 8.170393779530081e-07
"VDD:p" -1.172184683798281e-06
"vdd" 1.200000000000000e+00
"vss" 0.000000000000000e+00
"time" 5.878116372482644e-11
"GND:p" -4.728318189875897e-07
"in0" 0.000000000000000e+00
"in1" 0.000000000000000e+00
"net13" -3.111380901645879e-01
"out" 1.193679931953100e+00
"V0:p" 7.395574634916588e-07
"V1:p" 6.932258394551646e-07
"VDD:p" -9.599514839631298e-07
"vdd" 1.200000000000000e+00
"vss" 0.000000000000000e+00
"time" 6.078116372482645e-11
"GND:p" -5.279090952785768e-07
"in0" 0.000000000000000e+00
"in1" 0.000000000000000e+00
"net13" -3.086180140446395e-01
"out" 1.194433215227520e+00
"V0:p" 7.832220887871695e-07
"V1:p" 6.816165981707264e-07
"VDD:p" -9.369295916761205e-07
"vdd" 1.200000000000000e+00
"vss" 0.000000000000000e+00
"time" 6.278116372482645e-11
"GND:p" -4.178830205937146e-07
"in0" 0.000000000000000e+00
"in1" 0.000000000000000e+00
"net13" -3.062203739605159e-01
"out" 1.195069919958963e+00
"V0:p" 6.015770156810929e-07
"V1:p" 5.764090236934326e-07
"VDD:p" -7.601030187842056e-07
"vdd" 1.200000000000000e+00
"vss" 0.000000000000000e+00
"time" 6.478116372482646e-11
"GND:p" -4.782753048351857e-07
"in0" 0.000000000000000e+00
"in1" 0.000000000000000e+00
"net13" -3.039338257322366e-01
"out" 1.195609269727630e+00
"V0:p" 6.645519708542592e-07
"V1:p" 5.804583829019797e-07
"VDD:p" -7.667350489176784e-07
"vdd" 1.200000000000000e+00
"vss" 0.000000000000000e+00
"time" 6.678116372482647e-11
"GND:p" -3.728410386229189e-07
"in0" 0.000000000000000e+00
"in1" 0.000000000000000e+00
"net13" -3.017484969946384e-01
"out" 1.196067268380227e+00
"V0:p" 4.991449855356957e-07
"V1:p" 4.884563448034134e-07
"VDD:p" -6.147602917195713e-07
"vdd" 1.200000000000000e+00
"vss" 0.000000000000000e+00
"time" 6.878116372482647e-11
"GND:p" -4.372263176878326e-07
"in0" 0.000000000000000e+00
"in1" 0.000000000000000e+00
"net13" -2.996557556475235e-01
"out" 1.196457236421423e+00
"V0:p" 5.757963282598236e-07
"V1:p" 5.036672737737117e-07
"VDD:p" -6.422372843417114e-07
"vdd" 1.200000000000000e+00
"vss" 0.000000000000000e+00
"time" 7.078116372482648e-11
"GND:p" -3.352853676185487e-07
"in0" 0.000000000000000e+00
"in1" 0.000000000000000e+00
"net13" -2.976480196425875e-01
"out" 1.196790260183741e+00
"V0:p" 4.219286313806939e-07
"V1:p" 4.211216742877013e-07
"VDD:p" -5.077649380538581e-07
"vdd" 1.200000000000000e+00
"vss" 0.000000000000000e+00
"time" 7.278116372482648e-11
"GND:p" -4.027439498999717e-07
"in0" 0.000000000000000e+00
"in1" 0.000000000000000e+00
"net13" -2.957185999463544e-01
"out" 1.197075567195985e+00
"V0:p" 5.083352410927002e-07
"V1:p" 4.443647575529251e-07
"VDD:p" -5.499560487422112e-07
"vdd" 1.200000000000000e+00
"vss" 0.000000000000000e+00
"time" 7.478116372482649e-11
"GND:p" -3.035208171920249e-07
"in0" 0.000000000000000e+00
"in1" 0.000000000000000e+00
"net13" -2.938615702892793e-01
"out" 1.197320839359792e+00
"V0:p" 3.627323835560497e-07
"V1:p" 3.686599842440317e-07
"VDD:p" -4.278715506106450e-07
"vdd" 1.200000000000000e+00
