HEADER
"PSFversion" "1.00"
"simulator" "spectre"
"version" "19.1.0.237.isr3"
"date" "1:51:07 PM, Sat Sep 10, 2022"
"design" "// Generated for: spectre"
"analysis type" "tran"
"analysis name" "sim"
"analysis description" "Transient Analysis `sim': time = (0 s -> 100 ps)"
"xVecSorted" "ascending"
"tolerance.relative" 0.00100000
"start" 0.00000
"outputstart" 0.00000
"stop" 1.00000e-10
"step" 1.00000e-13
"istep" 0.00100000
"maxstep" 2.00000e-12
"ic" "all"
"useprevic" "no"
"skipdc" "no"
"reltol" 0.00100000
"abstol(V)" 1.00000e-06
"abstol(I)" 1.00000e-12
"temp" 27.0000
"tnom" 27.0000
"tempeffects" "all"
"errpreset" "moderate"
"method" "traponly"
"lteratio" 3.50000
"relref" "sigglobal"
"cmin" 0.00000
"gmin" 1.00000e-12
TYPE
"sweep" FLOAT DOUBLE PROP(
"key" "sweep"
)
"LogicV" FLOAT DOUBLE PROP(
"key" "node"
)
"Tau" FLOAT DOUBLE PROP(
"units" "N*m"
"key" "node"
"tolerance" 1.00000e-06
)
"Alpha" FLOAT DOUBLE PROP(
"units" "rads/s^2"
"key" "node"
"tolerance" 1.00000e-06
)
"Omega" FLOAT DOUBLE PROP(
"units" "rads/s"
"key" "node"
"tolerance" 1.00000e-06
)
"Theta" FLOAT DOUBLE PROP(
"units" "rads"
"key" "node"
"tolerance" 1.00000e-06
)
"F" FLOAT DOUBLE PROP(
"units" "N"
"key" "node"
"tolerance" 1.00000e-06
)
"Imp" FLOAT DOUBLE PROP(
"units" "m/s^3"
"key" "node"
"tolerance" 1.00000e-06
)
"Acc" FLOAT DOUBLE PROP(
"units" "m/s^2"
"key" "node"
"tolerance" 1.00000e-06
)
"Vel" FLOAT DOUBLE PROP(
"units" "m/s"
"key" "node"
"tolerance" 1.00000e-06
)
"Pos" FLOAT DOUBLE PROP(
"units" "m"
"key" "node"
"tolerance" 1.00000e-06
)
"Phi" FLOAT DOUBLE PROP(
"units" "Wb"
"key" "node"
"tolerance" 1.00000e-09
)
"V" FLOAT DOUBLE PROP(
"units" "V"
"key" "node"
"tolerance" 1.00000e-06
)
"I" FLOAT DOUBLE PROP(
"units" "A"
"key" "branch"
"tolerance" 1.00000e-12
)
"MMF" FLOAT DOUBLE PROP(
"units" "A*turn"
"key" "node"
"tolerance" 1.00000e-12
)
"Wb" FLOAT DOUBLE PROP(
"units" "Wb"
"key" "node"
"tolerance" 1.00000e-09
)
"Temp" FLOAT DOUBLE PROP(
"units" "C"
"key" "node"
"tolerance" 0.000100000
)
"Pwr" FLOAT DOUBLE PROP(
"units" "W"
"key" "node"
"tolerance" 1.00000e-09
)
"U" FLOAT DOUBLE PROP(
"units" ""
"key" "node"
"tolerance" 1.00000e-06
)
"V/Sec" FLOAT DOUBLE PROP(
"units" "V/s"
"key" "node"
"tolerance" 0.000100000
)
"I/Sec" FLOAT DOUBLE PROP(
"units" "A/s"
"key" "node"
"tolerance" 1.00000e-06
)
"1/Sec" FLOAT DOUBLE PROP(
"units" "1/s"
"key" "node"
"tolerance" 0.000100000
)
"HOD" FLOAT DOUBLE PROP(
"units" ""
"key" "node"
"tolerance" 0.0100000
)
"Q" FLOAT DOUBLE PROP(
"units" "coul"
"key" "node"
"tolerance" 1.00000e-14
)
SWEEP
"time" "sweep" PROP(
"sweep_direction" 0
"units" "s"
"plot" 0
"grid" 1
)
TRACE
"in0" "V"
"in1" "V"
"net13" "V"
"out" "V"
"V0:p" "I"
"V1:p" "I"
"VDD:p" "I"
"VSS:p" "I"
"vdd" "V"
"vss" "V"
VALUE
"time" 0.000000000000000e+00
"in0" 1.200000000000000e+00
"in1" 0.000000000000000e+00
"net13" 1.175255987389764e+00
"out" 1.199998622265821e+00
"V0:p" 2.999488749051789e-11
"V1:p" -2.885339490148764e-16
"VDD:p" -1.571690853367175e-10
"VSS:p" 1.271602942602738e-10
"vdd" 1.200000000000000e+00
"vss" 0.000000000000000e+00
"time" 1.000000000000000e-13
"in0" 1.200000000000000e+00
"in1" 0.000000000000000e+00
"net13" 1.172824447675917e+00
"out" 1.199780989234316e+00
"V0:p" -6.615719875581993e-06
"V1:p" -9.213410832064301e-06
"VDD:p" -1.396246373541681e-06
"VSS:p" 1.722537708118798e-05
"vdd" 1.200000000000000e+00
"vss" 0.000000000000000e+00
"time" 2.840741814671650e-13
"in0" 1.200000000000000e+00
"in1" 0.000000000000000e+00
"net13" 1.160101078885975e+00
"out" 1.198650579119683e+00
"V0:p" -1.878274373370041e-05
"V1:p" -2.612591178759396e-05
"VDD:p" -4.008586755316347e-06
"VSS:p" 4.891724227661115e-05
"vdd" 1.200000000000000e+00
"vss" 0.000000000000000e+00
"time" 5.969872113384567e-13
"in0" 1.200000000000000e+00
"in1" 0.000000000000000e+00
"net13" 1.126464988579192e+00
"out" 1.195683964548759e+00
"V0:p" -3.955793690617135e-05
"V1:p" -5.460532528592865e-05
"VDD:p" -8.447096553051865e-06
"VSS:p" 1.026103587451517e-04
"vdd" 1.200000000000000e+00
"vss" 0.000000000000000e+00
"time" 7.984936056692284e-13
"in0" 1.200000000000000e+00
"in1" 0.000000000000000e+00
"net13" 1.092030766628860e+00
"out" 1.192682587514786e+00
"V0:p" -5.298732807983972e-05
"V1:p" -7.270720529480590e-05
"VDD:p" -1.124919567840714e-05
"VSS:p" 1.369437290530518e-04
"vdd" 1.200000000000000e+00
"vss" 0.000000000000000e+00
"time" 1.000000000000000e-12
"in0" 1.200000000000000e+00
"in1" 0.000000000000000e+00
"net13" 1.047518999225598e+00
"out" 1.188865888540138e+00
"V0:p" -6.629857600503872e-05
"V1:p" -9.090374651458339e-05
"VDD:p" -1.399810006614578e-05
"VSS:p" 1.712004225857643e-04
"vdd" 1.200000000000000e+00
"vss" 0.000000000000000e+00
"time" 1.403012788661543e-12
"in0" 1.200000000000000e+00
"in1" 0.000000000000000e+00
"net13" 9.486463316867393e-01
"out" 1.180911082479188e+00
"V0:p" -6.556793381909952e-05
"V1:p" -9.134495769709963e-05
"VDD:p" -1.400203928655042e-05
"VSS:p" 1.709149308027491e-04
"vdd" 1.200000000000000e+00
"vss" 0.000000000000000e+00
"time" 1.705874721797434e-12
"in0" 1.200000000000000e+00
"in1" 0.000000000000000e+00
"net13" 8.760859324696192e-01
"out" 1.175832494097750e+00
"V0:p" -5.996131755605350e-05
"V1:p" -1.004677738355119e-04
"VDD:p" -1.072254849434334e-05
"VSS:p" 1.711516398859088e-04
"vdd" 1.200000000000000e+00
"vss" 0.000000000000000e+00
"time" 2.083538250379539e-12
"in0" 1.200000000000000e+00
"in1" 0.000000000000000e+00
"net13" 7.925942785932794e-01
"out" 1.171968407149165e+00
"V0:p" -5.068065448379153e-05
"V1:p" -1.167550815343593e-04
"VDD:p" -6.932759364294055e-06
"VSS:p" 1.743684953824449e-04
"vdd" 1.200000000000000e+00
"vss" 0.000000000000000e+00
"time" 2.630934074689518e-12
"in0" 1.200000000000000e+00
"in1" 0.000000000000000e+00
"net13" 6.884203584029749e-01
"out" 1.170230781249332e+00
"V0:p" -3.903488060300339e-05
"V1:p" -1.358011955280563e-04
"VDD:p" -2.769213356631731e-06
"VSS:p" 1.776052894876925e-04
"vdd" 1.200000000000000e+00
"vss" 0.000000000000000e+00
"time" 3.466880643134243e-12
"in0" 1.200000000000000e+00
"in1" 0.000000000000000e+00
"net13" 5.526474434074348e-01
"out" 1.165046969794435e+00
"V0:p" -4.107186714062109e-05
"V1:p" -1.276627367597425e-04
"VDD:p" -1.133118064418949e-05
"VSS:p" 1.800657845445516e-04
"vdd" 1.200000000000000e+00
"vss" 0.000000000000000e+00
"time" 4.196071251025757e-12
"in0" 1.200000000000000e+00
"in1" 0.000000000000000e+00
"net13" 4.506440451542764e-01
"out" 1.151928953377556e+00
"V0:p" -4.029896335485792e-05
"V1:p" -1.234031305052522e-04
"VDD:p" -1.848548223824690e-05
"VSS:p" 1.821875760983587e-04
"vdd" 1.200000000000000e+00
"vss" 0.000000000000000e+00
"time" 5.214620635132188e-12
"in0" 1.200000000000000e+00
"in1" 0.000000000000000e+00
"net13" 3.319987478718949e-01
"out" 1.117692639798070e+00
"V0:p" -4.516458024562294e-05
"V1:p" -1.062184948838982e-04
"VDD:p" -3.387438018879761e-05
"VSS:p" 1.852574553183173e-04
"vdd" 1.200000000000000e+00
"vss" 0.000000000000000e+00
"time" 5.999999999999999e-12
"in0" 1.200000000000000e+00
"in1" 0.000000000000000e+00
"net13" 2.577378896828800e-01
"out" 1.079073955411696e+00
"V0:p" -4.385258117703660e-05
"V1:p" -1.012827711408815e-04
"VDD:p" -4.229201152262789e-05
"VSS:p" 1.874273638405468e-04
"vdd" 1.200000000000000e+00
"vss" 0.000000000000000e+00
"time" 6.371863063117530e-12
"in0" 1.200000000000000e+00
"in1" 0.000000000000000e+00
"net13" 2.327046145534751e-01
"out" 1.056689621354637e+00
"V0:p" -4.258850553521362e-05
"V1:p" -8.515536673408632e-05
"VDD:p" -4.748764146370557e-05
"VSS:p" 1.752315137330056e-04
"vdd" 1.200000000000000e+00
"vss" 0.000000000000000e+00
"time" 7.115589189352590e-12
"in0" 1.200000000000000e+00
"in1" 0.000000000000000e+00
"net13" 1.952748371692721e-01
"out" 1.008733359280586e+00
"V0:p" -3.629174723692276e-05
"V1:p" -5.939884977228566e-05
"VDD:p" -5.460047813841675e-05
"VSS:p" 1.502910751476240e-04
"vdd" 1.200000000000000e+00
"vss" 0.000000000000000e+00
"time" 7.986292134360430e-12
"in0" 1.200000000000000e+00
"in1" 0.000000000000000e+00
"net13" 1.800704518131652e-01
"out" 9.472757599395728e-01
"V0:p" -2.797702846391790e-05
"V1:p" -3.285231394034817e-05
"VDD:p" -5.955542785224407e-05
"VSS:p" 1.203847702565129e-04
"vdd" 1.200000000000000e+00
"vss" 0.000000000000000e+00
"time" 9.023946974846537e-12
"in0" 1.200000000000000e+00
"in1" 0.000000000000000e+00
"net13" 1.940308916095866e-01
"out" 8.724577375472297e-01
"V0:p" -1.605160339545714e-05
"V1:p" -6.305596885944539e-06
"VDD:p" -6.090044642809208e-05
"VSS:p" 8.325764670949016e-05
"vdd" 1.200000000000000e+00
"vss" 0.000000000000000e+00
"time" 1.001197348742327e-11
"in0" 1.200000000000000e+00
"in1" 0.000000000000000e+00
"net13" 2.332032680982843e-01
"out" 8.055488906592935e-01
"V0:p" -5.400970972327073e-06
"V1:p" 1.686380921684748e-05
"VDD:p" -5.857626132227253e-05
"VSS:p" 4.711342307775610e-05
"vdd" 1.200000000000000e+00
"vss" 0.000000000000000e+00
"time" 1.100000000000000e-11
"in0" 1.200000000000000e+00
"in1" 0.000000000000000e+00
"net13" 2.928500990017504e-01
"out" 7.496877218414260e-01
"V0:p" 4.427004377444543e-06
"V1:p" 3.915664328085072e-05
"VDD:p" -5.363568354856097e-05
"VSS:p" 1.005203589026082e-05
"vdd" 1.200000000000000e+00
"vss" 0.000000000000000e+00
"time" 1.159309500232189e-11
"in0" 1.200000000000000e+00
"in1" 0.000000000000000e+00
"net13" 3.294402804067736e-01
"out" 7.266710098211226e-01
"V0:p" 4.957058181876009e-06
"V1:p" 3.652936736127293e-05
"VDD:p" -5.034555244903737e-05
"VSS:p" 8.859126905888739e-06
"vdd" 1.200000000000000e+00
"vss" 0.000000000000000e+00
"time" 1.250876686706121e-11
"in0" 1.200000000000000e+00
"in1" 0.000000000000000e+00
"net13" 3.806395296155852e-01
"out" 6.976609548537951e-01
"V0:p" 6.186760825421661e-06
"V1:p" 3.196827317047706e-05
"VDD:p" -4.511389736691571e-05
"VSS:p" 6.958863371017017e-06
"vdd" 1.200000000000000e+00
"vss" 0.000000000000000e+00
"time" 1.354393263482626e-11
"in0" 1.200000000000000e+00
"in1" 0.000000000000000e+00
"net13" 4.274282327085914e-01
"out" 6.789184010152913e-01
"V0:p" 6.430524206002271e-06
"V1:p" 2.906913722144127e-05
"VDD:p" -4.111873878654059e-05
"VSS:p" 5.619077359097360e-06
"vdd" 1.200000000000000e+00
"vss" 0.000000000000000e+00
"time" 1.502986050879656e-11
"in0" 1.200000000000000e+00
"in1" 0.000000000000000e+00
"net13" 4.797892489808412e-01
"out" 6.705144550751870e-01
"V0:p" 7.164197079259204e-06
"V1:p" 2.513165111219879e-05
"VDD:p" -3.632856078056397e-05
"VSS:p" 4.032712589105840e-06
"vdd" 1.200000000000000e+00
"vss" 0.000000000000000e+00
"time" 1.672889316999775e-11
"in0" 1.200000000000000e+00
"in1" 0.000000000000000e+00
"net13" 5.254321665566061e-01
"out" 6.777752877105693e-01
"V0:p" 6.941928270086583e-06
"V1:p" 2.330930543798802e-05
"VDD:p" -3.346650930293510e-05
"VSS:p" 3.215275594860879e-06
"vdd" 1.200000000000000e+00
"vss" 0.000000000000000e+00
"time" 1.861251592175825e-11
"in0" 1.200000000000000e+00
"in1" 0.000000000000000e+00
"net13" 5.653810009559940e-01
"out" 6.971583582433678e-01
"V0:p" 7.264233271982617e-06
"V1:p" 2.092217856804653e-05
"VDD:p" -3.062057369505921e-05
"VSS:p" 2.434161855029461e-06
"vdd" 1.200000000000000e+00
"vss" 0.000000000000000e+00
"time" 2.061251592175825e-11
"in0" 1.200000000000000e+00
"in1" 0.000000000000000e+00
"net13" 6.003703107160592e-01
"out" 7.243198133198104e-01
"V0:p" 6.857767785760673e-06
"V1:p" 1.986694840191098e-05
"VDD:p" -2.889982799896974e-05
"VSS:p" 2.175111811298642e-06
"vdd" 1.200000000000000e+00
"vss" 0.000000000000000e+00
"time" 2.261251592175825e-11
"in0" 1.200000000000000e+00
"in1" 0.000000000000000e+00
"net13" 6.303098509747928e-01
"out" 7.546917126110293e-01
"V0:p" 7.121000620668579e-06
"V1:p" 1.777687300997839e-05
"VDD:p" -2.663039269864162e-05
"VSS:p" 1.732519067994038e-06
"vdd" 1.200000000000000e+00
"vss" 0.000000000000000e+00
"time" 2.461251592175825e-11
"in0" 1.200000000000000e+00
"in1" 0.000000000000000e+00
"net13" 6.564262946902920e-01
"out" 7.863309990858102e-01
"V0:p" 6.708164675748080e-06
"V1:p" 1.678816507407866e-05
"VDD:p" -2.514591633821627e-05
"VSS:p" 1.649586588390508e-06
"vdd" 1.200000000000000e+00
"vss" 0.000000000000000e+00
"time" 2.661251592175825e-11
"in0" 1.200000000000000e+00
"in1" 0.000000000000000e+00
"net13" 6.792392176279655e-01
"out" 8.181232260714465e-01
"V0:p" 6.971929034095984e-06
"V1:p" 1.466580996864445e-05
"VDD:p" -2.292274277067833e-05
"VSS:p" 1.285003767937482e-06
"vdd" 1.200000000000000e+00
"vss" 0.000000000000000e+00
"time" 2.861251592175825e-11
"in0" 1.200000000000000e+00
"in1" 0.000000000000000e+00
"net13" 6.990022825042087e-01
"out" 8.493606490346788e-01
"V0:p" 6.536440546760346e-06
"V1:p" 1.367891842477867e-05
"VDD:p" -2.145809003115564e-05
"VSS:p" 1.242731059617056e-06
"vdd" 1.200000000000000e+00
"vss" 0.000000000000000e+00
"time" 3.061251592175826e-11
"in0" 1.200000000000000e+00
"in1" 0.000000000000000e+00
"net13" 7.160269381373215e-01
"out" 8.794805269512642e-01
"V0:p" 6.732963095836733e-06
"V1:p" 1.168790659941261e-05
"VDD:p" -1.934501200286567e-05
"VSS:p" 9.241423076159123e-07
"vdd" 1.200000000000000e+00
"vss" 0.000000000000000e+00
"time" 3.261251592175826e-11
"in0" 1.200000000000000e+00
"in1" 0.000000000000000e+00
"net13" 7.307562277375615e-01
"out" 9.080208976417415e-01
"V0:p" 6.190366669799534e-06
"V1:p" 1.096115953492742e-05
"VDD:p" -1.809430789673370e-05
"VSS:p" 9.427816920071594e-07
"vdd" 1.200000000000000e+00
"vss" 0.000000000000000e+00
"time" 3.461251592175825e-11
"in0" 1.200000000000000e+00
"in1" 0.000000000000000e+00
"net13" 7.436141387853139e-01
"out" 9.347105364813184e-01
"V0:p" 6.270125392594652e-06
"V1:p" 9.269607590640813e-06
"VDD:p" -1.622084601348511e-05
"VSS:p" 6.811130302491381e-07
"vdd" 1.200000000000000e+00
"vss" 0.000000000000000e+00
"time" 3.661251592175825e-11
"in0" 1.200000000000000e+00
"in1" 0.000000000000000e+00
"net13" 7.549363982409396e-01
"out" 9.594485275978253e-01
"V0:p" 5.626449401516322e-06
"V1:p" 8.824737358068045e-06
"VDD:p" -1.519557443618024e-05
"VSS:p" 7.443876765961565e-07
"vdd" 1.200000000000000e+00
"vss" 0.000000000000000e+00
"time" 3.861251592175825e-11
"in0" 1.200000000000000e+00
"in1" 0.000000000000000e+00
"net13" 7.649828195730765e-01
"out" 9.822351296942818e-01
"V0:p" 5.631356282717115e-06
"V1:p" 7.382826480431348e-06
"VDD:p" -1.353121486965261e-05
"VSS:p" 5.170321065038030e-07
"vdd" 1.200000000000000e+00
"vss" 0.000000000000000e+00
"time" 4.061251592175825e-11
"in0" 1.200000000000000e+00
"in1" 0.000000000000000e+00
"net13" 7.739559330510344e-01
"out" 1.003126449896261e+00
"V0:p" 4.940383897633385e-06
"V1:p" 7.154480457470081e-06
"VDD:p" -1.270177361249452e-05
"VSS:p" 6.069092573911880e-07
"vdd" 1.200000000000000e+00
"vss" 0.000000000000000e+00
"time" 4.261251592175825e-11
"in0" 1.200000000000000e+00
"in1" 0.000000000000000e+00
"net13" 7.820157838621665e-01
"out" 1.022209150191160e+00
"V0:p" 4.922438466202309e-06
"V1:p" 5.899695305658573e-06
"VDD:p" -1.122261026181547e-05
"VSS:p" 4.004764899545809e-07
"vdd" 1.200000000000000e+00
"vss" 0.000000000000000e+00
"time" 4.461251592175825e-11
"in0" 1.200000000000000e+00
"in1" 0.000000000000000e+00
"net13" 7.892908146512474e-01
"out" 1.039586275543292e+00
"V0:p" 4.228464727458348e-06
"V1:p" 5.833732174090592e-06
"VDD:p" -1.056927022266572e-05
"VSS:p" 5.070733211166888e-07
"vdd" 1.200000000000000e+00
"vss" 0.000000000000000e+00
"time" 4.661251592175825e-11
"in0" 1.200000000000000e+00
"in1" 0.000000000000000e+00
"net13" 7.958857096479171e-01
"out" 1.055368913807927e+00
"V0:p" 4.222731798345319e-06
"V1:p" 4.720821249358478e-06
"VDD:p" -9.257766565972990e-06
"VSS:p" 3.142135182691470e-07
"vdd" 1.200000000000000e+00
"vss" 0.000000000000000e+00
"time" 4.861251592175825e-11
"in0" 1.200000000000000e+00
"in1" 0.000000000000000e+00
"net13" 8.018870312907784e-01
"out" 1.069670992287360e+00
"V0:p" 3.552079742156108e-06
"V1:p" 4.779685742338336e-06
"VDD:p" -8.763757272812671e-06
"VSS:p" 4.319917883179296e-07
"vdd" 1.200000000000000e+00
"vss" 0.000000000000000e+00
"time" 5.061251592175825e-11
"in0" 1.200000000000000e+00
"in1" 0.000000000000000e+00
"net13" 8.073672915406453e-01
"out" 1.082605875213013e+00
"V0:p" 3.577368831132963e-06
"V1:p" 3.777276225328487e-06
"VDD:p" -7.603110398128554e-06
"VSS:p" 2.484653416676977e-07
"vdd" 1.200000000000000e+00
"vss" 0.000000000000000e+00
"time" 5.261251592175825e-11
"in0" 1.200000000000000e+00
"in1" 0.000000000000000e+00
"net13" 8.123879222674704e-01
"out" 1.094284081818759e+00
"V0:p" 2.942712752984594e-06
"V1:p" 3.934434036884601e-06
"VDD:p" -7.251271060850263e-06
"VSS:p" 3.741242709800475e-07
"vdd" 1.200000000000000e+00
"vss" 0.000000000000000e+00
"time" 5.461251592175825e-11
"in0" 1.200000000000000e+00
"in1" 0.000000000000000e+00
"net13" 8.170014712460334e-01
"out" 1.104811755626215e+00
"V0:p" 3.006848625660455e-06
"V1:p" 3.019771231681906e-06
"VDD:p" -6.223937299832466e-06
"VSS:p" 1.973174424913419e-07
"vdd" 1.200000000000000e+00
"vss" 0.000000000000000e+00
"time" 5.661251592175825e-11
"in0" 1.200000000000000e+00
"in1" 0.000000000000000e+00
"net13" 8.212532506831324e-01
"out" 1.114289666192321e+00
"V0:p" 2.412273862959290e-06
"V1:p" 3.255454371787176e-06
"VDD:p" -5.996481698976045e-06
"VSS:p" 3.287534642278155e-07
"vdd" 1.200000000000000e+00
"vss" 0.000000000000000e+00
"time" 5.861251592175825e-11
"in0" 1.200000000000000e+00
"in1" 0.000000000000000e+00
"net13" 8.251825954260987e-01
"out" 1.122812601312667e+00
"V0:p" 2.516522962943366e-06
"V1:p" 2.411175190402606e-06
"VDD:p" -5.084645812586721e-06
"VSS:p" 1.569476592423755e-07
"vdd" 1.200000000000000e+00
"vss" 0.000000000000000e+00
"time" 6.061251592175826e-11
"in0" 1.200000000000000e+00
"in1" 0.000000000000000e+00
"net13" 8.288238398212334e-01
"out" 1.130469049930804e+00
"V0:p" 1.961221726911576e-06
"V1:p" 2.709999681088237e-06
"VDD:p" -4.963959013346940e-06
"VSS:p" 2.927376053455825e-07
"vdd" 1.200000000000000e+00
"vss" 0.000000000000000e+00
"time" 6.261251592175826e-11
"in0" 1.200000000000000e+00
"in1" 0.000000000000000e+00
"net13" 8.322070891094815e-01
"out" 1.137341101626449e+00
"V0:p" 2.103293893685066e-06
"V1:p" 1.922384660120133e-06
"VDD:p" -4.150418790325128e-06
"VSS:p" 1.247402365217380e-07
"vdd" 1.200000000000000e+00
"vss" 0.000000000000000e+00
"time" 6.461251592175827e-11
"in0" 1.200000000000000e+00
"in1" 0.000000000000000e+00
"net13" 8.353588385566760e-01
"out" 1.143504505692034e+00
"V0:p" 1.583957284153772e-06
"V1:p" 2.272058781343138e-06
"VDD:p" -4.119890541510606e-06
"VSS:p" 2.638744760119103e-07
"vdd" 1.200000000000000e+00
"vss" 0.000000000000000e+00
"time" 6.661251592175827e-11
"in0" 1.200000000000000e+00
"in1" 0.000000000000000e+00
"net13" 8.383024779262458e-01
"out" 1.149028845248428e+00
"V0:p" 1.759883148824454e-06
"V1:p" 1.530061297612499e-06
"VDD:p" -3.388767798190080e-06
"VSS:p" 9.882335175465745e-08
"vdd" 1.200000000000000e+00
"vss" 0.000000000000000e+00
"time" 6.861251592175828e-11
"in0" 1.200000000000000e+00
"in1" 0.000000000000000e+00
"net13" 8.410587081545846e-01
"out" 1.153977791422171e+00
"V0:p" 1.272154285844192e-06
"V1:p" 1.920638646829129e-06
"VDD:p" -3.433353144881781e-06
"VSS:p" 2.405602122070126e-07
"vdd" 1.200000000000000e+00
"vss" 0.000000000000000e+00
"time" 7.061251592175829e-11
"in0" 1.200000000000000e+00
"in1" 0.000000000000000e+00
"net13" 8.436458896454896e-01
"out" 1.158409410236876e+00
"V0:p" 1.477394136104899e-06
"V1:p" 1.215294320601926e-06
"VDD:p" -2.770501890430229e-06
"VSS:p" 7.781343372445377e-08
"vdd" 1.200000000000000e+00
"vss" 0.000000000000000e+00
"time" 7.261251592175829e-11
"in0" 1.200000000000000e+00
"in1" 0.000000000000000e+00
"net13" 8.460803364158858e-01
"out" 1.162376501069539e+00
"V0:p" 1.016701085261492e-06
"V1:p" 1.638693556172212e-06
"VDD:p" -2.876989179400699e-06
"VSS:p" 2.215945379660445e-07
"vdd" 1.200000000000000e+00
"vss" 0.000000000000000e+00
"time" 7.461251592175830e-11
"in0" 1.200000000000000e+00
"in1" 0.000000000000000e+00
"net13" 8.483765666904579e-01
"out" 1.165926950592006e+00
"V0:p" 1.246759018475268e-06
"V1:p" 9.627192730748303e-07
"VDD:p" -2.270142607792796e-06
"VSS:p" 6.066431624367862e-08
"vdd" 1.200000000000000e+00
"vss" 0.000000000000000e+00
"time" 7.661251592175830e-11
"in0" 1.200000000000000e+00
