HEADER
"PSFversion" "1.00"
"simulator" "spectre"
"version" "19.1.0.237.isr3"
"date" "4:10:01 PM, Tue Aug 30, 2022"
"design" "// Generated for: spectre"
"analysis type" "tran"
"analysis name" "sim"
"analysis description" "Transient Analysis `sim': time = (0 s -> 100 ps)"
"xVecSorted" "ascending"
"tolerance.relative" 0.00100000
"start" 0.00000
"outputstart" 0.00000
"stop" 1.00000e-10
"step" 1.00000e-13
"istep" 0.00100000
"maxstep" 2.00000e-12
"ic" "all"
"useprevic" "no"
"skipdc" "no"
"reltol" 0.00100000
"abstol(V)" 1.00000e-06
"abstol(I)" 1.00000e-12
"temp" 27.0000
"tnom" 27.0000
"tempeffects" "all"
"errpreset" "moderate"
"method" "traponly"
"lteratio" 3.50000
"relref" "sigglobal"
"cmin" 0.00000
"gmin" 1.00000e-12
TYPE
"sweep" FLOAT DOUBLE PROP(
"key" "sweep"
)
"LogicV" FLOAT DOUBLE PROP(
"key" "node"
)
"Tau" FLOAT DOUBLE PROP(
"units" "N*m"
"key" "node"
"tolerance" 1.00000e-06
)
"Alpha" FLOAT DOUBLE PROP(
"units" "rads/s^2"
"key" "node"
"tolerance" 1.00000e-06
)
"Omega" FLOAT DOUBLE PROP(
"units" "rads/s"
"key" "node"
"tolerance" 1.00000e-06
)
"Theta" FLOAT DOUBLE PROP(
"units" "rads"
"key" "node"
"tolerance" 1.00000e-06
)
"F" FLOAT DOUBLE PROP(
"units" "N"
"key" "node"
"tolerance" 1.00000e-06
)
"Imp" FLOAT DOUBLE PROP(
"units" "m/s^3"
"key" "node"
"tolerance" 1.00000e-06
)
"Acc" FLOAT DOUBLE PROP(
"units" "m/s^2"
"key" "node"
"tolerance" 1.00000e-06
)
"Vel" FLOAT DOUBLE PROP(
"units" "m/s"
"key" "node"
"tolerance" 1.00000e-06
)
"Pos" FLOAT DOUBLE PROP(
"units" "m"
"key" "node"
"tolerance" 1.00000e-06
)
"Phi" FLOAT DOUBLE PROP(
"units" "Wb"
"key" "node"
"tolerance" 1.00000e-09
)
"V" FLOAT DOUBLE PROP(
"units" "V"
"key" "node"
"tolerance" 1.00000e-06
)
"I" FLOAT DOUBLE PROP(
"units" "A"
"key" "branch"
"tolerance" 1.00000e-12
)
"MMF" FLOAT DOUBLE PROP(
"units" "A*turn"
"key" "node"
"tolerance" 1.00000e-12
)
"Wb" FLOAT DOUBLE PROP(
"units" "Wb"
"key" "node"
"tolerance" 1.00000e-09
)
"Temp" FLOAT DOUBLE PROP(
"units" "C"
"key" "node"
"tolerance" 0.000100000
)
"Pwr" FLOAT DOUBLE PROP(
"units" "W"
"key" "node"
"tolerance" 1.00000e-09
)
"U" FLOAT DOUBLE PROP(
"units" ""
"key" "node"
"tolerance" 1.00000e-06
)
"V/Sec" FLOAT DOUBLE PROP(
"units" "V/s"
"key" "node"
"tolerance" 0.000100000
)
"I/Sec" FLOAT DOUBLE PROP(
"units" "A/s"
"key" "node"
"tolerance" 1.00000e-06
)
"1/Sec" FLOAT DOUBLE PROP(
"units" "1/s"
"key" "node"
"tolerance" 0.000100000
)
"HOD" FLOAT DOUBLE PROP(
"units" ""
"key" "node"
"tolerance" 0.0100000
)
"Q" FLOAT DOUBLE PROP(
"units" "coul"
"key" "node"
"tolerance" 1.00000e-14
)
SWEEP
"time" "sweep" PROP(
"sweep_direction" 0
"units" "s"
"plot" 0
"grid" 1
)
TRACE
"GND:p" "I"
"in0" "V"
"in1" "V"
"net13" "V"
"out" "V"
"V0:p" "I"
"V1:p" "I"
"VDD:p" "I"
"vdd" "V"
"vss" "V"
VALUE
"time" 0.000000000000000e+00
"GND:p" 1.271602942602738e-10
"in0" 1.200000000000000e+00
"in1" 0.000000000000000e+00
"net13" 1.175255987389764e+00
"out" 1.199998622265821e+00
"V0:p" -2.885339490148764e-16
"V1:p" 2.999488749051789e-11
"VDD:p" -1.571690853367175e-10
"vdd" 1.200000000000000e+00
"vss" 0.000000000000000e+00
"time" 1.000000000000000e-13
"GND:p" 5.167702188240294e-06
"in0" 1.200000000000000e+00
"in1" 0.000000000000000e+00
"net13" 1.174526525520853e+00
"out" 1.199933332337746e+00
"V0:p" -2.764023191350097e-06
"V1:p" -1.984694946997459e-06
"VDD:p" -4.189840498927373e-07
"vdd" 1.200000000000000e+00
"vss" 0.000000000000000e+00
"time" 3.000000000000000e-13
"GND:p" 1.550154169922999e-05
"in0" 1.200000000000000e+00
"in1" 0.000000000000000e+00
"net13" 1.170149218305658e+00
"out" 1.199544594829034e+00
"V0:p" -8.281191627982499e-06
"V1:p" -5.947137045554839e-06
"VDD:p" -1.273213025693738e-06
"vdd" 1.200000000000000e+00
"vss" 0.000000000000000e+00
"time" 7.000000000000000e-13
"GND:p" 3.614484625744495e-05
"in0" 1.200000000000000e+00
"in1" 0.000000000000000e+00
"net13" 1.155542150478688e+00
"out" 1.198256499286826e+00
"V0:p" -1.926435563856608e-05
"V1:p" -1.387432831949076e-05
"VDD:p" -3.006162299386923e-06
"vdd" 1.200000000000000e+00
"vss" 0.000000000000000e+00
"time" 1.136596531329537e-12
"GND:p" 5.859579784638352e-05
"in0" 1.200000000000000e+00
"in1" 0.000000000000000e+00
"net13" 1.126185503448296e+00
"out" 1.195701177730857e+00
"V0:p" -3.111617809408563e-05
"V1:p" -2.254040138432443e-05
"VDD:p" -4.939218367975418e-06
"vdd" 1.200000000000000e+00
"vss" 0.000000000000000e+00
"time" 1.760005027070537e-12
"GND:p" 9.046525924283774e-05
"in0" 1.200000000000000e+00
"in1" 0.000000000000000e+00
"net13" 1.059784026694075e+00
"out" 1.190068101099454e+00
"V0:p" -4.785880555107308e-05
"V1:p" -3.489024942396515e-05
"VDD:p" -7.716204267797620e-06
"vdd" 1.200000000000000e+00
"vss" 0.000000000000000e+00
"time" 3.006822018552536e-12
"GND:p" 1.543220199450491e-04
"in0" 1.200000000000000e+00
"in1" 0.000000000000000e+00
"net13" 8.453325879564346e-01
"out" 1.174362140590488e+00
"V0:p" -8.726544353400888e-05
"V1:p" -5.580400323791275e-05
"VDD:p" -1.125257317312906e-05
"vdd" 1.200000000000000e+00
"vss" 0.000000000000000e+00
"time" 4.003411009276268e-12
"GND:p" 2.156423403267903e-04
"in0" 1.200000000000000e+00
"in1" 0.000000000000000e+00
"net13" 6.451160004309491e-01
"out" 1.168994151612917e+00
"V0:p" -1.737381850700781e-04
"V1:p" -4.091161174976042e-05
"VDD:p" -9.925435069499289e-07
"vdd" 1.200000000000000e+00
"vss" 0.000000000000000e+00
"time" 4.501705504638134e-12
"GND:p" 2.404077233051238e-04
"in0" 1.200000000000000e+00
"in1" 0.000000000000000e+00
"net13" 5.421732179124908e-01
"out" 1.165691313005745e+00
"V0:p" -1.671101389435415e-04
"V1:p" -5.970484375174049e-05
"VDD:p" -1.359274060984329e-05
"vdd" 1.200000000000000e+00
"vss" 0.000000000000000e+00
"time" 5.000000000000000e-12
"GND:p" 2.724265478163024e-04
"in0" 1.200000000000000e+00
"in1" 0.000000000000000e+00
"net13" 4.368198631162767e-01
"out" 1.157197926597703e+00
"V0:p" -2.044568856031778e-04
"V1:p" -5.341007635579579e-05
"VDD:p" -1.455958585732689e-05
"vdd" 1.200000000000000e+00
"vss" 0.000000000000000e+00
"time" 5.500000000000000e-12
"GND:p" 2.731724567540965e-04
"in0" 1.200000000000000e+00
"in1" 0.000000000000000e+00
"net13" 3.408834551279976e-01
"out" 1.137993521150770e+00
"V0:p" -1.817686214861120e-04
"V1:p" -6.247677500217829e-05
"VDD:p" -2.892706026580646e-05
"vdd" 1.200000000000000e+00
"vss" 0.000000000000000e+00
"time" 5.999999999999999e-12
"GND:p" 2.749107828091975e-04
"in0" 1.200000000000000e+00
"in1" 0.000000000000000e+00
"net13" 2.509941330196296e-01
"out" 1.114874902610200e+00
"V0:p" -1.713405223372484e-04
"V1:p" -6.395762373141600e-05
"VDD:p" -3.961263674053171e-05
"vdd" 1.200000000000000e+00
"vss" 0.000000000000000e+00
"time" 6.273823856915829e-12
"GND:p" 2.621475307392457e-04
"in0" 1.200000000000000e+00
"in1" 0.000000000000000e+00
"net13" 2.113074658728273e-01
"out" 1.097867000993858e+00
"V0:p" -1.540124179159610e-04
"V1:p" -6.237207099930816e-05
"VDD:p" -4.576304182397759e-05
"vdd" 1.200000000000000e+00
"vss" 0.000000000000000e+00
"time" 6.755181779915278e-12
"GND:p" 2.384917402394511e-04
"in0" 1.200000000000000e+00
"in1" 0.000000000000000e+00
"net13" 1.512550926681027e-01
"out" 1.064774148809718e+00
"V0:p" -1.253904858360321e-04
"V1:p" -5.792093722026715e-05
"VDD:p" -5.518031718315023e-05
"vdd" 1.200000000000000e+00
"vss" 0.000000000000000e+00
"time" 7.337739491228155e-12
"GND:p" 2.099863647981641e-04
"in0" 1.200000000000000e+00
"in1" 0.000000000000000e+00
"net13" 1.022422312066963e-01
"out" 1.017548974858132e+00
"V0:p" -9.392842126839689e-05
"V1:p" -5.176081798508213e-05
"VDD:p" -6.429712554468634e-05
"vdd" 1.200000000000000e+00
"vss" 0.000000000000000e+00
"time" 8.033335866577839e-12
"GND:p" 1.743531276710233e-04
"in0" 1.200000000000000e+00
"in1" 0.000000000000000e+00
"net13" 7.254128735440710e-02
"out" 9.539994878600642e-01
"V0:p" -6.132925871822919e-05
"V1:p" -4.174962226114089e-05
"VDD:p" -7.127424669165022e-05
"vdd" 1.200000000000000e+00
"vss" 0.000000000000000e+00
"time" 8.991725423272977e-12
"GND:p" 1.243386971880095e-04
"in0" 1.200000000000000e+00
"in1" 0.000000000000000e+00
"net13" 7.311199209854746e-02
"out" 8.597248423591609e-01
"V0:p" -2.322559636379464e-05
"V1:p" -2.599272158802601e-05
"VDD:p" -7.512037923619208e-05
"vdd" 1.200000000000000e+00
"vss" 0.000000000000000e+00
"time" 1.000264388217550e-11
"GND:p" 6.905993441501779e-05
"in0" 1.200000000000000e+00
"in1" 0.000000000000000e+00
"net13" 1.152902880570292e-01
"out" 7.603471692556504e-01
"V0:p" 1.160314085867468e-05
"V1:p" -8.466681776422318e-06
"VDD:p" -7.219639349726720e-05
"vdd" 1.200000000000000e+00
"vss" 0.000000000000000e+00
"time" 1.100000000000000e-11
"GND:p" 1.371570616267981e-05
"in0" 1.200000000000000e+00
"in1" 0.000000000000000e+00
"net13" 1.902363560916459e-01
"out" 6.760629869130979e-01
"V0:p" 4.711655593994060e-05
"V1:p" 4.247539662665515e-06
"VDD:p" -6.507980176528901e-05
"vdd" 1.200000000000000e+00
"vss" 0.000000000000000e+00
"time" 1.148050865122615e-11
"GND:p" 1.190289773871773e-05
"in0" 1.200000000000000e+00
"in1" 0.000000000000000e+00
"net13" 2.285889447452741e-01
"out" 6.471328291031042e-01
"V0:p" 4.348178116521728e-05
"V1:p" 5.270942741895775e-06
"VDD:p" -6.065562164583056e-05
"vdd" 1.200000000000000e+00
"vss" 0.000000000000000e+00
"time" 1.229097417378930e-11
"GND:p" 9.059823120018064e-06
"in0" 1.200000000000000e+00
"in1" 0.000000000000000e+00
"net13" 2.865874773337483e-01
"out" 6.071198707142723e-01
"V0:p" 3.711955981173090e-05
"V1:p" 6.549161861333538e-06
"VDD:p" -5.272854479308228e-05
"vdd" 1.200000000000000e+00
"vss" 0.000000000000000e+00
"time" 1.317487196807188e-11
"GND:p" 7.184194875291950e-06
"in0" 1.200000000000000e+00
"in1" 0.000000000000000e+00
"net13" 3.365856713987267e-01
"out" 5.810633422709075e-01
"V0:p" 3.294416301774620e-05
"V1:p" 6.970637982820153e-06
"VDD:p" -4.709899587585825e-05
"vdd" 1.200000000000000e+00
"vss" 0.000000000000000e+00
"time" 1.440792753438384e-11
"GND:p" 4.985926167011487e-06
"in0" 1.200000000000000e+00
"in1" 0.000000000000000e+00
"net13" 3.897779085744110e-01
"out" 5.663805874878786e-01
"V0:p" 2.782531563895470e-05
"V1:p" 7.776448666602898e-06
"VDD:p" -4.058769047256908e-05
"vdd" 1.200000000000000e+00
"vss" 0.000000000000000e+00
"time" 1.575684243660388e-11
"GND:p" 4.014059462644743e-06
"in0" 1.200000000000000e+00
"in1" 0.000000000000000e+00
"net13" 4.335049294585663e-01
"out" 5.680710762156883e-01
"V0:p" 2.615214832426304e-05
"V1:p" 7.540785303252105e-06
"VDD:p" -3.770699309015972e-05
"vdd" 1.200000000000000e+00
"vss" 0.000000000000000e+00
"time" 1.721808611215917e-11
"GND:p" 2.995546012551307e-06
"in0" 1.200000000000000e+00
"in1" 0.000000000000000e+00
"net13" 4.708800504985834e-01
"out" 5.809026266751181e-01
"V0:p" 2.391539250173047e-05
"V1:p" 7.787549077838830e-06
"VDD:p" -3.469848759212083e-05
"vdd" 1.200000000000000e+00
"vss" 0.000000000000000e+00
"time" 1.890741661218523e-11
"GND:p" 2.748379266934039e-06
"in0" 1.200000000000000e+00
"in1" 0.000000000000000e+00
"net13" 5.066948891670962e-01
"out" 6.029107818760749e-01
"V0:p" 2.356311308256090e-05
"V1:p" 7.339309567698570e-06
"VDD:p" -3.365080191719356e-05
"vdd" 1.200000000000000e+00
"vss" 0.000000000000000e+00
"time" 2.090741661218523e-11
"GND:p" 2.141852662408141e-06
"in0" 1.200000000000000e+00
"in1" 0.000000000000000e+00
"net13" 5.431932513872334e-01
"out" 6.338037889930994e-01
"V0:p" 2.167550925609387e-05
"V1:p" 7.516776683016809e-06
"VDD:p" -3.133413860151915e-05
"vdd" 1.200000000000000e+00
"vss" 0.000000000000000e+00
"time" 2.290741661218523e-11
"GND:p" 2.167192596779825e-06
"in0" 1.200000000000000e+00
"in1" 0.000000000000000e+00
"net13" 5.756846651786435e-01
"out" 6.672642190301407e-01
"V0:p" 2.126608805771841e-05
"V1:p" 7.086079587672030e-06
"VDD:p" -3.051936024216993e-05
"vdd" 1.200000000000000e+00
"vss" 0.000000000000000e+00
"time" 2.490741661218523e-11
"GND:p" 1.727585069814224e-06
"in0" 1.200000000000000e+00
"in1" 0.000000000000000e+00
"net13" 6.053172990008259e-01
"out" 7.018613244602873e-01
"V0:p" 1.924896140958498e-05
"V1:p" 7.300398051081634e-06
"VDD:p" -2.827694453048165e-05
"vdd" 1.200000000000000e+00
"vss" 0.000000000000000e+00
"time" 2.690741661218523e-11
"GND:p" 1.815058957752350e-06
"in0" 1.200000000000000e+00
"in1" 0.000000000000000e+00
"net13" 6.324882520741647e-01
"out" 7.367865096027979e-01
"V0:p" 1.863039585191595e-05
"V1:p" 6.893055299983503e-06
"VDD:p" -2.733851010965122e-05
"vdd" 1.200000000000000e+00
"vss" 0.000000000000000e+00
"time" 2.890741661218523e-11
"GND:p" 1.391192031014895e-06
"in0" 1.200000000000000e+00
"in1" 0.000000000000000e+00
"net13" 6.572571556510051e-01
"out" 7.714386205713353e-01
"V0:p" 1.642228452355266e-05
"V1:p" 7.121434108126338e-06
"VDD:p" -2.493491066269426e-05
"vdd" 1.200000000000000e+00
"vss" 0.000000000000000e+00
"time" 3.090741661218523e-11
"GND:p" 1.474230654499254e-06
"in0" 1.200000000000000e+00
"in1" 0.000000000000000e+00
"net13" 6.795357936911108e-01
"out" 8.053481252259611e-01
"V0:p" 1.565389234825766e-05
"V1:p" 6.723168149350634e-06
"VDD:p" -2.385129115210714e-05
"vdd" 1.200000000000000e+00
"vss" 0.000000000000000e+00
"time" 3.290741661218523e-11
"GND:p" 1.041759257019291e-06
"in0" 1.200000000000000e+00
"in1" 0.000000000000000e+00
"net13" 6.992083552333235e-01
"out" 8.381743531962809e-01
"V0:p" 1.336367759392811e-05
"V1:p" 6.942603130063188e-06
"VDD:p" -2.134803998101108e-05
"vdd" 1.200000000000000e+00
"vss" 0.000000000000000e+00
"time" 3.490741661218523e-11
"GND:p" 1.134590411102911e-06
"in0" 1.200000000000000e+00
"in1" 0.000000000000000e+00
"net13" 7.163085878220470e-01
"out" 8.696065605211091e-01
"V0:p" 1.264636371061494e-05
"V1:p" 6.494205739829932e-06
"VDD:p" -2.027515986154705e-05
"vdd" 1.200000000000000e+00
"vss" 0.000000000000000e+00
"time" 3.690741661218523e-11
"GND:p" 7.437180897129684e-07
"in0" 1.200000000000000e+00
"in1" 0.000000000000000e+00
"net13" 7.311289926608855e-01
"out" 8.993030759150848e-01
"V0:p" 1.057094060180339e-05
"V1:p" 6.616188914142449e-06
"VDD:p" -1.793084760565926e-05
"vdd" 1.200000000000000e+00
"vss" 0.000000000000000e+00
"time" 3.890741661218523e-11
"GND:p" 8.899125769570145e-07
"in0" 1.200000000000000e+00
"in1" 0.000000000000000e+00
"net13" 7.440653913581994e-01
"out" 9.270145621314102e-01
"V0:p" 1.015106153758063e-05
"V1:p" 6.049057221931964e-06
"VDD:p" -1.709003133646924e-05
"vdd" 1.200000000000000e+00
"vss" 0.000000000000000e+00
"time" 4.090741661218523e-11
"GND:p" 5.436275758323767e-07
"in0" 1.200000000000000e+00
"in1" 0.000000000000000e+00
"net13" 7.554529373969056e-01
"out" 9.526522364503215e-01
"V0:p" 8.367264672033969e-06
"V1:p" 6.063112557959009e-06
"VDD:p" -1.497400480582568e-05
"vdd" 1.200000000000000e+00
"vss" 0.000000000000000e+00
"time" 4.290741661218523e-11
"GND:p" 7.244052609934375e-07
"in0" 1.200000000000000e+00
"in1" 0.000000000000000e+00
"net13" 7.655534446453451e-01
"out" 9.762311401043522e-01
"V0:p" 8.207588051711885e-06
"V1:p" 5.413750104916840e-06
"VDD:p" -1.434574341762206e-05
"vdd" 1.200000000000000e+00
"vss" 0.000000000000000e+00
"time" 4.490741661218523e-11
"GND:p" 4.049763887225856e-07
"in0" 1.200000000000000e+00
"in1" 0.000000000000000e+00
"net13" 7.745713634231561e-01
"out" 9.978216354944883e-01
"V0:p" 6.649415154218708e-06
"V1:p" 5.374298314538970e-06
"VDD:p" -1.242868985748020e-05
"vdd" 1.200000000000000e+00
"vss" 0.000000000000000e+00
"time" 4.690741661218523e-11
"GND:p" 6.068758650506003e-07
"in0" 1.200000000000000e+00
"in1" 0.000000000000000e+00
"net13" 7.826682598457113e-01
"out" 1.017522719701138e+00
"V0:p" 6.684191587601625e-06
"V1:p" 4.697455079338735e-06
"VDD:p" -1.198852253199069e-05
"vdd" 1.200000000000000e+00
"vss" 0.000000000000000e+00
"time" 4.890741661218523e-11
"GND:p" 3.043180037749379e-07
"in0" 1.200000000000000e+00
"in1" 0.000000000000000e+00
"net13" 7.899737410180725e-01
"out" 1.035447741771601e+00
"V0:p" 5.294215623952838e-06
"V1:p" 4.651838493353525e-06
"VDD:p" -1.025037212108125e-05
"vdd" 1.200000000000000e+00
"vss" 0.000000000000000e+00
"time" 5.090741661218523e-11
"GND:p" 5.199071614852433e-07
"in0" 1.200000000000000e+00
"in1" 0.000000000000000e+00
"net13" 7.965933948384454e-01
"out" 1.051716375373403e+00
"V0:p" 5.475520110568073e-06
"V1:p" 3.985235740725575e-06
"VDD:p" -9.980663012778816e-06
"vdd" 1.200000000000000e+00
"vss" 0.000000000000000e+00
"time" 5.290741661218523e-11
"GND:p" 2.286236671828911e-07
"in0" 1.200000000000000e+00
"in1" 0.000000000000000e+00
"net13" 8.026145078500496e-01
"out" 1.066449781232141e+00
"V0:p" 4.214167052966293e-06
"V1:p" 3.961879427050527e-06
"VDD:p" -8.404670147199263e-06
"vdd" 1.200000000000000e+00
"vss" 0.000000000000000e+00
"time" 5.490741661218523e-11
"GND:p" 4.536228647620270e-07
"in0" 1.200000000000000e+00
"in1" 0.000000000000000e+00
"net13" 8.081101935587707e-01
"out" 1.079767509565674e+00
"V0:p" 4.509134228439143e-06
"V1:p" 3.325907494723201e-06
"VDD:p" -8.288664587924602e-06
"vdd" 1.200000000000000e+00
"vss" 0.000000000000000e+00
"time" 5.690741661218523e-11
"GND:p" 1.702853589538742e-07
"in0" 1.200000000000000e+00
"in1" 0.000000000000000e+00
"net13" 8.131423997774326e-01
"out" 1.091785445760771e+00
"V0:p" 3.348759909502642e-06
"V1:p" 3.338634464896723e-06
"VDD:p" -6.857679733352952e-06
"vdd" 1.200000000000000e+00
"vss" 0.000000000000000e+00
"time" 5.890741661218523e-11
"GND:p" 4.020612077618788e-07
"in0" 1.200000000000000e+00
"in1" 0.000000000000000e+00
"net13" 8.177641276244255e-01
"out" 1.102614442754873e+00
"V0:p" 3.733792495472295e-06
"V1:p" 2.741927329532325e-06
"VDD:p" -6.877781032766445e-06
"vdd" 1.200000000000000e+00
"vss" 0.000000000000000e+00
"time" 6.090741661218524e-11
"GND:p" 1.245514156253654e-07
"in0" 1.200000000000000e+00
"in1" 0.000000000000000e+00
"net13" 8.220210940877256e-01
"out" 1.112359438825231e+00
"V0:p" 2.653970775039083e-06
"V1:p" 2.795372576029961e-06
"VDD:p" -5.573894766694758e-06
"vdd" 1.200000000000000e+00
"vss" 0.000000000000000e+00
"time" 6.290741661218524e-11
"GND:p" 3.613736630433079e-07
"in0" 1.200000000000000e+00
"in1" 0.000000000000000e+00
"net13" 8.259529987936386e-01
"out" 1.121118933508464e+00
"V0:p" 3.111175481290371e-06
"V1:p" 2.239551247217670e-06
"VDD:p" -5.712100391550518e-06
"vdd" 1.200000000000000e+00
"vss" 0.000000000000000e+00
"time" 6.490741661218525e-11
"GND:p" 8.825866548837394e-08
"in0" 1.200000000000000e+00
"in1" 0.000000000000000e+00
"net13" 8.295945062160188e-01
"out" 1.128984732654589e+00
"V0:p" 2.096082581321847e-06
"V1:p" 2.333116909317841e-06
"VDD:p" -4.517458156128712e-06
"vdd" 1.200000000000000e+00
"vss" 0.000000000000000e+00
"time" 6.690741661218526e-11
"GND:p" 3.289262133525697e-07
"in0" 1.200000000000000e+00
"in1" 0.000000000000000e+00
"net13" 8.329760206189372e-01
"out" 1.136041895826983e+00
"V0:p" 2.611365863517416e-06
"V1:p" 1.815995425884529e-06
"VDD:p" -4.756287502753810e-06
"vdd" 1.200000000000000e+00
"vss" 0.000000000000000e+00
"time" 6.890741661218526e-11
"GND:p" 5.918873304105262e-08
"in0" 1.200000000000000e+00
"in1" 0.000000000000000e+00
"net13" 8.361243077682091e-01
"out" 1.142368833875391e+00
"V0:p" 1.648385485821768e-06
"V1:p" 1.946400829247058e-06
"VDD:p" -3.653975048111064e-06
"vdd" 1.200000000000000e+00
"vss" 0.000000000000000e+00
"time" 7.090741661218527e-11
"GND:p" 3.028324035740586e-07
"in0" 1.200000000000000e+00
"in1" 0.000000000000000e+00
"net13" 8.390630014984939e-01
"out" 1.148037515212857e+00
"V0:p" 2.210414894452450e-06
"V1:p" 1.463984682810130e-06
"VDD:p" -3.977231980835872e-06
"vdd" 1.200000000000000e+00
"vss" 0.000000000000000e+00
"time" 7.290741661218527e-11
"GND:p" 3.572433473123878e-08
"in0" 1.200000000000000e+00
"in1" 0.000000000000000e+00
"net13" 8.418130222543304e-01
"out" 1.153113747746054e+00
"V0:p" 1.289346296286904e-06
"V1:p" 1.626811506021980e-06
"VDD:p" -2.951882137040821e-06
"vdd" 1.200000000000000e+00
"vss" 0.000000000000000e+00
"time" 7.490741661218528e-11
"GND:p" 2.816962930073842e-07
"in0" 1.200000000000000e+00
"in1" 0.000000000000000e+00
"net13" 8.443929271481508e-01
"out" 1.157657510293772e+00
"V0:p" 1.888929542746642e-06
"V1:p" 1.174476012611561e-06
"VDD:p" -3.345101848365201e-06
"vdd" 1.200000000000000e+00
"vss" 0.000000000000000e+00
"time" 7.690741661218529e-11
"GND:p" 1.665378902583828e-08
