HEADER
"PSFversion" "1.00"
"simulator" "spectre"
"version" "19.1.0.237.isr3"
"date" "11:32:51 PM, Fri Sep 9, 2022"
"design" "// Generated for: spectre"
"analysis type" "tran"
"analysis name" "sim"
"analysis description" "Transient Analysis `sim': time = (0 s -> 100 ps)"
"xVecSorted" "ascending"
"tolerance.relative" 0.00100000
"start" 0.00000
"outputstart" 0.00000
"stop" 1.00000e-10
"step" 1.00000e-13
"istep" 0.00100000
"maxstep" 2.00000e-12
"ic" "all"
"useprevic" "no"
"skipdc" "no"
"reltol" 0.00100000
"abstol(V)" 1.00000e-06
"abstol(I)" 1.00000e-12
"temp" 27.0000
"tnom" 27.0000
"tempeffects" "all"
"errpreset" "moderate"
"method" "traponly"
"lteratio" 3.50000
"relref" "sigglobal"
"cmin" 0.00000
"gmin" 1.00000e-12
TYPE
"sweep" FLOAT DOUBLE PROP(
"key" "sweep"
)
"LogicV" FLOAT DOUBLE PROP(
"key" "node"
)
"Tau" FLOAT DOUBLE PROP(
"units" "N*m"
"key" "node"
"tolerance" 1.00000e-06
)
"Alpha" FLOAT DOUBLE PROP(
"units" "rads/s^2"
"key" "node"
"tolerance" 1.00000e-06
)
"Omega" FLOAT DOUBLE PROP(
"units" "rads/s"
"key" "node"
"tolerance" 1.00000e-06
)
"Theta" FLOAT DOUBLE PROP(
"units" "rads"
"key" "node"
"tolerance" 1.00000e-06
)
"F" FLOAT DOUBLE PROP(
"units" "N"
"key" "node"
"tolerance" 1.00000e-06
)
"Imp" FLOAT DOUBLE PROP(
"units" "m/s^3"
"key" "node"
"tolerance" 1.00000e-06
)
"Acc" FLOAT DOUBLE PROP(
"units" "m/s^2"
"key" "node"
"tolerance" 1.00000e-06
)
"Vel" FLOAT DOUBLE PROP(
"units" "m/s"
"key" "node"
"tolerance" 1.00000e-06
)
"Pos" FLOAT DOUBLE PROP(
"units" "m"
"key" "node"
"tolerance" 1.00000e-06
)
"Phi" FLOAT DOUBLE PROP(
"units" "Wb"
"key" "node"
"tolerance" 1.00000e-09
)
"V" FLOAT DOUBLE PROP(
"units" "V"
"key" "node"
"tolerance" 1.00000e-06
)
"I" FLOAT DOUBLE PROP(
"units" "A"
"key" "branch"
"tolerance" 1.00000e-12
)
"MMF" FLOAT DOUBLE PROP(
"units" "A*turn"
"key" "node"
"tolerance" 1.00000e-12
)
"Wb" FLOAT DOUBLE PROP(
"units" "Wb"
"key" "node"
"tolerance" 1.00000e-09
)
"Temp" FLOAT DOUBLE PROP(
"units" "C"
"key" "node"
"tolerance" 0.000100000
)
"Pwr" FLOAT DOUBLE PROP(
"units" "W"
"key" "node"
"tolerance" 1.00000e-09
)
"U" FLOAT DOUBLE PROP(
"units" ""
"key" "node"
"tolerance" 1.00000e-06
)
"V/Sec" FLOAT DOUBLE PROP(
"units" "V/s"
"key" "node"
"tolerance" 0.000100000
)
"I/Sec" FLOAT DOUBLE PROP(
"units" "A/s"
"key" "node"
"tolerance" 1.00000e-06
)
"1/Sec" FLOAT DOUBLE PROP(
"units" "1/s"
"key" "node"
"tolerance" 0.000100000
)
"HOD" FLOAT DOUBLE PROP(
"units" ""
"key" "node"
"tolerance" 0.0100000
)
"Q" FLOAT DOUBLE PROP(
"units" "coul"
"key" "node"
"tolerance" 1.00000e-14
)
SWEEP
"time" "sweep" PROP(
"sweep_direction" 0
"units" "s"
"plot" 0
"grid" 1
)
TRACE
"in" "V"
"out" "V"
"V0:p" "I"
"VDD:p" "I"
"VSS:p" "I"
"vdd" "V"
"vss" "V"
VALUE
"time" 0.000000000000000e+00
"in" 0.000000000000000e+00
"out" 1.199998775758592e+00
"V0:p" 7.482181702941023e-12
"VDD:p" -4.278806268468402e-10
"VSS:p" 4.203984796060728e-10
"vdd" 1.200000000000000e+00
"vss" 0.000000000000000e+00
"time" 1.000000000000000e-13
"in" 0.000000000000000e+00
"out" 1.201931108920193e+00
"V0:p" 1.283274136549051e-05
"VDD:p" -1.407638763969191e-05
"VSS:p" 1.243646274202704e-06
"vdd" 1.200000000000000e+00
"vss" 0.000000000000000e+00
"time" 3.000000000000000e-13
"in" 0.000000000000000e+00
"out" 1.213005160830206e+00
"V0:p" 3.683494384284478e-05
"VDD:p" -4.039481325983766e-05
"VSS:p" 3.559869416990818e-06
"vdd" 1.200000000000000e+00
"vss" 0.000000000000000e+00
"time" 6.672457961225275e-13
"in" 0.000000000000000e+00
"out" 1.244481200977153e+00
"V0:p" 7.815804472852448e-05
"VDD:p" -8.557329135176723e-05
"VSS:p" 7.415246623244059e-06
"vdd" 1.200000000000000e+00
"vss" 0.000000000000000e+00
"time" 8.336228980612637e-13
"in" 0.000000000000000e+00
"out" 1.265705955562096e+00
"V0:p" 9.507280613779337e-05
"VDD:p" -1.038987085251560e-04
"VSS:p" 8.825902387362421e-06
"vdd" 1.200000000000000e+00
"vss" 0.000000000000000e+00
"time" 1.000000000000000e-12
"in" 0.000000000000000e+00
"out" 1.290726937896662e+00
"V0:p" 1.111148706483500e-04
"VDD:p" -1.213483179688378e-04
"VSS:p" 1.023344732048779e-05
"vdd" 1.200000000000000e+00
"vss" 0.000000000000000e+00
"time" 1.332754203877472e-12
"in" 0.000000000000000e+00
"out" 1.338318458305551e+00
"V0:p" 9.954803513201861e-05
"VDD:p" -1.085481765581164e-04
"VSS:p" 9.000141426098512e-06
"vdd" 1.200000000000000e+00
"vss" 0.000000000000000e+00
"time" 1.627797943241086e-12
"in" 0.000000000000000e+00
"out" 1.377708988285127e+00
"V0:p" 8.977751790202555e-05
"VDD:p" -9.744221933968539e-05
"VSS:p" 7.664701437659285e-06
"vdd" 1.200000000000000e+00
"vss" 0.000000000000000e+00
"time" 2.217885421968313e-12
"in" 0.000000000000000e+00
"out" 1.444172498847093e+00
"V0:p" 7.360972766647108e-05
"VDD:p" -7.986782994549933e-05
"VSS:p" 6.258102279028068e-06
"vdd" 1.200000000000000e+00
"vss" 0.000000000000000e+00
"time" 3.012397050211345e-12
"in" 0.000000000000000e+00
"out" 1.513460009455556e+00
"V0:p" 5.650977547332954e-05
"VDD:p" -6.090064389249870e-05
"VSS:p" 4.390868419169624e-06
"vdd" 1.200000000000000e+00
"vss" 0.000000000000000e+00
"time" 4.066141626648999e-12
"in" 0.000000000000000e+00
"out" 1.580154283212469e+00
"V0:p" 4.027786638645785e-05
"VDD:p" -4.352503040624408e-05
"VSS:p" 3.247164019785036e-06
"vdd" 1.200000000000000e+00
"vss" 0.000000000000000e+00
"time" 5.033070813324500e-12
"in" 0.000000000000000e+00
"out" 1.623613853655030e+00
"V0:p" 2.955715523622584e-05
"VDD:p" -3.168319369838638e-05
"VSS:p" 2.126038462162536e-06
"vdd" 1.200000000000000e+00
"vss" 0.000000000000000e+00
"time" 5.999999999999999e-12
"in" 0.000000000000000e+00
"out" 1.655417372054673e+00
"V0:p" 2.197351918629108e-05
"VDD:p" -2.375499371794695e-05
"VSS:p" 1.781474531653885e-06
"vdd" 1.200000000000000e+00
"vss" 0.000000000000000e+00
"time" 6.539834611482249e-12
"in" 0.000000000000000e+00
"out" 1.659974111105079e+00
"V0:p" 6.615016415002299e-06
"VDD:p" -7.117002286297904e-06
"VSS:p" 5.019858712954674e-07
"vdd" 1.200000000000000e+00
"vss" 0.000000000000000e+00
"time" 7.535532660942210e-12
"in" 0.000000000000000e+00
"out" 1.652838527070152e+00
"V0:p" -1.789042179374978e-05
"VDD:p" 1.923865035898802e-05
"VSS:p" -1.348228565237829e-06
"vdd" 1.200000000000000e+00
"vss" 0.000000000000000e+00
"time" 8.716257442998061e-12
"in" 0.000000000000000e+00
"out" 1.610096227646593e+00
"V0:p" -3.874606797826147e-05
"VDD:p" 4.170031064750029e-05
"VSS:p" -2.954242669239141e-06
"vdd" 1.200000000000000e+00
"vss" 0.000000000000000e+00
"time" 9.858128721499029e-12
"in" 0.000000000000000e+00
"out" 1.542570057648144e+00
"V0:p" -5.253918971473876e-05
"VDD:p" 5.668081716558438e-05
"VSS:p" -4.141627450845239e-06
"vdd" 1.200000000000000e+00
"vss" 0.000000000000000e+00
"time" 1.100000000000000e-11
"in" 0.000000000000000e+00
"out" 1.456049007326962e+00
"V0:p" -6.143186169982869e-05
"VDD:p" 6.650613510958189e-05
"VSS:p" -5.074273409753038e-06
"vdd" 1.200000000000000e+00
"vss" 0.000000000000000e+00
"time" 1.185321231038587e-11
"in" 0.000000000000000e+00
"out" 1.400283199040206e+00
"V0:p" -4.777216213466795e-05
"VDD:p" 5.179758634688379e-05
"VSS:p" -4.025424212216135e-06
"vdd" 1.200000000000000e+00
"vss" 0.000000000000000e+00
"time" 1.285341428720316e-11
"in" 0.000000000000000e+00
"out" 1.343039580353021e+00
"V0:p" -3.386698389339688e-05
"VDD:p" 3.696581951829349e-05
"VSS:p" -3.098835624897012e-06
"vdd" 1.200000000000000e+00
"vss" 0.000000000000000e+00
"time" 1.485341428720316e-11
"in" 0.000000000000000e+00
"out" 1.270517507140710e+00
"V0:p" -1.648374964158035e-05
"VDD:p" 1.795262971136903e-05
"VSS:p" -1.468880069788331e-06
"vdd" 1.200000000000000e+00
"vss" 0.000000000000000e+00
"time" 1.666039935822320e-11
"in" 0.000000000000000e+00
"out" 1.237149573579341e+00
"V0:p" -8.619322325593438e-06
"VDD:p" 9.499136140831798e-06
"VSS:p" -8.798138152389543e-07
"vdd" 1.200000000000000e+00
"vss" 0.000000000000000e+00
"time" 1.866039935822320e-11
"in" 0.000000000000000e+00
"out" 1.218148089233457e+00
"V0:p" -4.181013887111517e-06
"VDD:p" 4.514377806372510e-06
"VSS:p" -3.333639192603764e-07
"vdd" 1.200000000000000e+00
"vss" 0.000000000000000e+00
"time" 2.066039935822320e-11
"in" 0.000000000000000e+00
"out" 1.208836513515039e+00
"V0:p" -2.046069683461575e-06
"VDD:p" 2.308902492356332e-06
"VSS:p" -2.628328088955296e-07
"vdd" 1.200000000000000e+00
"vss" 0.000000000000000e+00
"time" 2.266039935822320e-11
"in" 0.000000000000000e+00
"out" 1.204295638007389e+00
"V0:p" -9.797920064441188e-07
"VDD:p" 1.007778989681441e-06
"VSS:p" -2.798698323650779e-08
"vdd" 1.200000000000000e+00
"vss" 0.000000000000000e+00
"time" 2.466039935822320e-11
"in" 0.000000000000000e+00
"out" 1.202085890970798e+00
"V0:p" -4.898754301215219e-07
"VDD:p" 6.031133079924589e-07
"VSS:p" -1.132378778719807e-07
"vdd" 1.200000000000000e+00
"vss" 0.000000000000000e+00
"time" 2.666039935822320e-11
"in" 0.000000000000000e+00
"out" 1.201012059708220e+00
"V0:p" -2.236291090020082e-07
"VDD:p" 1.786197387712793e-07
"VSS:p" 4.500937023175880e-08
"vdd" 1.200000000000000e+00
"vss" 0.000000000000000e+00
"time" 2.866039935822320e-11
"in" 0.000000000000000e+00
"out" 1.200490602593896e+00
"V0:p" -1.226837179162106e-07
"VDD:p" 2.004003003192526e-07
"VSS:p" -7.771658240376030e-08
"vdd" 1.200000000000000e+00
"vss" 0.000000000000000e+00
"time" 3.066039935822320e-11
"in" 0.000000000000000e+00
"out" 1.200237470232440e+00
"V0:p" -4.538219928156424e-08
"VDD:p" -1.688806344303328e-08
"VSS:p" 6.227026272534283e-08
"vdd" 1.200000000000000e+00
"vss" 0.000000000000000e+00
"time" 3.266039935822320e-11
"in" 0.000000000000000e+00
"out" 1.200114612851128e+00
"V0:p" -3.617165319548582e-08
"VDD:p" 1.055064732460429e-07
"VSS:p" -6.933482005105852e-08
"vdd" 1.200000000000000e+00
"vss" 0.000000000000000e+00
"time" 3.466039935822320e-11
"in" 0.000000000000000e+00
"out" 1.200054989285115e+00
"V0:p" -3.397198371964345e-09
"VDD:p" -6.294179255533327e-08
"VSS:p" 6.633899092789398e-08
"vdd" 1.200000000000000e+00
"vss" 0.000000000000000e+00
"time" 3.666039935822320e-11
"in" 0.000000000000000e+00
"out" 1.200026054738875e+00
"V0:p" -1.579685348938536e-08
"VDD:p" 8.315693635050167e-08
"VSS:p" -6.736008286218702e-08
"vdd" 1.200000000000000e+00
"vss" 0.000000000000000e+00
"time" 3.866039935822320e-11
"in" 0.000000000000000e+00
"out" 1.200012013459752e+00
"V0:p" 6.490235229667563e-09
"VDD:p" -7.378757698004674e-08
"VSS:p" 6.729734175192413e-08
"vdd" 1.200000000000000e+00
"vss" 0.000000000000000e+00
"time" 4.066039935822320e-11
"in" 0.000000000000000e+00
"out" 1.200005199611957e+00
"V0:p" -1.099875173998940e-08
"VDD:p" 7.789376010630819e-08
"VSS:p" -6.689500836793157e-08
"vdd" 1.200000000000000e+00
"vss" 0.000000000000000e+00
"time" 4.266039935822320e-11
"in" 0.000000000000000e+00
"out" 1.200001893054110e+00
"V0:p" 8.818611734690530e-09
"VDD:p" -7.634164340580225e-08
"VSS:p" 6.752303167261605e-08
"vdd" 1.200000000000000e+00
"vss" 0.000000000000000e+00
"time" 4.466039935822320e-11
"in" 0.000000000000000e+00
"out" 1.200000288483540e+00
"V0:p" -9.868862340478971e-09
"VDD:p" 7.665434961980698e-08
"VSS:p" -6.678548728064257e-08
"vdd" 1.200000000000000e+00
"vss" 0.000000000000000e+00
"time" 4.666039935822320e-11
"in" 0.000000000000000e+00
"out" 1.199999509835787e+00
"V0:p" 9.366911626807784e-09
"VDD:p" -7.694309061655791e-08
"VSS:p" 6.757617899128158e-08
"vdd" 1.200000000000000e+00
"vss" 0.000000000000000e+00
"time" 4.866039935822320e-11
"in" 0.000000000000000e+00
"out" 1.199999198979345e+00
"V0:p" -9.551501816481020e-09
"VDD:p" 7.630688703969335e-08
"VSS:p" -6.675538522501492e-08
"vdd" 1.200000000000000e+00
"vss" 0.000000000000000e+00
"time" 5.066039935822320e-11
"in" 0.000000000000000e+00
"out" 1.199999019759772e+00
"V0:p" 9.451416027175659e-09
"VDD:p" -7.703606567115304e-08
"VSS:p" 6.758464964592880e-08
"vdd" 1.200000000000000e+00
"vss" 0.000000000000000e+00
"time" 5.266039935822320e-11
"in" 0.000000000000000e+00
"out" 1.199998916433408e+00
"V0:p" -9.502782100748460e-09
"VDD:p" 7.625328369856200e-08
"VSS:p" -6.675050159973803e-08
"vdd" 1.200000000000000e+00
"vss" 0.000000000000000e+00
"time" 5.466039935822320e-11
"in" 0.000000000000000e+00
"out" 1.199998856862156e+00
"V0:p" 9.479504652292149e-09
"VDD:p" -7.706696987891898e-08
"VSS:p" 6.758746522867333e-08
"vdd" 1.200000000000000e+00
"vss" 0.000000000000000e+00
"time" 5.666039935822320e-11
"in" 0.000000000000000e+00
"out" 1.199998822517252e+00
"V0:p" -9.486588030108129e-09
"VDD:p" 7.623546634619297e-08
"VSS:p" -6.674887831803641e-08
"vdd" 1.200000000000000e+00
"vss" 0.000000000000000e+00
"time" 5.866039935822320e-11
"in" 0.000000000000000e+00
"out" 1.199998802716217e+00
"V0:p" 9.488841098537042e-09
"VDD:p" -7.707724220366505e-08
"VSS:p" 6.758840110717440e-08
"vdd" 1.200000000000000e+00
"vss" 0.000000000000000e+00
"time" 6.066039935822321e-11
"in" 0.000000000000000e+00
"out" 1.199998791300229e+00
"V0:p" -9.481205243401197e-09
"VDD:p" 7.622954399291640e-08
"VSS:p" -6.674833875148037e-08
"vdd" 1.200000000000000e+00
"vss" 0.000000000000000e+00
"time" 6.266039935822322e-11
"in" 0.000000000000000e+00
"out" 1.199998784718515e+00
"V0:p" 9.491944462783146e-09
"VDD:p" -7.708065664714344e-08
"VSS:p" 6.758871218617628e-08
"vdd" 1.200000000000000e+00
"vss" 0.000000000000000e+00
"time" 6.466039935822322e-11
"in" 0.000000000000000e+00
"out" 1.199998780923927e+00
"V0:p" -9.479416045723105e-09
"VDD:p" 7.622757544740723e-08
"VSS:p" -6.674815940358137e-08
"vdd" 1.200000000000000e+00
"vss" 0.000000000000000e+00
"time" 6.666039935822323e-11
"in" 0.000000000000000e+00
"out" 1.199998778736214e+00
"V0:p" 9.492975997345395e-09
"VDD:p" -7.708179158218066e-08
"VSS:p" 6.758881558644800e-08
"vdd" 1.200000000000000e+00
"vss" 0.000000000000000e+00
"time" 6.866039935822323e-11
"in" 0.000000000000000e+00
"out" 1.199998777474922e+00
"V0:p" -9.478821329723113e-09
"VDD:p" 7.622692111750522e-08
"VSS:p" -6.674809978973363e-08
"vdd" 1.200000000000000e+00
"vss" 0.000000000000000e+00
"time" 7.066039935822324e-11
"in" 0.000000000000000e+00
"out" 1.199998776747743e+00
"V0:p" 9.493318871797087e-09
"VDD:p" -7.708216882604482e-08
"VSS:p" 6.758884995594179e-08
"vdd" 1.200000000000000e+00
"vss" 0.000000000000000e+00
"time" 7.266039935822325e-11
"in" 0.000000000000000e+00
"out" 1.199998776328499e+00
"V0:p" -9.478623650595443e-09
"VDD:p" 7.622670362366273e-08
"VSS:p" -6.674807997455805e-08
"vdd" 1.200000000000000e+00
"vss" 0.000000000000000e+00
"time" 7.466039935822325e-11
"in" 0.000000000000000e+00
"out" 1.199998776086790e+00
"V0:p" 9.493432840409000e-09
"VDD:p" -7.708229421915253e-08
"VSS:p" 6.758886138011232e-08
"vdd" 1.200000000000000e+00
"vss" 0.000000000000000e+00
"time" 7.666039935822326e-11
"in" 0.000000000000000e+00
"out" 1.199998775947437e+00
"V0:p" -9.478557943463370e-09
"VDD:p" 7.622663133010192e-08
"VSS:p" -6.674807338814283e-08
"vdd" 1.200000000000000e+00
"vss" 0.000000000000000e+00
"time" 7.866039935822326e-11
"in" 0.000000000000000e+00
"out" 1.199998775867094e+00
"V0:p" 9.493470722793280e-09
"VDD:p" -7.708233589884029e-08
"VSS:p" 6.758886517744297e-08
"vdd" 1.200000000000000e+00
"vss" 0.000000000000000e+00
"time" 8.066039935822327e-11
"in" 0.000000000000000e+00
"out" 1.199998775820774e+00
"V0:p" -9.478536102941184e-09
"VDD:p" 7.622660730030374e-08
"VSS:p" -6.674807119886695e-08
"vdd" 1.200000000000000e+00
"vss" 0.000000000000000e+00
"time" 8.266039935822328e-11
"in" 0.000000000000000e+00
"out" 1.199998775794069e+00
"V0:p" 9.493483314958411e-09
"VDD:p" -7.708234975292758e-08
"VSS:p" 6.758886643960909e-08
"vdd" 1.200000000000000e+00
"vss" 0.000000000000000e+00
"time" 8.466039935822328e-11
"in" 0.000000000000000e+00
"out" 1.199998775778673e+00
"V0:p" -9.478528843563974e-09
"VDD:p" 7.622659931313203e-08
"VSS:p" -6.674807047109942e-08
"vdd" 1.200000000000000e+00
"vss" 0.000000000000000e+00
"time" 8.666039935822329e-11
"in" 0.000000000000000e+00
"out" 1.199998775769796e+00
"V0:p" 9.493487500090791e-09
"VDD:p" -7.708235435788276e-08
"VSS:p" 6.758886685910661e-08
"vdd" 1.200000000000000e+00
"vss" 0.000000000000000e+00
"time" 8.866039935822329e-11
"in" 0.000000000000000e+00
"out" 1.199998775764678e+00
"V0:p" -9.478526429994770e-09
"VDD:p" 7.622659665806638e-08
"VSS:p" -6.674807022923710e-08
"vdd" 1.200000000000000e+00
"vss" 0.000000000000000e+00
"time" 9.066039935822330e-11
"in" 0.000000000000000e+00
"out" 1.199998775761728e+00
"V0:p" 9.493488891168288e-09
"VDD:p" -7.708235588845256e-08
"VSS:p" 6.758886699857175e-08
"vdd" 1.200000000000000e+00
"vss" 0.000000000000000e+00
"time" 9.266039935822331e-11
"in" 0.000000000000000e+00
"out" 1.199998775760027e+00
"V0:p" -9.478525628132951e-09
"VDD:p" 7.622659577586420e-08
"VSS:p" -6.674807014880190e-08
"vdd" 1.200000000000000e+00
"vss" 0.000000000000000e+00
"time" 9.466039935822331e-11
"in" 0.000000000000000e+00
"out" 1.199998775759046e+00
"V0:p" 9.493489353491338e-09
"VDD:p" -7.708235639767045e-08
"VSS:p" 6.758886704492457e-08
"vdd" 1.200000000000000e+00
"vss" 0.000000000000000e+00
"time" 9.666039935822332e-11
"in" 0.000000000000000e+00
"out" 1.199998775758481e+00
"V0:p" -9.478525361585977e-09
"VDD:p" 7.622659548287159e-08
"VSS:p" -6.674807012211232e-08
"vdd" 1.200000000000000e+00
"vss" 0.000000000000000e+00
"time" 9.866039935822332e-11
"in" 0.000000000000000e+00
"out" 1.199998775758155e+00
"V0:p" 9.493489507412405e-09
"VDD:p" -7.708235656684294e-08
"VSS:p" 6.758886706032500e-08
"vdd" 1.200000000000000e+00
"vss" 0.000000000000000e+00
"time" 1.000000000000000e-10
"in" 0.000000000000000e+00
"out" 1.199998775758019e+00
"V0:p" -9.478525282106255e-09
"VDD:p" 7.622659539501813e-08
"VSS:p" -6.674807011413157e-08
"vdd" 1.200000000000000e+00
"vss" 0.000000000000000e+00
END
