HEADER
"PSFversion" "1.00"
"simulator" "spectre"
"version" "19.1.0.237.isr3"
"date" "2:47:09 PM, Tue Aug 30, 2022"
"design" "// Generated for: spectre"
"analysis type" "tran"
"analysis name" "sim"
"analysis description" "Transient Analysis `sim': time = (0 s -> 100 ps)"
"xVecSorted" "ascending"
"tolerance.relative" 0.00100000
"start" 0.00000
"outputstart" 0.00000
"stop" 1.00000e-10
"step" 1.00000e-13
"istep" 0.00100000
"maxstep" 2.00000e-12
"ic" "all"
"useprevic" "no"
"skipdc" "no"
"reltol" 0.00100000
"abstol(V)" 1.00000e-06
"abstol(I)" 1.00000e-12
"temp" 27.0000
"tnom" 27.0000
"tempeffects" "all"
"errpreset" "moderate"
"method" "traponly"
"lteratio" 3.50000
"relref" "sigglobal"
"cmin" 0.00000
"gmin" 1.00000e-12
TYPE
"sweep" FLOAT DOUBLE PROP(
"key" "sweep"
)
"LogicV" FLOAT DOUBLE PROP(
"key" "node"
)
"Tau" FLOAT DOUBLE PROP(
"units" "N*m"
"key" "node"
"tolerance" 1.00000e-06
)
"Alpha" FLOAT DOUBLE PROP(
"units" "rads/s^2"
"key" "node"
"tolerance" 1.00000e-06
)
"Omega" FLOAT DOUBLE PROP(
"units" "rads/s"
"key" "node"
"tolerance" 1.00000e-06
)
"Theta" FLOAT DOUBLE PROP(
"units" "rads"
"key" "node"
"tolerance" 1.00000e-06
)
"F" FLOAT DOUBLE PROP(
"units" "N"
"key" "node"
"tolerance" 1.00000e-06
)
"Imp" FLOAT DOUBLE PROP(
"units" "m/s^3"
"key" "node"
"tolerance" 1.00000e-06
)
"Acc" FLOAT DOUBLE PROP(
"units" "m/s^2"
"key" "node"
"tolerance" 1.00000e-06
)
"Vel" FLOAT DOUBLE PROP(
"units" "m/s"
"key" "node"
"tolerance" 1.00000e-06
)
"Pos" FLOAT DOUBLE PROP(
"units" "m"
"key" "node"
"tolerance" 1.00000e-06
)
"Phi" FLOAT DOUBLE PROP(
"units" "Wb"
"key" "node"
"tolerance" 1.00000e-09
)
"V" FLOAT DOUBLE PROP(
"units" "V"
"key" "node"
"tolerance" 1.00000e-06
)
"I" FLOAT DOUBLE PROP(
"units" "A"
"key" "branch"
"tolerance" 1.00000e-12
)
"MMF" FLOAT DOUBLE PROP(
"units" "A*turn"
"key" "node"
"tolerance" 1.00000e-12
)
"Wb" FLOAT DOUBLE PROP(
"units" "Wb"
"key" "node"
"tolerance" 1.00000e-09
)
"Temp" FLOAT DOUBLE PROP(
"units" "C"
"key" "node"
"tolerance" 0.000100000
)
"Pwr" FLOAT DOUBLE PROP(
"units" "W"
"key" "node"
"tolerance" 1.00000e-09
)
"U" FLOAT DOUBLE PROP(
"units" ""
"key" "node"
"tolerance" 1.00000e-06
)
"V/Sec" FLOAT DOUBLE PROP(
"units" "V/s"
"key" "node"
"tolerance" 0.000100000
)
"I/Sec" FLOAT DOUBLE PROP(
"units" "A/s"
"key" "node"
"tolerance" 1.00000e-06
)
"1/Sec" FLOAT DOUBLE PROP(
"units" "1/s"
"key" "node"
"tolerance" 0.000100000
)
"HOD" FLOAT DOUBLE PROP(
"units" ""
"key" "node"
"tolerance" 0.0100000
)
"Q" FLOAT DOUBLE PROP(
"units" "coul"
"key" "node"
"tolerance" 1.00000e-14
)
SWEEP
"time" "sweep" PROP(
"sweep_direction" 0
"units" "s"
"plot" 0
"grid" 1
)
TRACE
"GND:p" "I"
"in" "V"
"out" "V"
"V0:p" "I"
"VDD:p" "I"
"vdd" "V"
"vss" "V"
VALUE
"time" 0.000000000000000e+00
"GND:p" 1.013133486429285e-09
"in" 1.200000000000000e+00
"out" 1.965155541026442e-06
"V0:p" -1.062004688439810e-11
"VDD:p" -1.002513471866062e-09
"vdd" 1.200000000000000e+00
"vss" 0.000000000000000e+00
"time" 1.000000000000000e-13
"GND:p" 8.903460375220871e-05
"in" 1.200000000000000e+00
"out" -1.120279183901900e-02
"V0:p" -5.947092033955462e-05
"VDD:p" -2.956368341265365e-05
"vdd" 1.200000000000000e+00
"vss" 0.000000000000000e+00
"time" 1.857496469222931e-13
"GND:p" 1.616657231515086e-04
"in" 1.200000000000000e+00
"out" -2.864346879745754e-02
"V0:p" -1.081676477784210e-04
"VDD:p" -5.349807537308804e-05
"vdd" 1.200000000000000e+00
"vss" 0.000000000000000e+00
"time" 3.572489407668793e-13
"GND:p" 2.994808896806824e-04
"in" 1.200000000000000e+00
"out" -7.835435950103814e-02
"V0:p" -2.017739715117065e-04
"VDD:p" -9.770691816897675e-05
"vdd" 1.200000000000000e+00
"vss" 0.000000000000000e+00
"time" 5.450133299547849e-13
"GND:p" 4.356716829087472e-04
"in" 1.200000000000000e+00
"out" -1.649604542183998e-01
"V0:p" -2.966091705863094e-04
"VDD:p" -1.390625123224396e-04
"vdd" 1.200000000000000e+00
"vss" 0.000000000000000e+00
"time" 7.538361393122604e-13
"GND:p" 5.734197076426490e-04
"in" 1.200000000000000e+00
"out" -2.967053472512114e-01
"V0:p" -3.965979643399046e-04
"VDD:p" -1.768217433027405e-04
"vdd" 1.200000000000000e+00
"vss" 0.000000000000000e+00
"time" 1.000000000000000e-12
"GND:p" 7.231920954281757e-04
"in" 1.200000000000000e+00
"out" -4.955959810177055e-01
"V0:p" -5.095688387557905e-04
"VDD:p" -2.136232566723873e-04
"vdd" 1.200000000000000e+00
"vss" 0.000000000000000e+00
"time" 1.363494529629190e-12
"GND:p" 6.195807035676372e-04
"in" 1.200000000000000e+00
"out" -7.775532785121234e-01
"V0:p" -4.408653900874479e-04
"VDD:p" -1.787153134801900e-04
"vdd" 1.200000000000000e+00
"vss" 0.000000000000000e+00
"time" 1.508341342643237e-12
"GND:p" 4.536318620886756e-04
"in" 1.200000000000000e+00
"out" -8.756023391362046e-01
"V0:p" -3.312172242824317e-04
"VDD:p" -1.224146378062479e-04
"vdd" 1.200000000000000e+00
"vss" 0.000000000000000e+00
"time" 1.570528272966902e-12
"GND:p" 2.389737216307629e-04
"in" 1.200000000000000e+00
"out" -9.028489701136568e-01
"V0:p" -1.686090016870451e-04
"VDD:p" -7.036471994370905e-05
"vdd" 1.200000000000000e+00
"vss" 0.000000000000000e+00
"time" 1.690237850787905e-12
"GND:p" -3.215856175856377e-05
"in" 1.200000000000000e+00
"out" -9.185255672774936e-01
"V0:p" 1.921168054178632e-05
"VDD:p" 1.294688121676787e-05
"vdd" 1.200000000000000e+00
"vss" 0.000000000000000e+00
"time" 1.720419267712946e-12
"GND:p" -7.523431448102757e-06
"in" 1.200000000000000e+00
"out" -9.177665350565547e-01
"V0:p" 9.478446246563119e-06
"VDD:p" -1.955014798436151e-06
"vdd" 1.200000000000000e+00
"vss" 0.000000000000000e+00
"time" 1.780782101563029e-12
"GND:p" -5.255033429382839e-06
"in" 1.200000000000000e+00
"out" -9.172772104118414e-01
"V0:p" -2.310583714810558e-07
"VDD:p" 5.486091800836132e-06
"vdd" 1.200000000000000e+00
"vss" 0.000000000000000e+00
"time" 1.859782537737484e-12
"GND:p" 4.377231816634088e-06
"in" 1.200000000000000e+00
"out" -9.172323183928194e-01
"V0:p" 8.787127128054963e-07
"VDD:p" -5.255944529418860e-06
"vdd" 1.200000000000000e+00
"vss" 0.000000000000000e+00
"time" 2.013678296268171e-12
"GND:p" -4.191922799181281e-06
"in" 1.200000000000000e+00
"out" -9.172485254302974e-01
"V0:p" -9.994820933409033e-07
"VDD:p" 5.191404892498244e-06
"vdd" 1.200000000000000e+00
"vss" 0.000000000000000e+00
"time" 2.268348759993172e-12
"GND:p" 3.885559306357719e-06
"in" 1.200000000000000e+00
"out" -9.171961557106546e-01
"V0:p" 1.233440867884395e-06
"VDD:p" -5.119000174217469e-06
"vdd" 1.200000000000000e+00
"vss" 0.000000000000000e+00
"time" 2.777689687443174e-12
"GND:p" -3.766088181805896e-06
"in" 1.200000000000000e+00
"out" -9.172288106675408e-01
"V0:p" -1.307220610482508e-06
"VDD:p" 5.073308792263159e-06
"vdd" 1.200000000000000e+00
"vss" 0.000000000000000e+00
"time" 3.796371542343177e-12
"GND:p" 3.750024512946695e-06
"in" 1.200000000000000e+00
"out" -9.172066614913682e-01
"V0:p" 1.331387094437116e-06
"VDD:p" -5.081411607359295e-06
"vdd" 1.200000000000000e+00
"vss" 0.000000000000000e+00
"time" 4.898185771171588e-12
"GND:p" -3.713389054053550e-06
"in" 1.200000000000000e+00
"out" -9.172194955170891e-01
"V0:p" -1.345314374806530e-06
"VDD:p" 5.058703428835449e-06
"vdd" 1.200000000000000e+00
"vss" 0.000000000000000e+00
"time" 5.999999999999999e-12
"GND:p" 3.715040675302723e-06
"in" 1.200000000000000e+00
"out" -9.172079133789225e-01
"V0:p" 1.356667852691163e-06
"VDD:p" -5.071708527969618e-06
"vdd" 1.200000000000000e+00
"vss" 0.000000000000000e+00
"time" 6.499999999999999e-12
"GND:p" -6.818360019581894e-06
"in" 1.200000000000000e+00
"out" -9.128835003478386e-01
"V0:p" 4.933098832302023e-06
"VDD:p" 1.885261187280529e-06
"vdd" 1.200000000000000e+00
"vss" 0.000000000000000e+00
"time" 7.500000000000000e-12
"GND:p" -1.262269416528529e-05
"in" 1.200000000000000e+00
"out" -9.005634622737937e-01
"V0:p" 9.121192330151044e-06
"VDD:p" 3.501501835134133e-06
"vdd" 1.200000000000000e+00
"vss" 0.000000000000000e+00
"time" 8.865707978631055e-12
"GND:p" -2.651232186854585e-05
"in" 1.200000000000000e+00
"out" -8.667460258119010e-01
"V0:p" 1.912596322263850e-05
"VDD:p" 7.386358645908211e-06
"vdd" 1.200000000000000e+00
"vss" 0.000000000000000e+00
"time" 9.932853989315527e-12
"GND:p" -1.076002119978895e-04
"in" 1.200000000000000e+00
"out" -7.764824766750209e-01
"V0:p" 7.734799052336772e-05
"VDD:p" 3.025222147452163e-05
"vdd" 1.200000000000000e+00
"vss" 0.000000000000000e+00
"time" 1.046642699465776e-11
"GND:p" -1.698590460003166e-04
"in" 1.200000000000000e+00
"out" -6.835024379809383e-01
"V0:p" 1.213014099346831e-04
"VDD:p" 4.855763606563265e-05
"vdd" 1.200000000000000e+00
"vss" 0.000000000000000e+00
"time" 1.100000000000000e-11
"GND:p" -2.269482769920429e-04
"in" 1.200000000000000e+00
"out" -5.510741356661765e-01
"V0:p" 1.607738818216291e-04
"VDD:p" 6.617439517041470e-05
"vdd" 1.200000000000000e+00
"vss" 0.000000000000000e+00
"time" 1.136696643802727e-11
"GND:p" -1.939221758609155e-04
"in" 1.200000000000000e+00
"out" -4.623004962085455e-01
"V0:p" 1.367859047063739e-04
"VDD:p" 5.713627115454018e-05
"vdd" 1.200000000000000e+00
"vss" 0.000000000000000e+00
"time" 1.174548449839547e-11
"GND:p" -1.632226581835895e-04
"in" 1.200000000000000e+00
"out" -3.780935874581264e-01
"V0:p" 1.134175475193124e-04
"VDD:p" 4.980511066427833e-05
"vdd" 1.200000000000000e+00
"vss" 0.000000000000000e+00
"time" 1.232334633937422e-11
"GND:p" -1.219754815850597e-04
"in" 1.200000000000000e+00
"out" -2.753391889858454e-01
"V0:p" 8.461385341685025e-05
"VDD:p" 3.736162816820822e-05
"vdd" 1.200000000000000e+00
"vss" 0.000000000000000e+00
"time" 1.289343673379297e-11
"GND:p" -9.102396784737469e-05
"in" 1.200000000000000e+00
"out" -1.994373278459760e-01
"V0:p" 6.183261902007461e-05
"VDD:p" 2.919134882730171e-05
"vdd" 1.200000000000000e+00
"vss" 0.000000000000000e+00
"time" 1.372112838900717e-11
"GND:p" -5.690966704917556e-05
"in" 1.200000000000000e+00
"out" -1.227086089823631e-01
"V0:p" 3.896565783110733e-05
"VDD:p" 1.794400921806631e-05
"vdd" 1.200000000000000e+00
"vss" 0.000000000000000e+00
"time" 1.455039699538840e-11
"GND:p" -3.562330791183415e-05
"in" 1.200000000000000e+00
"out" -7.453208039995551e-02
"V0:p" 2.360089429592469e-05
"VDD:p" 1.202241361591109e-05
"vdd" 1.200000000000000e+00
"vss" 0.000000000000000e+00
"time" 1.547806205699087e-11
"GND:p" -1.989870119564645e-05
"in" 1.200000000000000e+00
"out" -4.216155362502760e-02
"V0:p" 1.375497275687766e-05
"VDD:p" 6.143728438767489e-06
"vdd" 1.200000000000000e+00
"vss" 0.000000000000000e+00
"time" 1.646808660211220e-11
"GND:p" -1.127633407520556e-05
"in" 1.200000000000000e+00
"out" -2.275197388028738e-02
"V0:p" 7.151012815392949e-06
"VDD:p" 4.125321259814018e-06
"vdd" 1.200000000000000e+00
"vss" 0.000000000000000e+00
"time" 1.761632441795079e-11
"GND:p" -5.018386627217228e-06
"in" 1.200000000000000e+00
"out" -1.098124335233166e-02
"V0:p" 3.755831276081550e-06
"VDD:p" 1.262555351134270e-06
"vdd" 1.200000000000000e+00
"vss" 0.000000000000000e+00
"time" 1.896570464928844e-11
"GND:p" -2.524042659734851e-06
"in" 1.200000000000000e+00
"out" -4.576460966053720e-03
"V0:p" 1.287970401315372e-06
"VDD:p" 1.236072258420885e-06
"vdd" 1.200000000000000e+00
"vss" 0.000000000000000e+00
"time" 2.063280105418844e-11
"GND:p" -4.218251255461358e-07
"in" 1.200000000000000e+00
"out" -1.484480709845789e-03
"V0:p" 6.821465909338839e-07
"VDD:p" -2.603214653891042e-07
"vdd" 1.200000000000000e+00
"vss" 0.000000000000000e+00
"time" 2.263280105418844e-11
"GND:p" -4.738719970146208e-07
"in" 1.200000000000000e+00
"out" -3.548552972938088e-04
"V0:p" -8.217551737424695e-08
"VDD:p" 5.560475143901955e-07
"vdd" 1.200000000000000e+00
"vss" 0.000000000000000e+00
"time" 2.463280105418844e-11
"GND:p" 2.604313735341168e-07
"in" 1.200000000000000e+00
"out" -8.371587765417833e-05
"V0:p" 2.261156275006328e-07
"VDD:p" -4.865470010364572e-07
"vdd" 1.200000000000000e+00
"vss" 0.000000000000000e+00
"time" 2.663280105418844e-11
"GND:p" -3.101075678354348e-07
"in" 1.200000000000000e+00
"out" -1.864966852311721e-05
"V0:p" -1.916104906631456e-07
"VDD:p" 5.017180584999085e-07
"vdd" 1.200000000000000e+00
"vss" 0.000000000000000e+00
"time" 2.863280105418844e-11
"GND:p" 2.997002209429978e-07
"in" 1.200000000000000e+00
"out" -3.001549200853666e-06
"V0:p" 1.998895286245863e-07
"VDD:p" -4.995897495691293e-07
"vdd" 1.200000000000000e+00
"vss" 0.000000000000000e+00
"time" 3.063280105418844e-11
"GND:p" -3.006692232878631e-07
"in" 1.200000000000000e+00
"out" 7.681400538020011e-07
"V0:p" -1.979113837028658e-07
"VDD:p" 4.985806069920839e-07
"vdd" 1.200000000000000e+00
"vss" 0.000000000000000e+00
"time" 3.263280105418844e-11
"GND:p" 3.019309666443010e-07
"in" 1.200000000000000e+00
"out" 1.723868951165103e-06
"V0:p" 1.984021714497995e-07
"VDD:p" -5.003331380958890e-07
"vdd" 1.200000000000000e+00
"vss" 0.000000000000000e+00
"time" 3.463280105418844e-11
"GND:p" -3.001459456877666e-07
"in" 1.200000000000000e+00
"out" 2.012984994823174e-06
"V0:p" -1.982585488432787e-07
"VDD:p" 4.984044945326988e-07
"vdd" 1.200000000000000e+00
"vss" 0.000000000000000e+00
"time" 3.663280105418844e-11
"GND:p" 3.021991544654501e-07
"in" 1.200000000000000e+00
"out" 1.978789588033839e-06
"V0:p" 1.982194012352041e-07
"VDD:p" -5.004185557027417e-07
"vdd" 1.200000000000000e+00
"vss" 0.000000000000000e+00
"time" 3.863280105418844e-11
"GND:p" -3.001652091913240e-07
"in" 1.200000000000000e+00
"out" 1.969044039783469e-06
"V0:p" -1.982457448459784e-07
"VDD:p" 4.984109540395250e-07
"vdd" 1.200000000000000e+00
"vss" 0.000000000000000e+00
"time" 4.063280105418844e-11
"GND:p" 3.021936644084360e-07
"in" 1.200000000000000e+00
"out" 1.966266649983648e-06
"V0:p" 1.982230503425800e-07
"VDD:p" -5.004167147530214e-07
"vdd" 1.200000000000000e+00
"vss" 0.000000000000000e+00
"time" 4.263280105418844e-11
"GND:p" -3.001667737951130e-07
"in" 1.200000000000000e+00
"out" 1.965475105775940e-06
"V0:p" -1.982447048905923e-07
"VDD:p" 4.984114786880632e-07
"vdd" 1.200000000000000e+00
"vss" 0.000000000000000e+00
"time" 4.463280105418844e-11
"GND:p" 3.021932185028725e-07
"in" 1.200000000000000e+00
"out" 1.965249518812053e-06
"V0:p" 1.982233467252004e-07
"VDD:p" -5.004165652303491e-07
"vdd" 1.200000000000000e+00
"vss" 0.000000000000000e+00
"time" 4.663280105418844e-11
"GND:p" -3.001669008761674e-07
"in" 1.200000000000000e+00
"out" 1.965185227765681e-06
"V0:p" -1.982446204223983e-07
"VDD:p" 4.984115213010863e-07
"vdd" 1.200000000000000e+00
"vss" 0.000000000000000e+00
"time" 4.863280105418844e-11
"GND:p" 3.021931822850176e-07
"in" 1.200000000000000e+00
"out" 1.965166904518341e-06
"V0:p" 1.982233707978135e-07
"VDD:p" -5.004165530855416e-07
"vdd" 1.200000000000000e+00
"vss" 0.000000000000000e+00
"time" 5.063280105418844e-11
"GND:p" -3.001669111982468e-07
"in" 1.200000000000000e+00
"out" 1.965161682625246e-06
"V0:p" -1.982446135617590e-07
"VDD:p" 4.984115247623365e-07
"vdd" 1.200000000000000e+00
"vss" 0.000000000000000e+00
"time" 5.263280105418844e-11
"GND:p" 3.021931793434953e-07
"in" 1.200000000000000e+00
"out" 1.965160194694145e-06
"V0:p" 1.982233727533087e-07
"VDD:p" -5.004165520990268e-07
"vdd" 1.200000000000000e+00
"vss" 0.000000000000000e+00
"time" 5.463280105418844e-11
"GND:p" -3.001669120364122e-07
"in" 1.200000000000000e+00
"out" 1.965159770655105e-06
"V0:p" -1.982446130047538e-07
"VDD:p" 4.984115250431999e-07
"vdd" 1.200000000000000e+00
"vss" 0.000000000000000e+00
"time" 5.663280105418844e-11
"GND:p" 3.021931791047367e-07
"in" 1.200000000000000e+00
"out" 1.965159649901118e-06
"V0:p" 1.982233729123510e-07
"VDD:p" -5.004165520190110e-07
"vdd" 1.200000000000000e+00
"vss" 0.000000000000000e+00
"time" 5.863280105418844e-11
"GND:p" -3.001669121047779e-07
"in" 1.200000000000000e+00
"out" 1.965159615022180e-06
"V0:p" -1.982446129599036e-07
"VDD:p" 4.984115250662536e-07
"vdd" 1.200000000000000e+00
"vss" 0.000000000000000e+00
"time" 6.063280105418844e-11
"GND:p" 3.021931790852261e-07
"in" 1.200000000000000e+00
"out" 1.965159605253245e-06
"V0:p" 1.982233729256138e-07
"VDD:p" -5.004165520123576e-07
"vdd" 1.200000000000000e+00
"vss" 0.000000000000000e+00
"time" 6.263280105418845e-11
"GND:p" -3.001669121104141e-07
"in" 1.200000000000000e+00
"out" 1.965159602303782e-06
"V0:p" -1.982446129561334e-07
"VDD:p" 4.984115250677952e-07
"vdd" 1.200000000000000e+00
"vss" 0.000000000000000e+00
"time" 6.463280105418846e-11
"GND:p" 3.021931790837722e-07
"in" 1.200000000000000e+00
"out" 1.965159601953622e-06
"V0:p" 1.982233729269278e-07
"VDD:p" -5.004165520117299e-07
"vdd" 1.200000000000000e+00
"vss" 0.000000000000000e+00
"time" 6.663280105418846e-11
"GND:p" -3.001669121103501e-07
"in" 1.200000000000000e+00
"out" 1.965159602206964e-06
"V0:p" -1.982446129559486e-07
"VDD:p" 4.984115250674369e-07
"vdd" 1.200000000000000e+00
"vss" 0.000000000000000e+00
"time" 6.863280105418847e-11
"GND:p" 3.021931790835553e-07
"in" 1.200000000000000e+00
"out" 1.965159601767436e-06
"V0:p" 1.982233729266159e-07
"VDD:p" -5.004165520111743e-07
"vdd" 1.200000000000000e+00
"vss" 0.000000000000000e+00
"time" 7.063280105418847e-11
"GND:p" -3.001669121104590e-07
"in" 1.200000000000000e+00
"out" 1.965159601872964e-06
"V0:p" -1.982446129558815e-07
"VDD:p" 4.984115250672074e-07
"vdd" 1.200000000000000e+00
"vss" 0.000000000000000e+00
"time" 7.263280105418848e-11
"GND:p" 3.021931790837095e-07
"in" 1.200000000000000e+00
"out" 1.965159602029415e-06
"V0:p" 1.982233729269276e-07
"VDD:p" -5.004165520112878e-07
"vdd" 1.200000000000000e+00
"vss" 0.000000000000000e+00
"time" 7.463280105418849e-11
"GND:p" -3.001669121103874e-07
"in" 1.200000000000000e+00
"out" 1.965159601973045e-06
"V0:p" -1.982446129560172e-07
"VDD:p" 4.984115250672446e-07
"vdd" 1.200000000000000e+00
"vss" 0.000000000000000e+00
"time" 7.663280105418849e-11
"GND:p" 3.021931790837027e-07
"in" 1.200000000000000e+00
"out" 1.965159601940670e-06
"V0:p" 1.982233729269852e-07
"VDD:p" -5.004165520112031e-07
"vdd" 1.200000000000000e+00
"vss" 0.000000000000000e+00
"time" 7.863280105418850e-11
"GND:p" -3.001669121106063e-07
"in" 1.200000000000000e+00
"out" 1.965159601637032e-06
"V0:p" -1.982446129562505e-07
"VDD:p" 4.984115250673446e-07
"vdd" 1.200000000000000e+00
"vss" 0.000000000000000e+00
"time" 8.063280105418850e-11
"GND:p" 3.021931790835045e-07
"in" 1.200000000000000e+00
"out" 1.965159601688434e-06
"V0:p" 1.982233729269723e-07
"VDD:p" -5.004165520109922e-07
"vdd" 1.200000000000000e+00
"vss" 0.000000000000000e+00
"time" 8.263280105418851e-11
"GND:p" -3.001669121105373e-07
"in" 1.200000000000000e+00
"out" 1.965159601609001e-06
"V0:p" -1.982446129561337e-07
"VDD:p" 4.984115250671853e-07
"vdd" 1.200000000000000e+00
"vss" 0.000000000000000e+00
"time" 8.463280105418852e-11
"GND:p" 3.021931790834838e-07
"in" 1.200000000000000e+00
"out" 1.965159601604030e-06
"V0:p" 1.982233729268602e-07
"VDD:p" -5.004165520109947e-07
"vdd" 1.200000000000000e+00
"vss" 0.000000000000000e+00
"time" 8.663280105418852e-11
"GND:p" -3.001669121104899e-07
"in" 1.200000000000000e+00
"out" 1.965159601608653e-06
"V0:p" -1.982446129560214e-07
"VDD:p" 4.984115250672971e-07
"vdd" 1.200000000000000e+00
"vss" 0.000000000000000e+00
"time" 8.863280105418853e-11
"GND:p" 3.021931790833944e-07
"in" 1.200000000000000e+00
"out" 1.965159601597775e-06
"V0:p" 1.982233729268479e-07
"VDD:p" -5.004165520110557e-07
"vdd" 1.200000000000000e+00
"vss" 0.000000000000000e+00
"time" 9.063280105418853e-11
"GND:p" -3.001669121104666e-07
"in" 1.200000000000000e+00
"out" 1.965159601546303e-06
"V0:p" -1.982446129560007e-07
"VDD:p" 4.984115250673073e-07
"vdd" 1.200000000000000e+00
"vss" 0.000000000000000e+00
"time" 9.263280105418854e-11
"GND:p" 3.021931790832817e-07
"in" 1.200000000000000e+00
"out" 1.965159601468918e-06
"V0:p" 1.982233729268687e-07
"VDD:p" -5.004165520110447e-07
"vdd" 1.200000000000000e+00
"vss" 0.000000000000000e+00
"time" 9.463280105418855e-11
"GND:p" -3.001669121103772e-07
"in" 1.200000000000000e+00
"out" 1.965159601570919e-06
"V0:p" -1.982446129558800e-07
"VDD:p" 4.984115250673683e-07
"vdd" 1.200000000000000e+00
"vss" 0.000000000000000e+00
"time" 9.663280105418855e-11
"GND:p" 3.021931790830107e-07
"in" 1.200000000000000e+00
"out" 1.965159601144294e-06
"V0:p" 1.982233729265987e-07
"VDD:p" -5.004165520108024e-07
"vdd" 1.200000000000000e+00
