HEADER
"PSFversion" "1.00"
"simulator" "spectre"
"version" "19.1.0.237.isr3"
"date" "4:07:45 PM, Tue Aug 30, 2022"
"design" "// Generated for: spectre"
"analysis type" "tran"
"analysis name" "sim"
"analysis description" "Transient Analysis `sim': time = (0 s -> 100 ps)"
"xVecSorted" "ascending"
"tolerance.relative" 0.00100000
"start" 0.00000
"outputstart" 0.00000
"stop" 1.00000e-10
"step" 1.00000e-13
"istep" 0.00100000
"maxstep" 2.00000e-12
"ic" "all"
"useprevic" "no"
"skipdc" "no"
"reltol" 0.00100000
"abstol(V)" 1.00000e-06
"abstol(I)" 1.00000e-12
"temp" 27.0000
"tnom" 27.0000
"tempeffects" "all"
"errpreset" "moderate"
"method" "traponly"
"lteratio" 3.50000
"relref" "sigglobal"
"cmin" 0.00000
"gmin" 1.00000e-12
TYPE
"sweep" FLOAT DOUBLE PROP(
"key" "sweep"
)
"LogicV" FLOAT DOUBLE PROP(
"key" "node"
)
"Tau" FLOAT DOUBLE PROP(
"units" "N*m"
"key" "node"
"tolerance" 1.00000e-06
)
"Alpha" FLOAT DOUBLE PROP(
"units" "rads/s^2"
"key" "node"
"tolerance" 1.00000e-06
)
"Omega" FLOAT DOUBLE PROP(
"units" "rads/s"
"key" "node"
"tolerance" 1.00000e-06
)
"Theta" FLOAT DOUBLE PROP(
"units" "rads"
"key" "node"
"tolerance" 1.00000e-06
)
"F" FLOAT DOUBLE PROP(
"units" "N"
"key" "node"
"tolerance" 1.00000e-06
)
"Imp" FLOAT DOUBLE PROP(
"units" "m/s^3"
"key" "node"
"tolerance" 1.00000e-06
)
"Acc" FLOAT DOUBLE PROP(
"units" "m/s^2"
"key" "node"
"tolerance" 1.00000e-06
)
"Vel" FLOAT DOUBLE PROP(
"units" "m/s"
"key" "node"
"tolerance" 1.00000e-06
)
"Pos" FLOAT DOUBLE PROP(
"units" "m"
"key" "node"
"tolerance" 1.00000e-06
)
"Phi" FLOAT DOUBLE PROP(
"units" "Wb"
"key" "node"
"tolerance" 1.00000e-09
)
"V" FLOAT DOUBLE PROP(
"units" "V"
"key" "node"
"tolerance" 1.00000e-06
)
"I" FLOAT DOUBLE PROP(
"units" "A"
"key" "branch"
"tolerance" 1.00000e-12
)
"MMF" FLOAT DOUBLE PROP(
"units" "A*turn"
"key" "node"
"tolerance" 1.00000e-12
)
"Wb" FLOAT DOUBLE PROP(
"units" "Wb"
"key" "node"
"tolerance" 1.00000e-09
)
"Temp" FLOAT DOUBLE PROP(
"units" "C"
"key" "node"
"tolerance" 0.000100000
)
"Pwr" FLOAT DOUBLE PROP(
"units" "W"
"key" "node"
"tolerance" 1.00000e-09
)
"U" FLOAT DOUBLE PROP(
"units" ""
"key" "node"
"tolerance" 1.00000e-06
)
"V/Sec" FLOAT DOUBLE PROP(
"units" "V/s"
"key" "node"
"tolerance" 0.000100000
)
"I/Sec" FLOAT DOUBLE PROP(
"units" "A/s"
"key" "node"
"tolerance" 1.00000e-06
)
"1/Sec" FLOAT DOUBLE PROP(
"units" "1/s"
"key" "node"
"tolerance" 0.000100000
)
"HOD" FLOAT DOUBLE PROP(
"units" ""
"key" "node"
"tolerance" 0.0100000
)
"Q" FLOAT DOUBLE PROP(
"units" "coul"
"key" "node"
"tolerance" 1.00000e-14
)
SWEEP
"time" "sweep" PROP(
"sweep_direction" 0
"units" "s"
"plot" 0
"grid" 1
)
TRACE
"GND:p" "I"
"in0" "V"
"in1" "V"
"net13" "V"
"out" "V"
"V0:p" "I"
"V1:p" "I"
"VDD:p" "I"
"vdd" "V"
"vss" "V"
VALUE
"time" 0.000000000000000e+00
"GND:p" 5.610122483096415e-11
"in0" 0.000000000000000e+00
"in1" 0.000000000000000e+00
"net13" 2.470546966412399e-02
"out" 1.199999584058010e+00
"V0:p" 3.016613384934715e-11
"V1:p" 2.859123199320163e-11
"VDD:p" -1.148585513731463e-10
"vdd" 1.200000000000000e+00
"vss" 0.000000000000000e+00
"time" 1.000000000000000e-13
"GND:p" 8.669042553551047e-08
"in0" 0.000000000000000e+00
"in1" 0.000000000000000e+00
"net13" 2.475909475146097e-02
"out" 1.200397277042388e+00
"V0:p" 3.006305210244349e-06
"V1:p" 2.046469427865593e-06
"VDD:p" -5.139465063642851e-06
"vdd" 1.200000000000000e+00
"vss" 0.000000000000000e+00
"time" 3.000000000000000e-13
"GND:p" 2.552342808153646e-07
"in0" 0.000000000000000e+00
"in1" 0.000000000000000e+00
"net13" 2.507501377963585e-02
"out" 1.202740494913860e+00
"V0:p" 8.860055672986762e-06
"V1:p" 6.032376856596840e-06
"VDD:p" -1.514766681039951e-05
"vdd" 1.200000000000000e+00
"vss" 0.000000000000000e+00
"time" 7.000000000000000e-13
"GND:p" 5.807933904009019e-07
"in0" 0.000000000000000e+00
"in1" 0.000000000000000e+00
"net13" 2.611023676591433e-02
"out" 1.210424575191358e+00
"V0:p" 2.026261502846267e-05
"V1:p" 1.381766538312811e-05
"VDD:p" -3.466107380199191e-05
"vdd" 1.200000000000000e+00
"vss" 0.000000000000000e+00
"time" 1.234854106797880e-12
"GND:p" 9.791650483907197e-07
"in0" 0.000000000000000e+00
"in1" 0.000000000000000e+00
"net13" 2.869563062109416e-02
"out" 1.229655564850738e+00
"V0:p" 3.460884297898166e-05
"V1:p" 2.369899943368737e-05
"VDD:p" -5.928700746106008e-05
"vdd" 1.200000000000000e+00
"vss" 0.000000000000000e+00
"time" 2.086842285049396e-12
"GND:p" 1.523900997944675e-06
"in0" 0.000000000000000e+00
"in1" 0.000000000000000e+00
"net13" 3.531887545399445e-02
"out" 1.279178020533337e+00
"V0:p" 5.552028102116833e-05
"V1:p" 3.837709887622078e-05
"VDD:p" -9.542128089533352e-05
"vdd" 1.200000000000000e+00
"vss" 0.000000000000000e+00
"time" 3.504860244849166e-12
"GND:p" 2.185546946988769e-06
"in0" 0.000000000000000e+00
"in1" 0.000000000000000e+00
"net13" 5.174544885410803e-02
"out" 1.403585538963918e+00
"V0:p" 8.574837337031026e-05
"V1:p" 6.055811455772585e-05
"VDD:p" -1.484920348750262e-04
"vdd" 1.200000000000000e+00
"vss" 0.000000000000000e+00
"time" 4.252430122424582e-12
"GND:p" 2.384190815546937e-06
"in0" 0.000000000000000e+00
"in1" 0.000000000000000e+00
"net13" 6.248251275023006e-02
"out" 1.486134663363597e+00
"V0:p" 9.981488777430146e-05
"V1:p" 7.173424933474855e-05
"VDD:p" -1.739333279245985e-04
"vdd" 1.200000000000000e+00
"vss" 0.000000000000000e+00
"time" 5.000000000000000e-12
"GND:p" 2.585425358186629e-06
"in0" 0.000000000000000e+00
"in1" 0.000000000000000e+00
"net13" 7.421996064492854e-02
"out" 1.577491298011168e+00
"V0:p" 1.127841234727105e-04
"V1:p" 8.191787291835690e-05
"VDD:p" -1.972874217492508e-04
"vdd" 1.200000000000000e+00
"vss" 0.000000000000000e+00
"time" 5.999999999999999e-12
"GND:p" 2.208353161535179e-06
"in0" 0.000000000000000e+00
"in1" 0.000000000000000e+00
"net13" 8.825521452966452e-02
"out" 1.688261507405918e+00
"V0:p" 1.001432013882789e-04
"V1:p" 7.343053525694663e-05
"VDD:p" -1.757820898067602e-04
"vdd" 1.200000000000000e+00
"vss" 0.000000000000000e+00
"time" 6.528997943212152e-12
"GND:p" 1.662613073935419e-06
"in0" 0.000000000000000e+00
"in1" 0.000000000000000e+00
"net13" 9.386915397380527e-02
"out" 1.733029806918814e+00
"V0:p" 7.863947338851979e-05
"V1:p" 5.823217224172774e-05
"VDD:p" -1.385342587041838e-04
"vdd" 1.200000000000000e+00
"vss" 0.000000000000000e+00
"time" 7.493793852098206e-12
"GND:p" 8.067027243130970e-07
"in0" 0.000000000000000e+00
"in1" 0.000000000000000e+00
"net13" 1.014956091296794e-01
"out" 1.794295672084078e+00
"V0:p" 4.149837602430286e-05
"V1:p" 3.128102265760191e-05
"VDD:p" -7.358610140621595e-05
"vdd" 1.200000000000000e+00
"vss" 0.000000000000000e+00
"time" 9.031919006750325e-12
"GND:p" -1.740802884943709e-07
"in0" 0.000000000000000e+00
"in1" 0.000000000000000e+00
"net13" 1.046164502976096e-01
"out" 1.819490196865650e+00
"V0:p" -1.016404384015140e-05
"V1:p" -7.846224012009574e-06
"VDD:p" 1.818434814065237e-05
"vdd" 1.200000000000000e+00
"vss" 0.000000000000000e+00
"time" 1.001595950337516e-11
"GND:p" -7.977284660624277e-07
"in0" 0.000000000000000e+00
"in1" 0.000000000000000e+00
"net13" 1.015470425688909e-01
"out" 1.794688478283779e+00
"V0:p" -3.814068961311895e-05
"V1:p" -2.830364270836672e-05
"VDD:p" 6.724206078755024e-05
"vdd" 1.200000000000000e+00
"vss" 0.000000000000000e+00
"time" 1.100000000000000e-11
"GND:p" -1.280713599395990e-06
"in0" 0.000000000000000e+00
"in1" 0.000000000000000e+00
"net13" 9.499703933211549e-02
"out" 1.742036195365062e+00
"V0:p" -6.324426920525609e-05
"V1:p" -4.727707038417245e-05
"VDD:p" 1.118020531888245e-04
"vdd" 1.200000000000000e+00
"vss" 0.000000000000000e+00
"time" 1.293761043668742e-11
"GND:p" -1.080889536100012e-06
"in0" 0.000000000000000e+00
"in1" 0.000000000000000e+00
"net13" 8.164199754597011e-02
"out" 1.635821528499507e+00
"V0:p" -5.058522613149717e-05
"V1:p" -3.736636406839588e-05
"VDD:p" 8.903247973599328e-05
"vdd" 1.200000000000000e+00
"vss" 0.000000000000000e+00
"time" 1.388811071936210e-11
"GND:p" -1.037485568056922e-06
"in0" 0.000000000000000e+00
"in1" 0.000000000000000e+00
"net13" 7.525055176175827e-02
"out" 1.585527099688972e+00
"V0:p" -4.432313257640809e-05
"V1:p" -3.202080899018490e-05
"VDD:p" 7.738142713465166e-05
"vdd" 1.200000000000000e+00
"vss" 0.000000000000000e+00
"time" 1.578911128471146e-11
"GND:p" -7.886690075227727e-07
"in0" 0.000000000000000e+00
"in1" 0.000000000000000e+00
"net13" 6.427388945117379e-02
"out" 1.499952887019834e+00
"V0:p" -3.435061044901752e-05
"V1:p" -2.493958101416801e-05
"VDD:p" 6.007886047070642e-05
"vdd" 1.200000000000000e+00
"vss" 0.000000000000000e+00
"time" 1.778911128471146e-11
"GND:p" -6.729972206453118e-07
"in0" 0.000000000000000e+00
"in1" 0.000000000000000e+00
"net13" 5.507362317564665e-02
"out" 1.429020544869462e+00
"V0:p" -2.572469321316798e-05
"V1:p" -1.802652523059999e-05
"VDD:p" 4.442421566441544e-05
"vdd" 1.200000000000000e+00
"vss" 0.000000000000000e+00
"time" 1.978911128471146e-11
"GND:p" -4.715368108789268e-07
"in0" 0.000000000000000e+00
"in1" 0.000000000000000e+00
"net13" 4.789674315803599e-02
"out" 1.374183622355023e+00
"V0:p" -1.955267829887589e-05
"V1:p" -1.402247185780588e-05
"VDD:p" 3.404668696755816e-05
"vdd" 1.200000000000000e+00
"vss" 0.000000000000000e+00
"time" 2.178911128471146e-11
"GND:p" -4.147774617790866e-07
"in0" 0.000000000000000e+00
"in1" 0.000000000000000e+00
"net13" 4.235547940454965e-02
"out" 1.332140775234518e+00
"V0:p" -1.447260438883985e-05
"V1:p" -9.859761396385698e-06
"VDD:p" 2.474714324700749e-05
"vdd" 1.200000000000000e+00
"vss" 0.000000000000000e+00
"time" 2.378911128471146e-11
"GND:p" -2.662753645168005e-07
"in0" 0.000000000000000e+00
"in1" 0.000000000000000e+00
"net13" 3.810722697116632e-02
"out" 1.300083235151315e+00
"V0:p" -1.106769592693582e-05
"V1:p" -7.945843993339346e-06
"VDD:p" 1.927981528478865e-05
"vdd" 1.200000000000000e+00
"vss" 0.000000000000000e+00
"time" 2.578911128471146e-11
"GND:p" -2.542767286235044e-07
"in0" 0.000000000000000e+00
"in1" 0.000000000000000e+00
"net13" 3.486578028952921e-02
"out" 1.275725149154349e+00
"V0:p" -8.102543701337097e-06
"V1:p" -5.346983058239535e-06
"VDD:p" 1.370380348820447e-05
"vdd" 1.200000000000000e+00
"vss" 0.000000000000000e+00
"time" 2.778911128471146e-11
"GND:p" -1.421563592963837e-07
"in0" 0.000000000000000e+00
"in1" 0.000000000000000e+00
"net13" 3.240043135888650e-02
"out" 1.257258210366855e+00
"V0:p" -6.294019259437309e-06
"V1:p" -4.593407549784183e-06
"VDD:p" 1.102958316851332e-05
"vdd" 1.200000000000000e+00
"vss" 0.000000000000000e+00
"time" 2.978911128471146e-11
"GND:p" -1.590002258676770e-07
"in0" 0.000000000000000e+00
"in1" 0.000000000000000e+00
"net13" 3.052938275533481e-02
"out" 1.243277006477827e+00
"V0:p" -4.525967820144616e-06
"V1:p" -2.852692267764537e-06
"VDD:p" 7.537660313782064e-06
"vdd" 1.200000000000000e+00
"vss" 0.000000000000000e+00
"time" 3.178911128471146e-11
"GND:p" -6.938203482340514e-08
"in0" 0.000000000000000e+00
"in1" 0.000000000000000e+00
"net13" 2.911143430938668e-02
"out" 1.232701119024148e+00
"V0:p" -3.612683045479906e-06
"V1:p" -2.733742097122006e-06
"VDD:p" 6.415807177420181e-06
"vdd" 1.200000000000000e+00
"vss" 0.000000000000000e+00
"time" 3.378911128471146e-11
"GND:p" -1.035997963729536e-07
"in0" 0.000000000000000e+00
"in1" 0.000000000000000e+00
"net13" 2.803792986792977e-02
"out" 1.224705519058003e+00
"V0:p" -2.513812098514600e-06
"V1:p" -1.463171980127978e-06
"VDD:p" 4.080583875020546e-06
"vdd" 1.200000000000000e+00
"vss" 0.000000000000000e+00
"time" 3.578911128471146e-11
"GND:p" -2.730441073837407e-08
"in0" 0.000000000000000e+00
"in1" 0.000000000000000e+00
"net13" 2.722575804986674e-02
"out" 1.218662782966194e+00
"V0:p" -2.101090240555974e-06
"V1:p" -1.693405885458955e-06
"VDD:p" 3.821800536748288e-06
"vdd" 1.200000000000000e+00
"vss" 0.000000000000000e+00
"time" 3.778911128471146e-11
"GND:p" -7.169186633429873e-08
"in0" 0.000000000000000e+00
"in1" 0.000000000000000e+00
"net13" 2.661159759677066e-02
"out" 1.214096968843204e+00
"V0:p" -1.377116098496509e-06
"V1:p" -6.828928410245801e-07
"VDD:p" 2.131700805860511e-06
"vdd" 1.200000000000000e+00
"vss" 0.000000000000000e+00
"time" 3.978911128471146e-11
"GND:p" -3.135267590619448e-09
"in0" 0.000000000000000e+00
"in1" 0.000000000000000e+00
"net13" 2.614733208948426e-02
"out" 1.210647608796781e+00
"V0:p" -1.245559328870205e-06
"V1:p" -1.107309490791231e-06
"VDD:p" 2.356004087246851e-06
"vdd" 1.200000000000000e+00
"vss" 0.000000000000000e+00
"time" 4.178911128471146e-11
"GND:p" -5.339910303193575e-08
"in0" 0.000000000000000e+00
"in1" 0.000000000000000e+00
"net13" 2.579646419831923e-02
"out" 1.208041959862568e+00
"V0:p" -7.327292650847119e-07
"V1:p" -2.421234881230343e-07
"VDD:p" 1.028251856244534e-06
"vdd" 1.200000000000000e+00
"vss" 0.000000000000000e+00
"time" 4.378911128471146e-11
"GND:p" 1.070197996265667e-08
"in0" 0.000000000000000e+00
"in1" 0.000000000000000e+00
"net13" 2.553134394738930e-02
"out" 1.206073783052561e+00
"V0:p" -7.599160927384812e-07
"V1:p" -7.755133442518472e-07
"VDD:p" 1.524727457022562e-06
"vdd" 1.200000000000000e+00
"vss" 0.000000000000000e+00
"time" 4.578911128471146e-11
"GND:p" -4.293648583533105e-08
"in0" 0.000000000000000e+00
"in1" 0.000000000000000e+00
"net13" 2.533104201416026e-02
"out" 1.204587189755937e+00
"V0:p" -3.665489996248329e-07
"V1:p" 7.830356823096808e-09
"VDD:p" 4.016551286414849e-07
"vdd" 1.200000000000000e+00
"vss" 0.000000000000000e+00
"time" 4.778911128471146e-11
"GND:p" 1.861057593481680e-08
"in0" 0.000000000000000e+00
"in1" 0.000000000000000e+00
"net13" 2.517972583958193e-02
"out" 1.203464380222512e+00
"V0:p" -4.837088704025985e-07
"V1:p" -5.871032849863926e-07
"VDD:p" 1.052201579449851e-06
"vdd" 1.200000000000000e+00
"vss" 0.000000000000000e+00
"time" 4.978911128471146e-11
"GND:p" -3.695978537530185e-08
"in0" 0.000000000000000e+00
"in1" 0.000000000000000e+00
"net13" 2.506542368107898e-02
"out" 1.202616352687407e+00
"V0:p" -1.581471995682555e-07
"V1:p" 1.499146150020102e-07
"VDD:p" 4.519236994607414e-08
"vdd" 1.200000000000000e+00
"vss" 0.000000000000000e+00
"time" 5.178911128471146e-11
"GND:p" 2.312655330134932e-08
"in0" 0.000000000000000e+00
"in1" 0.000000000000000e+00
"net13" 2.497908600633506e-02
"out" 1.201975871210785e+00
"V0:p" -3.264318042784102e-07
"V1:p" -4.799168936843188e-07
"VDD:p" 7.832221446568531e-07
"vdd" 1.200000000000000e+00
"vss" 0.000000000000000e+00
"time" 5.378911128471146e-11
"GND:p" -3.354794608971494e-08
"in0" 0.000000000000000e+00
"in1" 0.000000000000000e+00
"net13" 2.491387378739410e-02
"out" 1.201492146885489e+00
"V0:p" -3.943259155369787e-08
"V1:p" 2.307961640257651e-07
"VDD:p" -1.578156263774999e-07
"vdd" 1.200000000000000e+00
"vss" 0.000000000000000e+00
"time" 5.578911128471146e-11
"GND:p" 2.570397486056786e-08
"in0" 0.000000000000000e+00
"in1" 0.000000000000000e+00
"net13" 2.486461942764871e-02
"out" 1.201126816815980e+00
"V0:p" -2.368127972845310e-07
"V1:p" -4.188722139624283e-07
"VDD:p" 6.299810363812819e-07
"vdd" 1.200000000000000e+00
"vss" 0.000000000000000e+00
"time" 5.778911128471146e-11
"GND:p" -3.160100656566320e-08
"in0" 0.000000000000000e+00
"in1" 0.000000000000000e+00
"net13" 2.482741876342897e-02
"out" 1.200850905151335e+00
"V0:p" 2.822860682051881e-08
"V1:p" 2.768762774410175e-07
"VDD:p" -2.735038776899778e-07
"vdd" 1.200000000000000e+00
"vss" 0.000000000000000e+00
"time" 5.978911128471146e-11
"GND:p" 2.717458326587631e-08
"in0" 0.000000000000000e+00
"in1" 0.000000000000000e+00
"net13" 2.479932244243963e-02
"out" 1.200642526804248e+00
"V0:p" -1.857255630303506e-07
"V1:p" -3.840841379812235e-07
"VDD:p" 5.426351177394504e-07
"vdd" 1.200000000000000e+00
"vss" 0.000000000000000e+00
"time" 6.178911128471147e-11
"GND:p" -3.049023494082388e-08
"in0" 0.000000000000000e+00
"in1" 0.000000000000000e+00
"net13" 2.477810256902145e-02
"out" 1.200485152602316e+00
"V0:p" 6.680399108584913e-08
"V1:p" 3.031418014907404e-07
"VDD:p" -3.394555576296940e-07
"vdd" 1.200000000000000e+00
"vss" 0.000000000000000e+00
"time" 6.378911128471147e-11
"GND:p" 2.801354052028258e-08
"in0" 0.000000000000000e+00
"in1" 0.000000000000000e+00
"net13" 2.476207631312950e-02
"out" 1.200366298735610e+00
"V0:p" -1.565964535525752e-07
"V1:p" -3.642519277943168e-07
"VDD:p" 4.928348408198469e-07
"vdd" 1.200000000000000e+00
"vss" 0.000000000000000e+00
"time" 6.578911128471148e-11
"GND:p" -2.985659091475241e-08
"in0" 0.000000000000000e+00
"in1" 0.000000000000000e+00
"net13" 2.474997260738046e-02
"out" 1.200276536800280e+00
"V0:p" 8.880074541998970e-08
"V1:p" 3.181172006812679e-07
"VDD:p" -3.770613551794446e-07
"vdd" 1.200000000000000e+00
"vss" 0.000000000000000e+00
"time" 6.778911128471149e-11
"GND:p" 2.849210852744610e-08
"in0" 0.000000000000000e+00
"in1" 0.000000000000000e+00
"net13" 2.474083142344441e-02
"out" 1.200208746050413e+00
"V0:p" -1.399852561932026e-07
"V1:p" -3.529434921960541e-07
"VDD:p" 4.644366398548991e-07
"vdd" 1.200000000000000e+00
"vss" 0.000000000000000e+00
"time" 6.978911128471149e-11
"GND:p" -2.949515062978393e-08
"in0" 0.000000000000000e+00
"in1" 0.000000000000000e+00
"net13" 2.473392767475034e-02
"out" 1.200157548619312e+00
"V0:p" 1.013451931260667e-07
"V1:p" 3.266568370358102e-07
"VDD:p" -3.985068795250865e-07
"vdd" 1.200000000000000e+00
"vss" 0.000000000000000e+00
"time" 7.178911128471150e-11
"GND:p" 2.876508508892737e-08
"in0" 0.000000000000000e+00
"in1" 0.000000000000000e+00
"net13" 2.472871372982465e-02
"out" 1.200118882950394e+00
"V0:p" -1.305118009244009e-07
"V1:p" -3.464945891557517e-07
"VDD:p" 4.482413049839199e-07
"vdd" 1.200000000000000e+00
"vss" 0.000000000000000e+00
"time" 7.378911128471150e-11
"GND:p" -2.928898746372084e-08
"in0" 0.000000000000000e+00
"in1" 0.000000000000000e+00
"net13" 2.472477598778553e-02
"out" 1.200089681622335e+00
"V0:p" 1.084995401452364e-07
"V1:p" 3.315269562155894e-07
"VDD:p" -4.107375088900032e-07
"vdd" 1.200000000000000e+00
"vss" 0.000000000000000e+00
"time" 7.578911128471151e-11
"GND:p" 2.892078718602312e-08
"in0" 0.000000000000000e+00
"in1" 0.000000000000000e+00
"net13" 2.472180207786937e-02
"out" 1.200067628023713e+00
"V0:p" -1.251087984218224e-07
"V1:p" -3.428166983903197e-07
"VDD:p" 4.390047096193429e-07
"vdd" 1.200000000000000e+00
"vss" 0.000000000000000e+00
"time" 7.778911128471152e-11
"GND:p" -2.917139592042273e-08
"in0" 0.000000000000000e+00
"in1" 0.000000000000000e+00
"net13" 2.471955608473419e-02
"out" 1.200050972581483e+00
"V0:p" 1.125799429413335e-07
"V1:p" 3.343045083233228e-07
"VDD:p" -4.177130553369966e-07
"vdd" 1.200000000000000e+00
"vss" 0.000000000000000e+00
"time" 7.978911128471152e-11
"GND:p" 2.900959606570309e-08
"in0" 0.000000000000000e+00
"in1" 0.000000000000000e+00
"net13" 2.471785983630503e-02
"out" 1.200038393968650e+00
"V0:p" -1.220272219839199e-07
"V1:p" -3.407190690901637e-07
"VDD:p" 4.337366950007098e-07
"vdd" 1.200000000000000e+00
"vss" 0.000000000000000e+00
"time" 8.178911128471153e-11
"GND:p" -2.910432477999625e-08
"in0" 0.000000000000000e+00
"in1" 0.000000000000000e+00
"net13" 2.471657877092791e-02
"out" 1.200028894282882e+00
"V0:p" 1.149072002076169e-07
"V1:p" 3.358886631901535e-07
"VDD:p" -4.216915386097241e-07
"vdd" 1.200000000000000e+00
"vss" 0.000000000000000e+00
"time" 8.378911128471153e-11
"GND:p" 2.906025012247890e-08
"in0" 0.000000000000000e+00
"in1" 0.000000000000000e+00
"net13" 2.471561126334613e-02
"out" 1.200021719881653e+00
"V0:p" -1.202696342657686e-07
"V1:p" -3.395226913596685e-07
"VDD:p" 4.307320754945554e-07
"vdd" 1.200000000000000e+00
"vss" 0.000000000000000e+00
"time" 8.578911128471154e-11
"GND:p" -2.906606942789226e-08
"in0" 0.000000000000000e+00
"in1" 0.000000000000000e+00
"net13" 2.471488056310070e-02
"out" 1.200016301594343e+00
"V0:p" 1.162345656392801e-07
"V1:p" 3.367921885715655e-07
"VDD:p" -4.239606847750519e-07
"vdd" 1.200000000000000e+00
"vss" 0.000000000000000e+00
"time" 8.778911128471155e-11
"GND:p" 2.908914159938025e-08
"in0" 0.000000000000000e+00
"in1" 0.000000000000000e+00
"net13" 2.471432870603192e-02
"out" 1.200012209568574e+00
"V0:p" -1.192671797831673e-07
"V1:p" -3.388403315876383e-07
"VDD:p" 4.290183697638497e-07
"vdd" 1.200000000000000e+00
"vss" 0.000000000000000e+00
"time" 8.978911128471155e-11
