HEADER
"PSFversion" "1.00"
"simulator" "spectre"
"version" "19.1.0.237.isr3"
"date" "1:51:14 PM, Sat Sep 10, 2022"
"design" "// Generated for: spectre"
"analysis type" "tran"
"analysis name" "sim"
"analysis description" "Transient Analysis `sim': time = (0 s -> 100 ps)"
"xVecSorted" "ascending"
"tolerance.relative" 0.00100000
"start" 0.00000
"outputstart" 0.00000
"stop" 1.00000e-10
"step" 1.00000e-13
"istep" 0.00100000
"maxstep" 2.00000e-12
"ic" "all"
"useprevic" "no"
"skipdc" "no"
"reltol" 0.00100000
"abstol(V)" 1.00000e-06
"abstol(I)" 1.00000e-12
"temp" 27.0000
"tnom" 27.0000
"tempeffects" "all"
"errpreset" "moderate"
"method" "traponly"
"lteratio" 3.50000
"relref" "sigglobal"
"cmin" 0.00000
"gmin" 1.00000e-12
TYPE
"sweep" FLOAT DOUBLE PROP(
"key" "sweep"
)
"LogicV" FLOAT DOUBLE PROP(
"key" "node"
)
"Tau" FLOAT DOUBLE PROP(
"units" "N*m"
"key" "node"
"tolerance" 1.00000e-06
)
"Alpha" FLOAT DOUBLE PROP(
"units" "rads/s^2"
"key" "node"
"tolerance" 1.00000e-06
)
"Omega" FLOAT DOUBLE PROP(
"units" "rads/s"
"key" "node"
"tolerance" 1.00000e-06
)
"Theta" FLOAT DOUBLE PROP(
"units" "rads"
"key" "node"
"tolerance" 1.00000e-06
)
"F" FLOAT DOUBLE PROP(
"units" "N"
"key" "node"
"tolerance" 1.00000e-06
)
"Imp" FLOAT DOUBLE PROP(
"units" "m/s^3"
"key" "node"
"tolerance" 1.00000e-06
)
"Acc" FLOAT DOUBLE PROP(
"units" "m/s^2"
"key" "node"
"tolerance" 1.00000e-06
)
"Vel" FLOAT DOUBLE PROP(
"units" "m/s"
"key" "node"
"tolerance" 1.00000e-06
)
"Pos" FLOAT DOUBLE PROP(
"units" "m"
"key" "node"
"tolerance" 1.00000e-06
)
"Phi" FLOAT DOUBLE PROP(
"units" "Wb"
"key" "node"
"tolerance" 1.00000e-09
)
"V" FLOAT DOUBLE PROP(
"units" "V"
"key" "node"
"tolerance" 1.00000e-06
)
"I" FLOAT DOUBLE PROP(
"units" "A"
"key" "branch"
"tolerance" 1.00000e-12
)
"MMF" FLOAT DOUBLE PROP(
"units" "A*turn"
"key" "node"
"tolerance" 1.00000e-12
)
"Wb" FLOAT DOUBLE PROP(
"units" "Wb"
"key" "node"
"tolerance" 1.00000e-09
)
"Temp" FLOAT DOUBLE PROP(
"units" "C"
"key" "node"
"tolerance" 0.000100000
)
"Pwr" FLOAT DOUBLE PROP(
"units" "W"
"key" "node"
"tolerance" 1.00000e-09
)
"U" FLOAT DOUBLE PROP(
"units" ""
"key" "node"
"tolerance" 1.00000e-06
)
"V/Sec" FLOAT DOUBLE PROP(
"units" "V/s"
"key" "node"
"tolerance" 0.000100000
)
"I/Sec" FLOAT DOUBLE PROP(
"units" "A/s"
"key" "node"
"tolerance" 1.00000e-06
)
"1/Sec" FLOAT DOUBLE PROP(
"units" "1/s"
"key" "node"
"tolerance" 0.000100000
)
"HOD" FLOAT DOUBLE PROP(
"units" ""
"key" "node"
"tolerance" 0.0100000
)
"Q" FLOAT DOUBLE PROP(
"units" "coul"
"key" "node"
"tolerance" 1.00000e-14
)
SWEEP
"time" "sweep" PROP(
"sweep_direction" 0
"units" "s"
"plot" 0
"grid" 1
)
TRACE
"in0" "V"
"in1" "V"
"net13" "V"
"out" "V"
"V0:p" "I"
"V1:p" "I"
"VDD:p" "I"
"VSS:p" "I"
"vdd" "V"
"vss" "V"
VALUE
"time" 0.000000000000000e+00
"in0" 0.000000000000000e+00
"in1" 1.200000000000000e+00
"net13" 2.522254161175162e-07
"out" 1.199998608538689e+00
"V0:p" -2.292918816276842e-11
"V1:p" 3.016577400687568e-11
"VDD:p" -1.585927201598540e-10
"VSS:p" 1.513562509904299e-10
"vdd" 1.200000000000000e+00
"vss" 0.000000000000000e+00
"time" 1.000000000000000e-13
"in0" 0.000000000000000e+00
"in1" 1.200000000000000e+00
"net13" 1.306965959133809e-03
"out" 1.198937808225797e+00
"V0:p" 5.252240134184170e-06
"V1:p" -3.340256271895605e-06
"VDD:p" -6.793347995823763e-06
"VSS:p" 4.881364133532596e-06
"vdd" 1.200000000000000e+00
"vss" 0.000000000000000e+00
"time" 3.000000000000000e-13
"in0" 0.000000000000000e+00
"in1" 1.200000000000000e+00
"net13" 8.770315538879808e-03
"out" 1.192520954266488e+00
"V0:p" 1.489466637453672e-05
"V1:p" -1.079548728050471e-05
"VDD:p" -2.077226190967155e-05
"VSS:p" 1.667308281563868e-05
"vdd" 1.200000000000000e+00
"vss" 0.000000000000000e+00
"time" 6.961894878363963e-13
"in0" 0.000000000000000e+00
"in1" 1.200000000000000e+00
"net13" 3.250661639380316e-02
"out" 1.170949427380405e+00
"V0:p" 3.331131355260424e-05
"V1:p" -2.751608412625612e-05
"VDD:p" -4.919236927811807e-05
"VSS:p" 4.339713985177214e-05
"vdd" 1.200000000000000e+00
"vss" 0.000000000000000e+00
"time" 1.000000000000000e-12
"in0" 0.000000000000000e+00
"in1" 1.200000000000000e+00
"net13" 6.242827539538100e-02
"out" 1.142363967886333e+00
"V0:p" 4.357129458570146e-05
"V1:p" -4.007888260568466e-05
"VDD:p" -7.142626600480285e-05
"VSS:p" 6.793385402478956e-05
"vdd" 1.200000000000000e+00
"vss" 0.000000000000000e+00
"time" 1.513907516976887e-12
"in0" 0.000000000000000e+00
"in1" 1.200000000000000e+00
"net13" 1.129238080242850e-01
"out" 1.085434019386346e+00
"V0:p" 3.281436688210341e-05
"V1:p" -4.361551460172345e-05
"VDD:p" -7.524780081082596e-05
"VSS:p" 8.604894853044493e-05
"vdd" 1.200000000000000e+00
"vss" 0.000000000000000e+00
"time" 1.912224701393310e-12
"in0" 0.000000000000000e+00
"in1" 1.200000000000000e+00
"net13" 1.505571596758285e-01
"out" 1.040614746059493e+00
"V0:p" 2.204757716191679e-05
"V1:p" -4.249684935415154e-05
"VDD:p" -7.723185172401112e-05
"VSS:p" 9.768112391624669e-05
"vdd" 1.200000000000000e+00
"vss" 0.000000000000000e+00
"time" 2.486671235223636e-12
"in0" 0.000000000000000e+00
"in1" 1.200000000000000e+00
"net13" 1.985361631482024e-01
"out" 9.750968241753736e-01
"V0:p" 1.440040267673095e-05
"V1:p" -4.526480030395228e-05
"VDD:p" -8.117337458307207e-05
"VSS:p" 1.120377722102928e-04
"vdd" 1.200000000000000e+00
"vss" 0.000000000000000e+00
"time" 3.330891611157710e-12
"in0" 0.000000000000000e+00
"in1" 1.200000000000000e+00
"net13" 2.583847298823575e-01
"out" 8.752331899660916e-01
"V0:p" 1.252185799457824e-07
"V1:p" -4.195503240536605e-05
"VDD:p" -8.464561657391553e-05
"VSS:p" 1.264754303993364e-04
"vdd" 1.200000000000000e+00
"vss" 0.000000000000000e+00
"time" 4.634915614167960e-12
"in0" 0.000000000000000e+00
"in1" 1.200000000000000e+00
"net13" 3.308467219434246e-01
"out" 7.075720516885228e-01
"V0:p" -1.073544957035883e-05
"V1:p" -4.250674725480307e-05
"VDD:p" -8.858023798572289e-05
"VSS:p" 1.418224348108831e-04
"vdd" 1.200000000000000e+00
"vss" 0.000000000000000e+00
"time" 5.999999999999999e-12
"in0" 0.000000000000000e+00
"in1" 1.200000000000000e+00
"net13" 3.853036810006052e-01
"out" 5.232529695723297e-01
"V0:p" -1.767116596664162e-05
"V1:p" -4.475656934657321e-05
"VDD:p" -8.888661409062911e-05
"VSS:p" 1.513143494038459e-04
"vdd" 1.200000000000000e+00
"vss" 0.000000000000000e+00
"time" 6.463227959144915e-12
"in0" 0.000000000000000e+00
"in1" 1.200000000000000e+00
"net13" 3.922056655542687e-01
"out" 4.671863731308590e-01
"V0:p" -1.904908448483903e-05
"V1:p" -4.645322287795365e-05
"VDD:p" -8.458853232641281e-05
"VSS:p" 1.500908396892060e-04
"vdd" 1.200000000000000e+00
"vss" 0.000000000000000e+00
"time" 7.389683877434745e-12
"in0" 0.000000000000000e+00
"in1" 1.200000000000000e+00
"net13" 3.907377635588767e-01
"out" 3.680122580753135e-01
"V0:p" -2.285910620596534e-05
"V1:p" -4.767507145801065e-05
"VDD:p" -7.360842153137733e-05
"VSS:p" 1.441425991953520e-04
"vdd" 1.200000000000000e+00
"vss" 0.000000000000000e+00
"time" 8.877098343666821e-12
"in0" 0.000000000000000e+00
"in1" 1.200000000000000e+00
"net13" 3.371585298706891e-01
"out" 2.651391313426346e-01
"V0:p" -2.474763350710838e-05
"V1:p" -4.179944161981645e-05
"VDD:p" -5.850373910194507e-05
"VSS:p" 1.250508142288712e-04
"vdd" 1.200000000000000e+00
"vss" 0.000000000000000e+00
"time" 1.001512573158007e-11
"in0" 0.000000000000000e+00
"in1" 1.200000000000000e+00
"net13" 2.674504580948832e-01
"out" 2.354302564336575e-01
"V0:p" -2.782094862973574e-05
"V1:p" -2.612164960179757e-05
"VDD:p" -4.511309011721742e-05
"VSS:p" 9.905568834874833e-05
"vdd" 1.200000000000000e+00
"vss" 0.000000000000000e+00
"time" 1.100000000000000e-11
"in0" 0.000000000000000e+00
"in1" 1.200000000000000e+00
"net13" 2.001967344859114e-01
"out" 2.463617894115696e-01
"V0:p" -2.616785401190252e-05
"V1:p" -1.388440683045036e-05
"VDD:p" -3.398291382452283e-05
"VSS:p" 7.403517466687766e-05
"vdd" 1.200000000000000e+00
"vss" 0.000000000000000e+00
"time" 1.165985000723710e-11
"in0" 0.000000000000000e+00
"in1" 1.200000000000000e+00
"net13" 1.625137793021201e-01
"out" 2.665576132388036e-01
"V0:p" -2.186057893067004e-05
"V1:p" -7.122762494481883e-06
"VDD:p" -3.289295554443168e-05
"VSS:p" 6.187629696958362e-05
"vdd" 1.200000000000000e+00
"vss" 0.000000000000000e+00
"time" 1.258574339041545e-11
"in0" 0.000000000000000e+00
"in1" 1.200000000000000e+00
"net13" 1.180826550729129e-01
"out" 2.962370178679170e-01
"V0:p" -1.622985432514322e-05
"V1:p" 1.200917310591983e-06
"VDD:p" -3.157793033121969e-05
"VSS:p" 4.660686734577025e-05
"vdd" 1.200000000000000e+00
"vss" 0.000000000000000e+00
"time" 1.346386741772365e-11
"in0" 0.000000000000000e+00
"in1" 1.200000000000000e+00
"net13" 8.764655857710660e-02
"out" 3.259675036247042e-01
"V0:p" -9.275965220826692e-06
"V1:p" 4.089451032738634e-06
"VDD:p" -3.104171131786072e-05
"VSS:p" 3.622822550594948e-05
"vdd" 1.200000000000000e+00
"vss" 0.000000000000000e+00
"time" 1.509556023972245e-11
"in0" 0.000000000000000e+00
"in1" 1.200000000000000e+00
"net13" 5.093764343057116e-02
"out" 3.834952044745180e-01
"V0:p" -3.186179288367730e-06
"V1:p" 1.098000801288858e-05
"VDD:p" -2.964908497804563e-05
"VSS:p" 2.185525625352410e-05
"vdd" 1.200000000000000e+00
"vss" 0.000000000000000e+00
"time" 1.666943186338596e-11
"in0" 0.000000000000000e+00
"in1" 1.200000000000000e+00
"net13" 3.167302690570437e-02
"out" 4.403185647803549e-01
"V0:p" 2.496544270219730e-06
"V1:p" 1.193089319743327e-05
"VDD:p" -2.901375723751030e-05
"VSS:p" 1.458631976985814e-05
"vdd" 1.200000000000000e+00
"vss" 0.000000000000000e+00
"time" 1.859617156485504e-11
"in0" 0.000000000000000e+00
"in1" 1.200000000000000e+00
"net13" 1.934897047641842e-02
"out" 5.097516657276000e-01
"V0:p" 3.666438785640043e-06
"V1:p" 1.496348008285267e-05
"VDD:p" -2.769425286705804e-05
"VSS:p" 9.064333998564532e-06
"vdd" 1.200000000000000e+00
"vss" 0.000000000000000e+00
"time" 2.059617156485504e-11
"in0" 0.000000000000000e+00
"in1" 1.200000000000000e+00
"net13" 1.329141204805741e-02
"out" 5.800736511127632e-01
"V0:p" 6.218626493095114e-06
"V1:p" 1.358824658842167e-05
"VDD:p" -2.668006008462813e-05
"VSS:p" 6.873187003111874e-06
"vdd" 1.200000000000000e+00
"vss" 0.000000000000000e+00
"time" 2.259617156485504e-11
"in0" 0.000000000000000e+00
"in1" 1.200000000000000e+00
"net13" 1.030096070452485e-02
"out" 6.471249152650204e-01
"V0:p" 4.934741348280081e-06
"V1:p" 1.484623280535708e-05
"VDD:p" -2.491260167474422e-05
"VSS:p" 5.131627521106766e-06
"vdd" 1.200000000000000e+00
"vss" 0.000000000000000e+00
"time" 2.459617156485504e-11
"in0" 0.000000000000000e+00
"in1" 1.200000000000000e+00
"net13" 8.605778353466830e-03
"out" 7.096174402285588e-01
"V0:p" 6.170830680222149e-06
"V1:p" 1.254289389775684e-05
"VDD:p" -2.344241884414148e-05
"VSS:p" 4.728694266163250e-06
"vdd" 1.200000000000000e+00
"vss" 0.000000000000000e+00
"time" 2.659617156485504e-11
"in0" 0.000000000000000e+00
"in1" 1.200000000000000e+00
"net13" 7.432164723040386e-03
"out" 7.665009147426727e-01
"V0:p" 4.209551504592644e-06
"V1:p" 1.341164710601284e-05
"VDD:p" -2.135079669882165e-05
"VSS:p" 3.729598088215316e-06
"vdd" 1.200000000000000e+00
"vss" 0.000000000000000e+00
"time" 2.859617156485504e-11
"in0" 0.000000000000000e+00
"in1" 1.200000000000000e+00
"net13" 6.468923383951365e-03
"out" 8.171748557153856e-01
"V0:p" 5.130733108348259e-06
"V1:p" 1.101366075938805e-05
"VDD:p" -1.977037973174604e-05
"VSS:p" 3.625985864010762e-06
"vdd" 1.200000000000000e+00
"vss" 0.000000000000000e+00
"time" 3.059617156485504e-11
"in0" 0.000000000000000e+00
"in1" 1.200000000000000e+00
"net13" 5.621480880254882e-03
"out" 8.617269732069767e-01
"V0:p" 3.118634799761535e-06
"V1:p" 1.187610566976687e-05
"VDD:p" -1.776854076413617e-05
"VSS:p" 2.773800294606576e-06
"vdd" 1.200000000000000e+00
"vss" 0.000000000000000e+00
"time" 3.259617156485504e-11
"in0" 0.000000000000000e+00
"in1" 1.200000000000000e+00
"net13" 4.878314331283957e-03
"out" 9.007777811994586e-01
"V0:p" 4.144491791151523e-06
"V1:p" 9.457686008146696e-06
"VDD:p" -1.638804917554338e-05
"VSS:p" 2.785871376246247e-06
"vdd" 1.200000000000000e+00
"vss" 0.000000000000000e+00
"time" 3.459617156485504e-11
"in0" 0.000000000000000e+00
"in1" 1.200000000000000e+00
"net13" 4.239218328196737e-03
"out" 9.350918805206112e-01
"V0:p" 2.274018907582169e-06
"V1:p" 1.029375906414006e-05
"VDD:p" -1.461477123257176e-05
"VSS:p" 2.046993260847906e-06
"vdd" 1.200000000000000e+00
"vss" 0.000000000000000e+00
"time" 3.659617156485504e-11
"in0" 0.000000000000000e+00
"in1" 1.200000000000000e+00
"net13" 3.695574383751113e-03
"out" 9.653521995424930e-01
"V0:p" 3.422082925573235e-06
"V1:p" 7.871775822833395e-06
"VDD:p" -1.345912047247674e-05
"VSS:p" 2.165261724071841e-06
"vdd" 1.200000000000000e+00
"vss" 0.000000000000000e+00
"time" 3.859617156485504e-11
"in0" 0.000000000000000e+00
"in1" 1.200000000000000e+00
"net13" 3.233299502902766e-03
"out" 9.921144856100682e-01
"V0:p" 1.646877164998903e-06
"V1:p" 8.736378965852015e-06
"VDD:p" -1.190193742523551e-05
"VSS:p" 1.518681294383179e-06
"vdd" 1.200000000000000e+00
"vss" 0.000000000000000e+00
"time" 4.059617156485504e-11
"in0" 0.000000000000000e+00
"in1" 1.200000000000000e+00
"net13" 2.837972667462762e-03
"out" 1.015827308958984e+00
"V0:p" 2.870035004089115e-06
"V1:p" 6.370994450677345e-06
"VDD:p" -1.095471017869492e-05
"VSS:p" 1.713680723929983e-06
"vdd" 1.200000000000000e+00
"vss" 0.000000000000000e+00
"time" 4.259617156485504e-11
"in0" 0.000000000000000e+00
"in1" 1.200000000000000e+00
"net13" 2.497283139971555e-03
"out" 1.036859948758903e+00
"V0:p" 1.156541865760377e-06
"V1:p" 7.312384697696800e-06
"VDD:p" -9.598862437867485e-06
"VSS:p" 1.129935874409332e-06
"vdd" 1.200000000000000e+00
"vss" 0.000000000000000e+00
"time" 4.459617156485504e-11
"in0" 0.000000000000000e+00
"in1" 1.200000000000000e+00
"net13" 2.201504231202607e-03
"out" 1.055523799169168e+00
"V0:p" 2.432401675114360e-06
"V1:p" 5.036422810799773e-06
"VDD:p" -8.845379018444663e-06
"VSS:p" 1.376554532531829e-06
"vdd" 1.200000000000000e+00
"vss" 0.000000000000000e+00
"time" 4.659617156485504e-11
"in0" 0.000000000000000e+00
"in1" 1.200000000000000e+00
"net13" 1.943149527447568e-03
"out" 1.072086787019800e+00
"V0:p" 7.651187858951075e-07
"V1:p" 6.073816474996188e-06
"VDD:p" -7.674659483468796e-06
"VSS:p" 8.357242225759823e-07
"vdd" 1.200000000000000e+00
"vss" 0.000000000000000e+00
"time" 4.859617156485504e-11
"in0" 0.000000000000000e+00
"in1" 1.200000000000000e+00
"net13" 1.716446151504301e-03
"out" 1.086782842770515e+00
"V0:p" 2.082137506673347e-06
"V1:p" 3.895944810233529e-06
"VDD:p" -7.096622793296923e-06
"VSS:p" 1.118540476391241e-06
"vdd" 1.200000000000000e+00
"vss" 0.000000000000000e+00
"time" 5.059617156485504e-11
"in0" 0.000000000000000e+00
"in1" 1.200000000000000e+00
"net13" 1.516867025839056e-03
"out" 1.099818232169004e+00
"V0:p" 4.518233410414220e-07
"V1:p" 5.030331497142879e-06
"VDD:p" -6.090812680768004e-06
"VSS:p" 6.086578425820780e-07
"vdd" 1.200000000000000e+00
"vss" 0.000000000000000e+00
"time" 5.259617156485504e-11
"in0" 0.000000000000000e+00
"in1" 1.200000000000000e+00
"net13" 1.340778941030550e-03
"out" 1.111375958565608e+00
"V0:p" 1.802176433858510e-06
"V1:p" 2.946189605799635e-06
"VDD:p" -5.666595163149608e-06
"VSS:p" 9.182291234936326e-07
"vdd" 1.200000000000000e+00
"vss" 0.000000000000000e+00
"time" 5.459617156485504e-11
"in0" 0.000000000000000e+00
"in1" 1.200000000000000e+00
"net13" 1.185196096849754e-03
"out" 1.121618981009711e+00
"V0:p" 2.019555853243883e-07
"V1:p" 4.169640615429126e-06
"VDD:p" -4.803269249150695e-06
"VSS:p" 4.316730483952282e-07
"vdd" 1.200000000000000e+00
"vss" 0.000000000000000e+00
"time" 5.659617156485504e-11
"in0" 0.000000000000000e+00
"in1" 1.200000000000000e+00
"net13" 1.047612672612747e-03
"out" 1.130692693534129e+00
"V0:p" 1.579465203523512e-06
"V1:p" 2.169057384646537e-06
"VDD:p" -4.510228233339049e-06
"VSS:p" 7.617056451710601e-07
"vdd" 1.200000000000000e+00
"vss" 0.000000000000000e+00
"time" 5.859617156485504e-11
"in0" 0.000000000000000e+00
"in1" 1.200000000000000e+00
"net13" 9.258897807627945e-04
"out" 1.138726929214569e+00
"V0:p" 3.717219917503077e-09
"V1:p" 3.470128446445533e-06
"VDD:p" -3.767018609733892e-06
"VSS:p" 2.931729433684710e-07
"vdd" 1.200000000000000e+00
"vss" 0.000000000000000e+00
"time" 6.059617156485505e-11
"in0" 0.000000000000000e+00
"in1" 1.200000000000000e+00
"net13" 8.181783013260894e-04
"out" 1.145837644725836e+00
"V0:p" 1.403237713741236e-06
"V1:p" 1.541084120229434e-06
"VDD:p" -3.583447643839236e-06
"VSS:p" 6.391258098710595e-07
"vdd" 1.200000000000000e+00
"vss" 0.000000000000000e+00
"time" 6.259617156485506e-11
"in0" 0.000000000000000e+00
"in1" 1.200000000000000e+00
"net13" 7.228649314382386e-04
"out" 1.152128377658455e+00
"V0:p" -1.527608028544931e-07
"V1:p" 2.907673107505354e-06
"VDD:p" -2.939593241408920e-06
"VSS:p" 1.846809367560004e-07
"vdd" 1.200000000000000e+00
"vss" 0.000000000000000e+00
"time" 6.459617156485506e-11
"in0" 0.000000000000000e+00
"in1" 1.200000000000000e+00
"net13" 6.385331795652314e-04
"out" 1.157691531697300e+00
"V0:p" 1.264432936369242e-06
"V1:p" 1.038323038371249e-06
"VDD:p" -2.845869876377743e-06
"VSS:p" 5.431139016390951e-07
"vdd" 1.200000000000000e+00
"vss" 0.000000000000000e+00
"time" 6.659617156485507e-11
"in0" 0.000000000000000e+00
"in1" 1.200000000000000e+00
"net13" 5.639340420752775e-04
"out" 1.162609523150969e+00
"V0:p" -2.757953503611641e-07
"V1:p" 2.459068282472249e-06
"VDD:p" -2.283004859094314e-06
"VSS:p" 9.973192698149356e-08
"vdd" 1.200000000000000e+00
"vss" 0.000000000000000e+00
"time" 6.859617156485507e-11
"in0" 0.000000000000000e+00
"in1" 1.200000000000000e+00
"net13" 4.979630632474621e-04
"out" 1.166955809939511e+00
"V0:p" 1.155429125464034e-06
"V1:p" 6.386745059712847e-07
"VDD:p" -2.262078280783407e-06
"VSS:p" 4.679746493498230e-07
"vdd" 1.200000000000000e+00
"vss" 0.000000000000000e+00
"time" 7.059617156485508e-11
"in0" 0.000000000000000e+00
"in1" 1.200000000000000e+00
"net13" 4.396417305268819e-04
"out" 1.170795817270208e+00
"V0:p" -3.723524150942128e-07
"V1:p" 2.103540334895128e-06
"VDD:p" -1.764479980258415e-06
"VSS:p" 3.329206045598257e-08
"vdd" 1.200000000000000e+00
"vss" 0.000000000000000e+00
"time" 7.259617156485509e-11
"in0" 0.000000000000000e+00
"in1" 1.200000000000000e+00
"net13" 3.881019428474293e-04
"out" 1.174187770615528e+00
"V0:p" 1.069883444348099e-06
"V1:p" 3.228033917713563e-07
"VDD:p" -1.801935736217471e-06
"VSS:p" 4.092489000992079e-07
"vdd" 1.200000000000000e+00
"vss" 0.000000000000000e+00
"time" 7.459617156485509e-11
"in0" 0.000000000000000e+00
"in1" 1.200000000000000e+00
"net13" 3.425727777073085e-04
"out" 1.177183444861570e+00
"V0:p" -4.481797414843388e-07
"V1:p" 1.823229353577960e-06
"VDD:p" -1.356454878584096e-06
"VSS:p" -1.859473351039302e-08
"vdd" 1.200000000000000e+00
"vss" 0.000000000000000e+00
"time" 7.659617156485510e-11
"in0" 0.000000000000000e+00
"in1" 1.200000000000000e+00
"net13" 3.023690787192642e-04
"out" 1.179828837719527e+00
"V0:p" 1.002617451643092e-06
"V1:p" 7.430991345007533e-08
"VDD:p" -1.440350457624462e-06
"VSS:p" 3.634230925318362e-07
"vdd" 1.200000000000000e+00
"vss" 0.000000000000000e+00
"time" 7.859617156485510e-11
"in0" 0.000000000000000e+00
"in1" 1.200000000000000e+00
"net13" 2.668815570675583e-04
"out" 1.182164775097411e+00
"V0:p" -5.079123426468383e-07
"V1:p" 1.603147127660377e-06
"VDD:p" -1.036183254799704e-06
"VSS:p" -5.905153021481002e-08
"vdd" 1.200000000000000e+00
"vss" 0.000000000000000e+00
"time" 8.059617156485511e-11
"in0" 0.000000000000000e+00
"in1" 1.200000000000000e+00
"net13" 2.355681920396663e-04
"out" 1.184227455750622e+00
"V0:p" 9.495114364289252e-07
"V1:p" -1.204509680462937e-07
"VDD:p" -1.156780055145229e-06
"VSS:p" 3.277195867630314e-07
"vdd" 1.200000000000000e+00
"vss" 0.000000000000000e+00
"time" 8.259617156485512e-11
"in0" 0.000000000000000e+00
"in1" 1.200000000000000e+00
"net13" 2.079467588590643e-04
"out" 1.186048941988057e+00
"V0:p" -5.551865532508031e-07
"V1:p" 1.430913174541708e-06
"VDD:p" -7.851769419634843e-07
"VSS:p" -9.054967932796240e-08
"vdd" 1.200000000000000e+00
"vss" 0.000000000000000e+00
"time" 8.459617156485512e-11
"in0" 0.000000000000000e+00
