HEADER
"PSFversion" "1.00"
"simulator" "spectre"
"version" "19.1.0.237.isr3"
"date" "2:47:04 PM, Tue Aug 30, 2022"
"design" "// Generated for: spectre"
"analysis type" "tran"
"analysis name" "sim"
"analysis description" "Transient Analysis `sim': time = (0 s -> 100 ps)"
"xVecSorted" "ascending"
"tolerance.relative" 0.00100000
"start" 0.00000
"outputstart" 0.00000
"stop" 1.00000e-10
"step" 1.00000e-13
"istep" 0.00100000
"maxstep" 2.00000e-12
"ic" "all"
"useprevic" "no"
"skipdc" "no"
"reltol" 0.00100000
"abstol(V)" 1.00000e-06
"abstol(I)" 1.00000e-12
"temp" 27.0000
"tnom" 27.0000
"tempeffects" "all"
"errpreset" "moderate"
"method" "traponly"
"lteratio" 3.50000
"relref" "sigglobal"
"cmin" 0.00000
"gmin" 1.00000e-12
TYPE
"sweep" FLOAT DOUBLE PROP(
"key" "sweep"
)
"LogicV" FLOAT DOUBLE PROP(
"key" "node"
)
"Tau" FLOAT DOUBLE PROP(
"units" "N*m"
"key" "node"
"tolerance" 1.00000e-06
)
"Alpha" FLOAT DOUBLE PROP(
"units" "rads/s^2"
"key" "node"
"tolerance" 1.00000e-06
)
"Omega" FLOAT DOUBLE PROP(
"units" "rads/s"
"key" "node"
"tolerance" 1.00000e-06
)
"Theta" FLOAT DOUBLE PROP(
"units" "rads"
"key" "node"
"tolerance" 1.00000e-06
)
"F" FLOAT DOUBLE PROP(
"units" "N"
"key" "node"
"tolerance" 1.00000e-06
)
"Imp" FLOAT DOUBLE PROP(
"units" "m/s^3"
"key" "node"
"tolerance" 1.00000e-06
)
"Acc" FLOAT DOUBLE PROP(
"units" "m/s^2"
"key" "node"
"tolerance" 1.00000e-06
)
"Vel" FLOAT DOUBLE PROP(
"units" "m/s"
"key" "node"
"tolerance" 1.00000e-06
)
"Pos" FLOAT DOUBLE PROP(
"units" "m"
"key" "node"
"tolerance" 1.00000e-06
)
"Phi" FLOAT DOUBLE PROP(
"units" "Wb"
"key" "node"
"tolerance" 1.00000e-09
)
"V" FLOAT DOUBLE PROP(
"units" "V"
"key" "node"
"tolerance" 1.00000e-06
)
"I" FLOAT DOUBLE PROP(
"units" "A"
"key" "branch"
"tolerance" 1.00000e-12
)
"MMF" FLOAT DOUBLE PROP(
"units" "A*turn"
"key" "node"
"tolerance" 1.00000e-12
)
"Wb" FLOAT DOUBLE PROP(
"units" "Wb"
"key" "node"
"tolerance" 1.00000e-09
)
"Temp" FLOAT DOUBLE PROP(
"units" "C"
"key" "node"
"tolerance" 0.000100000
)
"Pwr" FLOAT DOUBLE PROP(
"units" "W"
"key" "node"
"tolerance" 1.00000e-09
)
"U" FLOAT DOUBLE PROP(
"units" ""
"key" "node"
"tolerance" 1.00000e-06
)
"V/Sec" FLOAT DOUBLE PROP(
"units" "V/s"
"key" "node"
"tolerance" 0.000100000
)
"I/Sec" FLOAT DOUBLE PROP(
"units" "A/s"
"key" "node"
"tolerance" 1.00000e-06
)
"1/Sec" FLOAT DOUBLE PROP(
"units" "1/s"
"key" "node"
"tolerance" 0.000100000
)
"HOD" FLOAT DOUBLE PROP(
"units" ""
"key" "node"
"tolerance" 0.0100000
)
"Q" FLOAT DOUBLE PROP(
"units" "coul"
"key" "node"
"tolerance" 1.00000e-14
)
SWEEP
"time" "sweep" PROP(
"sweep_direction" 0
"units" "s"
"plot" 0
"grid" 1
)
TRACE
"GND:p" "I"
"in" "V"
"out" "V"
"V0:p" "I"
"VDD:p" "I"
"vdd" "V"
"vss" "V"
VALUE
"time" 0.000000000000000e+00
"GND:p" 4.203984796060728e-10
"in" 0.000000000000000e+00
"out" 1.199998775758592e+00
"V0:p" 7.482181702941023e-12
"VDD:p" -4.278806268468402e-10
"vdd" 1.200000000000000e+00
"vss" 0.000000000000000e+00
"time" 1.000000000000000e-13
"GND:p" 9.514201823244587e-05
"in" 0.000000000000000e+00
"out" 1.192448876899314e+00
"V0:p" -4.846661571606493e-05
"VDD:p" -4.667540251638093e-05
"vdd" 1.200000000000000e+00
"vss" 0.000000000000000e+00
"time" 2.044631204624835e-13
"GND:p" 1.945730366217679e-04
"in" 0.000000000000000e+00
"out" 1.176436816404539e+00
"V0:p" -9.786912519437946e-05
"VDD:p" -9.670391142738823e-05
"vdd" 1.200000000000000e+00
"vss" 0.000000000000000e+00
"time" 4.133893613874505e-13
"GND:p" 3.930173436525147e-04
"in" 0.000000000000000e+00
"out" 1.127778976228935e+00
"V0:p" -1.949816890294475e-04
"VDD:p" -1.980356546230678e-04
"vdd" 1.200000000000000e+00
"vss" 0.000000000000000e+00
"time" 6.246827987748911e-13
"GND:p" 5.920804790288537e-04
"in" 0.000000000000000e+00
"out" 1.042828052935003e+00
"V0:p" -2.906141103566633e-04
"VDD:p" -3.014663686721919e-04
"vdd" 1.200000000000000e+00
"vss" 0.000000000000000e+00
"time" 8.414715095748934e-13
"GND:p" 7.898739251321710e-04
"in" 0.000000000000000e+00
"out" 9.076062634073156e-01
"V0:p" -3.936250445632403e-04
"VDD:p" -3.962488805689303e-04
"vdd" 1.200000000000000e+00
"vss" 0.000000000000000e+00
"time" 1.000000000000000e-12
"GND:p" 9.297984366960888e-04
"in" 0.000000000000000e+00
"out" 7.690590277768389e-01
"V0:p" -4.799628196049821e-04
"VDD:p" -4.498356170911094e-04
"vdd" 1.200000000000000e+00
"vss" 0.000000000000000e+00
"time" 1.135648287398166e-12
"GND:p" 9.304983322686398e-04
"in" 0.000000000000000e+00
"out" 6.382508208353783e-01
"V0:p" -4.710960935875755e-04
"VDD:p" -4.594022386810628e-04
"vdd" 1.200000000000000e+00
"vss" 0.000000000000000e+00
"time" 1.295682087692174e-12
"GND:p" 9.233308511102520e-04
"in" 0.000000000000000e+00
"out" 4.822324040507118e-01
"V0:p" -4.775749545362213e-04
"VDD:p" -4.457558965740319e-04
"vdd" 1.200000000000000e+00
"vss" 0.000000000000000e+00
"time" 1.464682598687676e-12
"GND:p" 9.232345320608812e-04
"in" 0.000000000000000e+00
"out" 3.175641210236222e-01
"V0:p" -4.695507152460740e-04
"VDD:p" -4.536838168148067e-04
"vdd" 1.200000000000000e+00
"vss" 0.000000000000000e+00
"time" 1.794147387202630e-12
"GND:p" 9.090659209025281e-04
"in" 0.000000000000000e+00
"out" -3.200705876366352e-03
"V0:p" -4.743132418054757e-04
"VDD:p" -4.347526790970531e-04
"vdd" 1.200000000000000e+00
"vss" 0.000000000000000e+00
"time" 2.215682908752248e-12
"GND:p" 9.104463902314856e-04
"in" 0.000000000000000e+00
"out" -4.091409541128272e-01
"V0:p" -4.699745938378493e-04
"VDD:p" -4.404717963936340e-04
"vdd" 1.200000000000000e+00
"vss" 0.000000000000000e+00
"time" 2.364597441140140e-12
"GND:p" 9.298067760266407e-04
"in" 0.000000000000000e+00
"out" -5.451811795793293e-01
"V0:p" -5.193543608391947e-04
"VDD:p" -4.104524151874508e-04
"vdd" 1.200000000000000e+00
"vss" 0.000000000000000e+00
"time" 2.662426505915925e-12
"GND:p" 8.417875331987591e-04
"in" 0.000000000000000e+00
"out" -7.986788724659628e-01
"V0:p" -4.270684455191060e-04
"VDD:p" -4.147190876796489e-04
"vdd" 1.200000000000000e+00
"vss" 0.000000000000000e+00
"time" 2.752821463684569e-12
"GND:p" 7.691028359630672e-04
"in" 0.000000000000000e+00
"out" -8.658547692041204e-01
"V0:p" -4.031673082691867e-04
"VDD:p" -3.659355276938831e-04
"vdd" 1.200000000000000e+00
"vss" 0.000000000000000e+00
"time" 2.798018942568891e-12
"GND:p" 5.920522838429513e-04
"in" 0.000000000000000e+00
"out" -8.921946671619759e-01
"V0:p" -2.482097135699161e-04
"VDD:p" -3.438425702730287e-04
"vdd" 1.200000000000000e+00
"vss" 0.000000000000000e+00
"time" 2.820617682011052e-12
"GND:p" 5.227436898308041e-04
"in" 0.000000000000000e+00
"out" -9.018051229211047e-01
"V0:p" -2.271865943127279e-04
"VDD:p" -2.955570955180727e-04
"vdd" 1.200000000000000e+00
"vss" 0.000000000000000e+00
"time" 2.865815160895375e-12
"GND:p" 3.236486470500317e-04
"in" 0.000000000000000e+00
"out" -9.132799093798211e-01
"V0:p" -5.664557525295407e-05
"VDD:p" -2.670030717970707e-04
"vdd" 1.200000000000000e+00
"vss" 0.000000000000000e+00
"time" 2.956210118664019e-12
"GND:p" 2.306596670526467e-04
"in" 0.000000000000000e+00
"out" -9.193690662866562e-01
"V0:p" -1.866776067493005e-05
"VDD:p" -2.119919063777212e-04
"vdd" 1.200000000000000e+00
"vss" 0.000000000000000e+00
"time" 2.974566438114921e-12
"GND:p" 2.054659616275419e-04
"in" 0.000000000000000e+00
"out" -9.192201536254300e-01
"V0:p" 2.773830835983956e-05
"VDD:p" -2.332042699874013e-04
"vdd" 1.200000000000000e+00
"vss" 0.000000000000000e+00
"time" 3.011279077016724e-12
"GND:p" 2.373203379632220e-04
"in" 0.000000000000000e+00
"out" -9.190784799834347e-01
"V0:p" -2.342343208344854e-05
"VDD:p" -2.138969058797505e-04
"vdd" 1.200000000000000e+00
"vss" 0.000000000000000e+00
"time" 3.084704354820330e-12
"GND:p" 2.096608266674810e-04
"in" 0.000000000000000e+00
"out" -9.189919976370499e-01
"V0:p" 2.474034302076249e-05
"VDD:p" -2.344011696882757e-04
"vdd" 1.200000000000000e+00
"vss" 0.000000000000000e+00
"time" 3.231554910427542e-12
"GND:p" 2.392100182336803e-04
"in" 0.000000000000000e+00
"out" -9.189962020459742e-01
"V0:p" -2.477233189784715e-05
"VDD:p" -2.144376863358032e-04
"vdd" 1.200000000000000e+00
"vss" 0.000000000000000e+00
"time" 3.525256021641966e-12
"GND:p" 2.096177893533616e-04
"in" 0.000000000000000e+00
"out" -9.189965200192901e-01
"V0:p" 2.477114017946161e-05
"VDD:p" -2.343889295328512e-04
"vdd" 1.200000000000000e+00
"vss" 0.000000000000000e+00
"time" 4.112658244070814e-12
"GND:p" 2.391852135623597e-04
"in" 0.000000000000000e+00
"out" -9.189880574071068e-01
"V0:p" -2.475502061944019e-05
"VDD:p" -2.144301929428922e-04
"vdd" 1.200000000000000e+00
"vss" 0.000000000000000e+00
"time" 5.221025955166510e-12
"GND:p" 2.096502921520825e-04
"in" 0.000000000000000e+00
"out" -9.189950898543503e-01
"V0:p" 2.474793841508445e-05
"VDD:p" -2.343982305671941e-04
"vdd" 1.200000000000000e+00
"vss" 0.000000000000000e+00
"time" 5.999999999999999e-12
"GND:p" 2.391630755501867e-04
"in" 0.000000000000000e+00
"out" -9.189890223997794e-01
"V0:p" -2.473921799557840e-05
"VDD:p" -2.144238575545817e-04
"vdd" 1.200000000000000e+00
"vss" 0.000000000000000e+00
"time" 6.957572815289214e-12
"GND:p" 2.168192796304773e-04
"in" 0.000000000000000e+00
"out" -9.102844573390041e-01
"V0:p" 5.081596642022097e-06
"VDD:p" -2.219008762724988e-04
"vdd" 1.200000000000000e+00
"vss" 0.000000000000000e+00
"time" 8.120011542848507e-12
"GND:p" 2.076804491077395e-04
"in" 0.000000000000000e+00
"out" -8.936088494503357e-01
"V0:p" 1.095547930532033e-05
"VDD:p" -2.186359284130604e-04
"vdd" 1.200000000000000e+00
"vss" 0.000000000000000e+00
"time" 9.568376578206294e-12
"GND:p" 1.730060083472648e-04
"in" 0.000000000000000e+00
"out" -8.361167412699515e-01
"V0:p" 3.340605519979151e-05
"VDD:p" -2.064120635470560e-04
"vdd" 1.200000000000000e+00
"vss" 0.000000000000000e+00
"time" 1.028418828910315e-11
"GND:p" 8.792932175277926e-05
"in" 0.000000000000000e+00
"out" -7.567233921533545e-01
"V0:p" 9.045336763172110e-05
"VDD:p" -1.783826893844999e-04
"vdd" 1.200000000000000e+00
"vss" 0.000000000000000e+00
"time" 1.100000000000000e-11
"GND:p" -1.008438981503546e-05
"in" 0.000000000000000e+00
"out" -6.005436924738675e-01
"V0:p" 1.524892716256768e-04
"VDD:p" -1.424048818106416e-04
"vdd" 1.200000000000000e+00
"vss" 0.000000000000000e+00
"time" 1.158248329145703e-11
"GND:p" 8.615143597777479e-06
"in" 0.000000000000000e+00
"out" -4.593045535822086e-01
"V0:p" 1.330097849804167e-04
"VDD:p" -1.416249285781946e-04
"vdd" 1.200000000000000e+00
"vss" 0.000000000000000e+00
"time" 1.205170417755172e-11
"GND:p" 1.884751357265549e-05
"in" 0.000000000000000e+00
"out" -3.477869759638268e-01
"V0:p" 1.163558356656361e-04
"VDD:p" -1.352033492382905e-04
"vdd" 1.200000000000000e+00
"vss" 0.000000000000000e+00
"time" 1.265435465191464e-11
"GND:p" 2.168559904829095e-05
"in" 0.000000000000000e+00
"out" -2.099064948637115e-01
"V0:p" 1.083478961156561e-04
"VDD:p" -1.300334951639485e-04
"vdd" 1.200000000000000e+00
"vss" 0.000000000000000e+00
"time" 1.374230177526029e-11
"GND:p" 1.841728234315912e-05
"in" 0.000000000000000e+00
"out" 2.455006987572749e-02
"V0:p" 9.937540101456860e-05
"VDD:p" -1.177926833577264e-04
"vdd" 1.200000000000000e+00
"vss" 0.000000000000000e+00
"time" 1.574230177526029e-11
"GND:p" 1.387676495825330e-05
"in" 0.000000000000000e+00
"out" 4.080744329996236e-01
"V0:p" 8.670548174513484e-05
"VDD:p" -1.005822467033894e-04
"vdd" 1.200000000000000e+00
"vss" 0.000000000000000e+00
"time" 1.774230177526029e-11
"GND:p" 9.506293951949369e-06
"in" 0.000000000000000e+00
"out" 7.199917142668444e-01
"V0:p" 6.512432261930879e-05
"VDD:p" -7.463061657125680e-05
"vdd" 1.200000000000000e+00
"vss" 0.000000000000000e+00
"time" 1.974230177526029e-11
"GND:p" 5.426924534214100e-06
"in" 0.000000000000000e+00
"out" 9.335463286834356e-01
"V0:p" 4.147919609163033e-05
"VDD:p" -4.690612062584606e-05
"vdd" 1.200000000000000e+00
"vss" 0.000000000000000e+00
"time" 2.147180211348673e-11
"GND:p" 2.669668167740997e-06
"in" 0.000000000000000e+00
"out" 1.037505515681789e+00
"V0:p" 2.504968952101877e-05
"VDD:p" -2.771935768875795e-05
"vdd" 1.200000000000000e+00
"vss" 0.000000000000000e+00
"time" 2.347180211348673e-11
"GND:p" 1.895313464907930e-06
"in" 0.000000000000000e+00
"out" 1.106584435396430e+00
"V0:p" 1.625664350321885e-05
"VDD:p" -1.815195696812873e-05
"vdd" 1.200000000000000e+00
"vss" 0.000000000000000e+00
"time" 2.490120173736868e-11
"GND:p" 8.656052169172271e-07
"in" 0.000000000000000e+00
"out" 1.136730370654240e+00
"V0:p" 9.771335264179054e-06
"VDD:p" -1.063694048109441e-05
"vdd" 1.200000000000000e+00
"vss" 0.000000000000000e+00
"time" 2.661909570162474e-11
"GND:p" 9.296834790869328e-07
"in" 0.000000000000000e+00
"out" 1.160426231218592e+00
"V0:p" 7.525174717210155e-06
"VDD:p" -8.454858196298648e-06
"vdd" 1.200000000000000e+00
"vss" 0.000000000000000e+00
"time" 2.861909570162474e-11
"GND:p" 1.552450869003491e-07
"in" 0.000000000000000e+00
"out" 1.177163049996175e+00
"V0:p" 3.073644318961973e-06
"VDD:p" -3.228889405860479e-06
"vdd" 1.200000000000000e+00
"vss" 0.000000000000000e+00
"time" 3.061909570162474e-11
"GND:p" 4.698514996418882e-07
"in" 0.000000000000000e+00
"out" 1.186826860223399e+00
"V0:p" 3.082256433533037e-06
"VDD:p" -3.552107933176795e-06
"vdd" 1.200000000000000e+00
"vss" 0.000000000000000e+00
"time" 3.261909570162474e-11
"GND:p" -1.093939639429588e-07
"in" 0.000000000000000e+00
"out" 1.192402845599268e+00
"V0:p" 4.814321363735812e-07
"VDD:p" -3.720381724286706e-07
"vdd" 1.200000000000000e+00
"vss" 0.000000000000000e+00
"time" 3.461909570162474e-11
"GND:p" 3.174446861550462e-07
"in" 0.000000000000000e+00
"out" 1.195618778339961e+00
"V0:p" 1.577845274691558e-06
"VDD:p" -1.895289960848283e-06
"vdd" 1.200000000000000e+00
"vss" 0.000000000000000e+00
"time" 3.661909570162474e-11
"GND:p" -1.971773741172650e-07
"in" 0.000000000000000e+00
"out" 1.197473317810045e+00
"V0:p" -3.890281532883342e-07
"VDD:p" 5.862055274072668e-07
"vdd" 1.200000000000000e+00
"vss" 0.000000000000000e+00
"time" 3.861909570162474e-11
"GND:p" 2.668599185668993e-07
"in" 0.000000000000000e+00
"out" 1.198542680272187e+00
"V0:p" 1.074951115470196e-06
"VDD:p" -1.341811034038438e-06
"vdd" 1.200000000000000e+00
"vss" 0.000000000000000e+00
"time" 4.061909570162474e-11
"GND:p" -2.263332574950864e-07
"in" 0.000000000000000e+00
"out" 1.199159258620053e+00
"V0:p" -6.793123469509377e-07
"VDD:p" 9.056456044473800e-07
"vdd" 1.200000000000000e+00
"vss" 0.000000000000000e+00
"time" 4.261909570162474e-11
"GND:p" 2.500530968574138e-07
"in" 0.000000000000000e+00
"out" 1.199514755693758e+00
"V0:p" 9.074761120888071e-07
"VDD:p" -1.157529208947467e-06
"vdd" 1.200000000000000e+00
"vss" 0.000000000000000e+00
"time" 4.461909570162474e-11
"GND:p" -2.360221428010566e-07
"in" 0.000000000000000e+00
"out" 1.199719718252513e+00
"V0:p" -7.759061554431109e-07
"VDD:p" 1.011928298245711e-06
"vdd" 1.200000000000000e+00
"vss" 0.000000000000000e+00
"time" 4.661909570162474e-11
"GND:p" 2.444673902539773e-07
"in" 0.000000000000000e+00
"out" 1.199837888354627e+00
"V0:p" 8.517735624330808e-07
"VDD:p" -1.096240952688386e-06
"vdd" 1.200000000000000e+00
"vss" 0.000000000000000e+00
"time" 4.861909570162474e-11
"GND:p" -2.392424071322576e-07
"in" 0.000000000000000e+00
"out" 1.199906018219653e+00
"V0:p" -8.080248912763491e-07
"VDD:p" 1.047267298410138e-06
"vdd" 1.200000000000000e+00
"vss" 0.000000000000000e+00
"time" 5.061909570162474e-11
"GND:p" 2.426108254637245e-07
"in" 0.000000000000000e+00
"out" 1.199945297689293e+00
"V0:p" 8.332545702995484e-07
"VDD:p" -1.075865395764899e-06
"vdd" 1.200000000000000e+00
"vss" 0.000000000000000e+00
"time" 5.261909570162474e-11
"GND:p" -2.403127715641833e-07
"in" 0.000000000000000e+00
"out" 1.199967943748735e+00
"V0:p" -8.187022084101451e-07
"VDD:p" 1.059014979975942e-06
"vdd" 1.200000000000000e+00
"vss" 0.000000000000000e+00
"time" 5.461909570162474e-11
"GND:p" 2.419937263323485e-07
"in" 0.000000000000000e+00
"out" 1.199981000016824e+00
"V0:p" 8.270985675969470e-07
"VDD:p" -1.069092293931355e-06
"vdd" 1.200000000000000e+00
"vss" 0.000000000000000e+00
"time" 5.661909570162474e-11
"GND:p" -2.406685496409096e-07
"in" 0.000000000000000e+00
"out" 1.199988527419033e+00
"V0:p" -8.222514108439136e-07
"VDD:p" 1.062919960486910e-06
"vdd" 1.200000000000000e+00
"vss" 0.000000000000000e+00
"time" 5.861909570162474e-11
"GND:p" 2.417886082270986e-07
"in" 0.000000000000000e+00
"out" 1.199992867231686e+00
"V0:p" 8.250523112707849e-07
"VDD:p" -1.066840919499808e-06
"vdd" 1.200000000000000e+00
"vss" 0.000000000000000e+00
"time" 6.061909570162475e-11
"GND:p" -2.407868072611784e-07
"in" 0.000000000000000e+00
"out" 1.199995369285947e+00
"V0:p" -8.234311547431754e-07
"VDD:p" 1.064217962006440e-06
"vdd" 1.200000000000000e+00
"vss" 0.000000000000000e+00
"time" 6.261909570162475e-11
"GND:p" 2.417204286250925e-07
"in" 0.000000000000000e+00
"out" 1.199996811807791e+00
"V0:p" 8.243721458536705e-07
"VDD:p" -1.066092574480945e-06
"vdd" 1.200000000000000e+00
"vss" 0.000000000000000e+00
"time" 6.461909570162476e-11
"GND:p" -2.408261151660871e-07
"in" 0.000000000000000e+00
"out" 1.199997643472041e+00
"V0:p" -8.238232944626804e-07
"VDD:p" 1.064649409631004e-06
"vdd" 1.200000000000000e+00
"vss" 0.000000000000000e+00
"time" 6.661909570162477e-11
"GND:p" 2.416977662514611e-07
"in" 0.000000000000000e+00
"out" 1.199998122955519e+00
"V0:p" 8.241460634179686e-07
"VDD:p" -1.065843829671706e-06
"vdd" 1.200000000000000e+00
"vss" 0.000000000000000e+00
"time" 6.861909570162477e-11
"GND:p" -2.408391808131695e-07
"in" 0.000000000000000e+00
"out" 1.199998399394476e+00
"V0:p" -8.239536389416099e-07
"VDD:p" 1.064792819757136e-06
"vdd" 1.200000000000000e+00
"vss" 0.000000000000000e+00
"time" 7.061909570162478e-11
"GND:p" 2.416902334506232e-07
"in" 0.000000000000000e+00
"out" 1.199998558771179e+00
"V0:p" 8.240709152568347e-07
"VDD:p" -1.065761148709870e-06
"vdd" 1.200000000000000e+00
"vss" 0.000000000000000e+00
"time" 7.261909570162478e-11
"GND:p" -2.408435237353149e-07
"in" 0.000000000000000e+00
"out" 1.199998650657407e+00
"V0:p" -8.239969644848989e-07
"VDD:p" 1.064840488222816e-06
"vdd" 1.200000000000000e+00
"vss" 0.000000000000000e+00
"time" 7.461909570162479e-11
"GND:p" 2.416877296045537e-07
"in" 0.000000000000000e+00
"out" 1.199998703633023e+00
"V0:p" 8.240459365677101e-07
"VDD:p" -1.065733666174866e-06
"vdd" 1.200000000000000e+00
"vss" 0.000000000000000e+00
"time" 7.661909570162480e-11
"GND:p" -2.408449672898132e-07
"in" 0.000000000000000e+00
"out" 1.199998734175313e+00
"V0:p" -8.240113655713437e-07
"VDD:p" 1.064856332863269e-06
"vdd" 1.200000000000000e+00
"vss" 0.000000000000000e+00
"time" 7.861909570162480e-11
"GND:p" 2.416868973450340e-07
"in" 0.000000000000000e+00
"out" 1.199998751784008e+00
"V0:p" 8.240376338395110e-07
"VDD:p" -1.065724531186279e-06
"vdd" 1.200000000000000e+00
"vss" 0.000000000000000e+00
"time" 8.061909570162481e-11
"GND:p" -2.408454471164330e-07
"in" 0.000000000000000e+00
"out" 1.199998761936035e+00
"V0:p" -8.240161523842533e-07
"VDD:p" 1.064861599502545e-06
"vdd" 1.200000000000000e+00
"vss" 0.000000000000000e+00
"time" 8.261909570162481e-11
"GND:p" 2.416866207082258e-07
"in" 0.000000000000000e+00
"out" 1.199998767789033e+00
"V0:p" 8.240348740748694e-07
"VDD:p" -1.065721494784762e-06
"vdd" 1.200000000000000e+00
"vss" 0.000000000000000e+00
"time" 8.461909570162482e-11
"GND:p" -2.408456066071434e-07
"in" 0.000000000000000e+00
"out" 1.199998771163490e+00
"V0:p" -8.240177434849447e-07
"VDD:p" 1.064863350093687e-06
"vdd" 1.200000000000000e+00
"vss" 0.000000000000000e+00
"time" 8.661909570162483e-11
"GND:p" 2.416865287561753e-07
"in" 0.000000000000000e+00
"out" 1.199998773108983e+00
"V0:p" 8.240339567503357e-07
"VDD:p" -1.065720485507866e-06
"vdd" 1.200000000000000e+00
"vss" 0.000000000000000e+00
"time" 8.861909570162483e-11
"GND:p" -2.408456596206666e-07
"in" 0.000000000000000e+00
"out" 1.199998774230626e+00
"V0:p" -8.240182723548224e-07
"VDD:p" 1.064863931977156e-06
"vdd" 1.200000000000000e+00
"vss" 0.000000000000000e+00
"time" 9.061909570162484e-11
"GND:p" 2.416864981920237e-07
"in" 0.000000000000000e+00
"out" 1.199998774877294e+00
"V0:p" 8.240336518381275e-07
"VDD:p" -1.065720150031955e-06
"vdd" 1.200000000000000e+00
