HEADER
"PSFversion" "1.00"
"simulator" "spectre"
"version" "19.1.0.237.isr3"
"date" "1:47:01 AM, Sat Sep 10, 2022"
"design" "// Generated for: spectre"
"analysis type" "tran"
"analysis name" "sim"
"analysis description" "Transient Analysis `sim': time = (0 s -> 100 ps)"
"xVecSorted" "ascending"
"tolerance.relative" 0.00100000
"start" 0.00000
"outputstart" 0.00000
"stop" 1.00000e-10
"step" 1.00000e-13
"istep" 0.00100000
"maxstep" 2.00000e-12
"ic" "all"
"useprevic" "no"
"skipdc" "no"
"reltol" 0.00100000
"abstol(V)" 1.00000e-06
"abstol(I)" 1.00000e-12
"temp" 27.0000
"tnom" 27.0000
"tempeffects" "all"
"errpreset" "moderate"
"method" "traponly"
"lteratio" 3.50000
"relref" "sigglobal"
"cmin" 0.00000
"gmin" 1.00000e-12
TYPE
"sweep" FLOAT DOUBLE PROP(
"key" "sweep"
)
"LogicV" FLOAT DOUBLE PROP(
"key" "node"
)
"Tau" FLOAT DOUBLE PROP(
"units" "N*m"
"key" "node"
"tolerance" 1.00000e-06
)
"Alpha" FLOAT DOUBLE PROP(
"units" "rads/s^2"
"key" "node"
"tolerance" 1.00000e-06
)
"Omega" FLOAT DOUBLE PROP(
"units" "rads/s"
"key" "node"
"tolerance" 1.00000e-06
)
"Theta" FLOAT DOUBLE PROP(
"units" "rads"
"key" "node"
"tolerance" 1.00000e-06
)
"F" FLOAT DOUBLE PROP(
"units" "N"
"key" "node"
"tolerance" 1.00000e-06
)
"Imp" FLOAT DOUBLE PROP(
"units" "m/s^3"
"key" "node"
"tolerance" 1.00000e-06
)
"Acc" FLOAT DOUBLE PROP(
"units" "m/s^2"
"key" "node"
"tolerance" 1.00000e-06
)
"Vel" FLOAT DOUBLE PROP(
"units" "m/s"
"key" "node"
"tolerance" 1.00000e-06
)
"Pos" FLOAT DOUBLE PROP(
"units" "m"
"key" "node"
"tolerance" 1.00000e-06
)
"Phi" FLOAT DOUBLE PROP(
"units" "Wb"
"key" "node"
"tolerance" 1.00000e-09
)
"V" FLOAT DOUBLE PROP(
"units" "V"
"key" "node"
"tolerance" 1.00000e-06
)
"I" FLOAT DOUBLE PROP(
"units" "A"
"key" "branch"
"tolerance" 1.00000e-12
)
"MMF" FLOAT DOUBLE PROP(
"units" "A*turn"
"key" "node"
"tolerance" 1.00000e-12
)
"Wb" FLOAT DOUBLE PROP(
"units" "Wb"
"key" "node"
"tolerance" 1.00000e-09
)
"Temp" FLOAT DOUBLE PROP(
"units" "C"
"key" "node"
"tolerance" 0.000100000
)
"Pwr" FLOAT DOUBLE PROP(
"units" "W"
"key" "node"
"tolerance" 1.00000e-09
)
"U" FLOAT DOUBLE PROP(
"units" ""
"key" "node"
"tolerance" 1.00000e-06
)
"V/Sec" FLOAT DOUBLE PROP(
"units" "V/s"
"key" "node"
"tolerance" 0.000100000
)
"I/Sec" FLOAT DOUBLE PROP(
"units" "A/s"
"key" "node"
"tolerance" 1.00000e-06
)
"1/Sec" FLOAT DOUBLE PROP(
"units" "1/s"
"key" "node"
"tolerance" 0.000100000
)
"HOD" FLOAT DOUBLE PROP(
"units" ""
"key" "node"
"tolerance" 0.0100000
)
"Q" FLOAT DOUBLE PROP(
"units" "coul"
"key" "node"
"tolerance" 1.00000e-14
)
SWEEP
"time" "sweep" PROP(
"sweep_direction" 0
"units" "s"
"plot" 0
"grid" 1
)
TRACE
"in0" "V"
"in1" "V"
"net13" "V"
"out" "V"
"V0:p" "I"
"V1:p" "I"
"VDD:p" "I"
"VSS:p" "I"
"vdd" "V"
"vss" "V"
VALUE
"time" 0.000000000000000e+00
"in0" 1.200000000000000e+00
"in1" 1.200000000000000e+00
"net13" 3.706476565175914e-07
"out" 6.999538919529706e-07
"V0:p" -7.657574584620934e-11
"V1:p" -7.657574485775169e-11
"VDD:p" -6.388557615303578e-11
"VSS:p" 2.170367324928983e-10
"vdd" 1.200000000000000e+00
"vss" 0.000000000000000e+00
"time" 1.000000000000000e-13
"in0" 1.200000000000000e+00
"in1" 1.200000000000000e+00
"net13" -1.303878314988655e-03
"out" -2.845586072474801e-04
"V0:p" -8.788301392190105e-06
"V1:p" -1.054663874077437e-05
"VDD:p" -8.734878227370727e-07
"VSS:p" 2.020842795570155e-05
"vdd" 1.200000000000000e+00
"vss" 0.000000000000000e+00
"time" 3.000000000000000e-13
"in0" 1.200000000000000e+00
"in1" 1.200000000000000e+00
"net13" -8.557200329883925e-03
"out" -2.114703088725989e-03
"V0:p" -2.471836669234575e-05
"V1:p" -3.033499083127691e-05
"VDD:p" -2.801464618043641e-06
"VSS:p" 5.785482214166630e-05
"vdd" 1.200000000000000e+00
"vss" 0.000000000000000e+00
"time" 7.000000000000000e-13
"in0" 1.200000000000000e+00
"in1" 1.200000000000000e+00
"net13" -3.127757559684409e-02
"out" -8.424098711051216e-03
"V0:p" -5.405499412188648e-05
"V1:p" -6.740133025402938e-05
"VDD:p" -6.846859296303141e-06
"VSS:p" 1.283031836722233e-04
"vdd" 1.200000000000000e+00
"vss" 0.000000000000000e+00
"time" 1.000000000000000e-12
"in0" 1.200000000000000e+00
"in1" 1.200000000000000e+00
"net13" -5.810467628645465e-02
"out" -1.670800219440799e-02
"V0:p" -7.339271754275582e-05
"V1:p" -9.204491218432332e-05
"VDD:p" -1.001176577906809e-05
"VSS:p" 1.754493955061429e-04
"vdd" 1.200000000000000e+00
"vss" 0.000000000000000e+00
"time" 1.594044207363209e-12
"in0" 1.200000000000000e+00
"in1" 1.200000000000000e+00
"net13" -1.035758257511008e-01
"out" -3.860296981442143e-02
"V0:p" -5.836899141718853e-05
"V1:p" -7.903729979729653e-05
"VDD:p" -1.121170617558361e-05
"VSS:p" 1.486179973900691e-04
"vdd" 1.200000000000000e+00
"vss" 0.000000000000000e+00
"time" 1.977563773585938e-12
"in0" 1.200000000000000e+00
"in1" 1.200000000000000e+00
"net13" -1.300309904221130e-01
"out" -5.301355929380246e-02
"V0:p" -5.088121831935359e-05
"V1:p" -7.085185867356662e-05
"VDD:p" -1.154654391693285e-05
"VSS:p" 1.332796209098548e-04
"vdd" 1.200000000000000e+00
"vss" 0.000000000000000e+00
"time" 2.704089921985299e-12
"in0" 1.200000000000000e+00
"in1" 1.200000000000000e+00
"net13" -1.685021203547222e-01
"out" -8.143726180490696e-02
"V0:p" -3.846984940128847e-05
"V1:p" -6.036263609993037e-05
"VDD:p" -1.202568526377505e-05
"VSS:p" 1.108581707649935e-04
"vdd" 1.200000000000000e+00
"vss" 0.000000000000000e+00
"time" 3.605899112032539e-12
"in0" 1.200000000000000e+00
"in1" 1.200000000000000e+00
"net13" -2.024718041795761e-01
"out" -1.164215107469305e-01
"V0:p" -3.047903905861860e-05
"V1:p" -4.999915447861162e-05
"VDD:p" -1.117364772120246e-05
"VSS:p" 9.165184125843332e-05
"vdd" 1.200000000000000e+00
"vss" 0.000000000000000e+00
"time" 4.653032930089397e-12
"in0" 1.200000000000000e+00
"in1" 1.200000000000000e+00
"net13" -2.311129882723380e-01
"out" -1.539532853676449e-01
"V0:p" -2.325101576095957e-05
"V1:p" -4.215768085956183e-05
"VDD:p" -1.008026174086021e-05
"VSS:p" 7.548895836138055e-05
"vdd" 1.200000000000000e+00
"vss" 0.000000000000000e+00
"time" 5.326516465044698e-12
"in0" 1.200000000000000e+00
"in1" 1.200000000000000e+00
"net13" -2.457673512018205e-01
"out" -1.757068183175724e-01
"V0:p" -2.136272857195202e-05
"V1:p" -3.723807859902253e-05
"VDD:p" -8.942254142645495e-06
"VSS:p" 6.754306131362219e-05
"vdd" 1.200000000000000e+00
"vss" 0.000000000000000e+00
"time" 5.999999999999999e-12
"in0" 1.200000000000000e+00
"in1" 1.200000000000000e+00
"net13" -2.585210892541159e-01
"out" -1.954890944561409e-01
"V0:p" -1.817295643256930e-05
"V1:p" -3.395338265178793e-05
"VDD:p" -8.274730176467293e-06
"VSS:p" 6.040106926082321e-05
"vdd" 1.200000000000000e+00
"vss" 0.000000000000000e+00
"time" 6.578564594323830e-12
"in0" 1.200000000000000e+00
"in1" 1.200000000000000e+00
"net13" -2.613451014482591e-01
"out" -2.081614578552225e-01
"V0:p" -7.786902778515199e-06
"V1:p" -2.050049622758057e-05
"VDD:p" -6.396776567841844e-06
"VSS:p" 3.468417557393805e-05
"vdd" 1.200000000000000e+00
"vss" 0.000000000000000e+00
"time" 7.425764927922976e-12
"in0" 1.200000000000000e+00
"in1" 1.200000000000000e+00
"net13" -2.588750455668684e-01
"out" -2.226756704594222e-01
"V0:p" 5.761490210641192e-06
"V1:p" -2.922232039259132e-06
"VDD:p" -3.578572852432980e-06
"VSS:p" 7.393146810509457e-07
"vdd" 1.200000000000000e+00
"vss" 0.000000000000000e+00
"time" 8.442583819301252e-12
"in0" 1.200000000000000e+00
"in1" 1.200000000000000e+00
"net13" -2.415896729138562e-01
"out" -2.291941198156669e-01
"V0:p" 1.735340113418525e-05
"V1:p" 1.459881605329427e-05
"VDD:p" -1.464623439427461e-07
"VSS:p" -3.180575484353573e-05
"vdd" 1.200000000000000e+00
"vss" 0.000000000000000e+00
"time" 9.873237808053345e-12
"in0" 1.200000000000000e+00
"in1" 1.200000000000000e+00
"net13" -1.963407936077285e-01
"out" -2.227107518351341e-01
"V0:p" 3.095207467114706e-05
"V1:p" 3.231879793633482e-05
"VDD:p" 2.777613422297278e-06
"VSS:p" -6.604848602978088e-05
"vdd" 1.200000000000000e+00
"vss" 0.000000000000000e+00
"time" 1.100000000000000e-11
"in0" 1.200000000000000e+00
"in1" 1.200000000000000e+00
"net13" -1.511828038439524e-01
"out" -2.028303022952853e-01
"V0:p" 3.308729764684509e-05
"V1:p" 4.589747598631960e-05
"VDD:p" 7.500607757534694e-06
"VSS:p" -8.648538139069700e-05
"vdd" 1.200000000000000e+00
"vss" 0.000000000000000e+00
"time" 1.184602524285242e-11
"in0" 1.200000000000000e+00
"in1" 1.200000000000000e+00
"net13" -1.262747119210672e-01
"out" -1.813347301823780e-01
"V0:p" 2.540008489384477e-05
"V1:p" 3.918190707291003e-05
"VDD:p" 7.433577630122129e-06
"VSS:p" -7.201556959687750e-05
"vdd" 1.200000000000000e+00
"vss" 0.000000000000000e+00
"time" 1.288719150811734e-11
"in0" 1.200000000000000e+00
"in1" 1.200000000000000e+00
"net13" -1.010113270406656e-01
"out" -1.551560348491040e-01
"V0:p" 1.745585537774624e-05
"V1:p" 3.243585827407855e-05
"VDD:p" 7.358274943997692e-06
"VSS:p" -5.724998859582226e-05
"vdd" 1.200000000000000e+00
"vss" 0.000000000000000e+00
"time" 1.417435429746399e-11
"in0" 1.200000000000000e+00
"in1" 1.200000000000000e+00
"net13" -7.995334113663150e-02
"out" -1.257039852590166e-01
"V0:p" 1.331097267499465e-05
"V1:p" 2.578994222073925e-05
"VDD:p" 6.192607229486129e-06
"VSS:p" -4.529352212522068e-05
"vdd" 1.200000000000000e+00
"vss" 0.000000000000000e+00
"time" 1.617435429746399e-11
"in0" 1.200000000000000e+00
"in1" 1.200000000000000e+00
"net13" -5.656461118729879e-02
"out" -8.986220041712172e-02
"V0:p" 9.065881570157888e-06
"V1:p" 1.845685805217187e-05
"VDD:p" 4.501387373357317e-06
"VSS:p" -3.202412699568610e-05
"vdd" 1.200000000000000e+00
"vss" 0.000000000000000e+00
"time" 1.802300130331250e-11
"in0" 1.200000000000000e+00
"in1" 1.200000000000000e+00
"net13" -4.118296493931634e-02
"out" -6.587821082674424e-02
"V0:p" 6.760406689992217e-06
"V1:p" 1.329348581910352e-05
"VDD:p" 3.295508428674530e-06
"VSS:p" -2.334940093777081e-05
"vdd" 1.200000000000000e+00
"vss" 0.000000000000000e+00
"time" 2.002300130331250e-11
"in0" 1.200000000000000e+00
"in1" 1.200000000000000e+00
"net13" -2.925895566348593e-02
"out" -4.704428980877041e-02
"V0:p" 4.545327168905005e-06
"V1:p" 9.622403149569470e-06
"VDD:p" 2.392545161999797e-06
"VSS:p" -1.656027548047362e-05
"vdd" 1.200000000000000e+00
"vss" 0.000000000000000e+00
"time" 2.202300130331250e-11
"in0" 1.200000000000000e+00
"in1" 1.200000000000000e+00
"net13" -2.081385498366864e-02
"out" -3.359064544444598e-02
"V0:p" 3.441725357351566e-06
"V1:p" 6.682727193759290e-06
"VDD:p" 1.686420577224886e-06
"VSS:p" -1.181087312833661e-05
"vdd" 1.200000000000000e+00
"vss" 0.000000000000000e+00
"time" 2.402300130331250e-11
"in0" 1.200000000000000e+00
"in1" 1.200000000000000e+00
"net13" -1.482018211889742e-02
"out" -2.398273494211214e-02
"V0:p" 2.216982242296096e-06
"V1:p" 4.927959575192762e-06
"VDD:p" 1.234687775720185e-06
"VSS:p" -8.379629593207850e-06
"vdd" 1.200000000000000e+00
"vss" 0.000000000000000e+00
"time" 2.602300130331249e-11
"in0" 1.200000000000000e+00
"in1" 1.200000000000000e+00
"net13" -1.055989381854868e-02
"out" -1.712209597190512e-02
"V0:p" 1.800408975968441e-06
"V1:p" 3.345105241512489e-06
"VDD:p" 8.553203239345370e-07
"VSS:p" -6.000834541416225e-06
"vdd" 1.200000000000000e+00
"vss" 0.000000000000000e+00
"time" 2.802300130331249e-11
"in0" 1.200000000000000e+00
"in1" 1.200000000000000e+00
"net13" -7.528149083750700e-03
"out" -1.222361213489000e-02
"V0:p" 1.056094590186215e-06
"V1:p" 2.552662534513258e-06
"VDD:p" 6.390536120530756e-07
"VSS:p" -4.247810736751683e-06
"vdd" 1.200000000000000e+00
"vss" 0.000000000000000e+00
"time" 3.002300130331250e-11
"in0" 1.200000000000000e+00
"in1" 1.200000000000000e+00
"net13" -5.368811069139699e-03
"out" -8.726299627090105e-03
"V0:p" 9.772249351177616e-07
"V1:p" 1.653330446735640e-06
"VDD:p" 4.289293088030208e-07
"VSS:p" -3.059484690657290e-06
"vdd" 1.200000000000000e+00
"vss" 0.000000000000000e+00
"time" 3.202300130331250e-11
"in0" 1.200000000000000e+00
"in1" 1.200000000000000e+00
"net13" -3.829862494800844e-03
"out" -6.229459571614862e-03
"V0:p" 4.712885076447375e-07
"V1:p" 1.346985567439863e-06
"VDD:p" 3.340618957314620e-07
"VSS:p" -2.152335970815194e-06
"vdd" 1.200000000000000e+00
"vss" 0.000000000000000e+00
"time" 3.402300130331250e-11
"in0" 1.200000000000000e+00
"in1" 1.200000000000000e+00
"net13" -2.732555454672915e-03
"out" -4.446933713423936e-03
"V0:p" 5.612023769598393e-07
"V1:p" 7.936880890651534e-07
"VDD:p" 2.108974003634480e-07
"VSS:p" -1.565787866388983e-06
"vdd" 1.200000000000000e+00
"vss" 0.000000000000000e+00
"time" 3.602300130331250e-11
"in0" 1.200000000000000e+00
"in1" 1.200000000000000e+00
"net13" -1.949887578945278e-03
"out" -3.174388336494562e-03
"V0:p" 1.750448735954469e-07
"V1:p" 7.338571078385385e-07
"VDD:p" 1.782588564149979e-07
"VSS:p" -1.087160837848333e-06
"vdd" 1.200000000000000e+00
"vss" 0.000000000000000e+00
"time" 3.802300130331250e-11
"in0" 1.200000000000000e+00
"in1" 1.200000000000000e+00
"net13" -1.391505288320338e-03
"out" -2.265929197736132e-03
"V0:p" 3.501018870097343e-07
"V1:p" 3.562741071900787e-07
"VDD:p" 9.959451187006686e-08
"VSS:p" -8.059705060704219e-07
"vdd" 1.200000000000000e+00
"vss" 0.000000000000000e+00
"time" 4.002300130331249e-11
"in0" 1.200000000000000e+00
"in1" 1.200000000000000e+00
"net13" -9.930669529964200e-04
"out" -1.617393616017862e-03
"V0:p" 2.453987645355518e-08
"V1:p" 4.217440090669677e-07
"VDD:p" 9.876241603422193e-08
"VSS:p" -5.450463015542026e-07
"vdd" 1.200000000000000e+00
"vss" 0.000000000000000e+00
"time" 4.202300130331249e-11
"in0" 1.200000000000000e+00
"in1" 1.200000000000000e+00
"net13" -7.087225573061261e-04
"out" -1.154416402401495e-03
"V0:p" 2.427594469682348e-07
"V1:p" 1.335394288298770e-07
"VDD:p" 4.282367036762152e-08
"VSS:p" -4.191225461666006e-07
"vdd" 1.200000000000000e+00
"vss" 0.000000000000000e+00
"time" 4.402300130331249e-11
"in0" 1.200000000000000e+00
"in1" 1.200000000000000e+00
"net13" -5.057828751985683e-04
"out" -8.239071723756715e-04
"V0:p" -5.203843614664806e-08
"V1:p" 2.627779548193445e-07
"VDD:p" 5.822485191763838e-08
"VSS:p" -2.689643705894676e-07
"vdd" 1.200000000000000e+00
"vss" 0.000000000000000e+00
"time" 4.602300130331249e-11
"in0" 1.200000000000000e+00
"in1" 1.200000000000000e+00
"net13" -3.609333711662734e-04
"out" -5.879646202774909e-04
"V0:p" 1.881180825118401e-07
"V1:p" 2.007748905477318e-08
"VDD:p" 1.387973087141568e-08
"VSS:p" -2.220753024388960e-07
"vdd" 1.200000000000000e+00
"vss" 0.000000000000000e+00
"time" 4.802300130331249e-11
"in0" 1.200000000000000e+00
"in1" 1.200000000000000e+00
"net13" -2.575413833170316e-04
"out" -4.195312901528883e-04
"V0:p" -9.103222979165835e-08
"V1:p" 1.817906408518614e-07
"VDD:p" 3.755989138559875e-08
"VSS:p" -1.283183024451511e-07
"vdd" 1.200000000000000e+00
"vss" 0.000000000000000e+00
"time" 5.002300130331249e-11
"in0" 1.200000000000000e+00
"in1" 1.200000000000000e+00
"net13" -1.837389064009478e-04
"out" -2.992912406943526e-04
"V0:p" 1.602882211864230e-07
"V1:p" -3.773195796808186e-08
"VDD:p" -8.737694829573756e-10
"VSS:p" -1.216824937358176e-07
"vdd" 1.200000000000000e+00
"vss" 0.000000000000000e+00
"time" 5.202300130331249e-11
"in0" 1.200000000000000e+00
"in1" 1.200000000000000e+00
"net13" -1.310565584937478e-04
"out" -2.134551768912700e-04
"V0:p" -1.108957544921654e-07
"V1:p" 1.405247344201483e-07
"VDD:p" 2.702709163778861e-08
"VSS:p" -5.665607156490424e-08
"vdd" 1.200000000000000e+00
"vss" 0.000000000000000e+00
"time" 5.402300130331249e-11
"in0" 1.200000000000000e+00
"in1" 1.200000000000000e+00
"net13" -9.344974429242093e-05
"out" -1.521792186060027e-04
"V0:p" 1.461099651674932e-07
"V1:p" -6.718917084859304e-08
"VDD:p" -8.393187154458977e-09
"VSS:p" -7.052760716574223e-08
"vdd" 1.200000000000000e+00
"vss" 0.000000000000000e+00
"time" 5.602300130331249e-11
"in0" 1.200000000000000e+00
"in1" 1.200000000000000e+00
"net13" -6.660414296356113e-05
"out" -1.084360544111709e-04
"V0:p" -1.210163128283051e-07
"V1:p" 1.194967612579918e-07
"VDD:p" 2.165901616395760e-08
"VSS:p" -2.013946459223465e-08
"vdd" 1.200000000000000e+00
"vss" 0.000000000000000e+00
"time" 5.802300130331249e-11
"in0" 1.200000000000000e+00
"in1" 1.200000000000000e+00
"net13" -4.744026396649095e-05
"out" -7.720906539956220e-05
"V0:p" 1.388856454910402e-07
"V1:p" -8.220008364855769e-08
"VDD:p" -1.222539232019670e-08
"VSS:p" -4.446016952358695e-08
"vdd" 1.200000000000000e+00
"vss" 0.000000000000000e+00
"time" 6.002300130331250e-11
"in0" 1.200000000000000e+00
"in1" 1.200000000000000e+00
"net13" -3.375994133735021e-05
"out" -5.491702062962303e-05
"V0:p" -1.261733132461025e-07
"V1:p" 1.087810847231349e-07
"VDD:p" 1.892326970472547e-08
"VSS:p" -1.531041180998982e-09
"vdd" 1.200000000000000e+00
"vss" 0.000000000000000e+00
"time" 6.202300130331250e-11
"in0" 1.200000000000000e+00
"in1" 1.200000000000000e+00
"net13" -2.399406678084653e-05
"out" -3.900337738955168e-05
"V0:p" 1.352043312086548e-07
"V1:p" -8.984960202496705e-08
"VDD:p" -1.417838567813948e-08
"VSS:p" -3.117634350609035e-08
"vdd" 1.200000000000000e+00
"vss" 0.000000000000000e+00
"time" 6.402300130331251e-11
"in0" 1.200000000000000e+00
"in1" 1.200000000000000e+00
"net13" -1.702254984103247e-05
"out" -2.764309131674554e-05
"V0:p" -1.288012358147210e-07
"V1:p" 1.033203633236275e-07
"VDD:p" 1.752907273204062e-08
"VSS:p" 7.951799759920482e-09
"vdd" 1.200000000000000e+00
"vss" 0.000000000000000e+00
"time" 6.602300130331252e-11
"in0" 1.200000000000000e+00
"in1" 1.200000000000000e+00
"net13" -1.204581626536383e-05
"out" -1.953331501877338e-05
"V0:p" 1.333283648514486e-07
"V1:p" -9.374782762340916e-08
"VDD:p" -1.517366824467527e-08
"VSS:p" -2.440686898433995e-08
"vdd" 1.200000000000000e+00
"vss" 0.000000000000000e+00
"time" 6.802300130331252e-11
"in0" 1.200000000000000e+00
"in1" 1.200000000000000e+00
"net13" -8.493086442286175e-06
"out" -1.374398308688655e-05
"V0:p" -1.301404176035497e-07
"V1:p" 1.005375463251644e-07
"VDD:p" 1.681856653890478e-08
"VSS:p" 1.278430474045631e-08
"vdd" 1.200000000000000e+00
"vss" 0.000000000000000e+00
"time" 7.002300130331253e-11
"in0" 1.200000000000000e+00
"in1" 1.200000000000000e+00
"net13" -5.956904182540814e-06
"out" -9.611148680306832e-06
"V0:p" 1.323723702120326e-07
"V1:p" -9.573439293096970e-08
"VDD:p" -1.568087937394430e-08
"VSS:p" -2.095709790776910e-08
"vdd" 1.200000000000000e+00
"vss" 0.000000000000000e+00
"time" 7.202300130331253e-11
"in0" 1.200000000000000e+00
"in1" 1.200000000000000e+00
"net13" -4.146401852055881e-06
"out" -6.660839419265855e-06
"V0:p" -1.308228700624994e-07
"V1:p" 9.911939877904319e-08
"VDD:p" 1.645648258545739e-08
"VSS:p" 1.524698869854086e-08
"vdd" 1.200000000000000e+00
"vss" 0.000000000000000e+00
"time" 7.402300130331254e-11
"in0" 1.200000000000000e+00
"in1" 1.200000000000000e+00
"net13" -2.853939309686337e-06
"out" -4.554700229218487e-06
"V0:p" 1.318851895083698e-07
"V1:p" -9.674676523265971e-08
"VDD:p" -1.593936089159623e-08
"VSS:p" -1.919906338422238e-08
"vdd" 1.200000000000000e+00
"vss" 0.000000000000000e+00
"time" 7.602300130331255e-11
"in0" 1.200000000000000e+00
"in1" 1.200000000000000e+00
"net13" -1.931289237863247e-06
"out" -3.051189304775196e-06
"V0:p" -1.311706530053415e-07
"V1:p" 9.839669673900222e-08
"VDD:p" 1.627196001140269e-08
"VSS:p" 1.650199625482818e-08
"vdd" 1.200000000000000e+00
"vss" 0.000000000000000e+00
"time" 7.802300130331255e-11
"in0" 1.200000000000000e+00
"in1" 1.200000000000000e+00
"net13" -1.272636953469183e-06
"out" -1.977877017349732e-06
"V0:p" 1.316369180213669e-07
"V1:p" -9.726268057242904e-08
"VDD:p" -1.607108624491633e-08
"VSS:p" -1.830315120369625e-08
"vdd" 1.200000000000000e+00
"vss" 0.000000000000000e+00
"time" 8.002300130331256e-11
"in0" 1.200000000000000e+00
"in1" 1.200000000000000e+00
"net13" -8.024446950295449e-07
"out" -1.211670908764671e-06
"V0:p" -1.313478864520761e-07
"V1:p" 9.802840014726785e-08
"VDD:p" 1.617792509830629e-08
"VSS:p" 1.714156120596001e-08
"vdd" 1.200000000000000e+00
"vss" 0.000000000000000e+00
"time" 8.202300130331256e-11
"in0" 1.200000000000000e+00
"in1" 1.200000000000000e+00
"net13" -4.667883881628666e-07
"out" -6.646988822397736e-07
"V0:p" 1.315103964122229e-07
"V1:p" -9.752559657846465e-08
"VDD:p" -1.613821503461029e-08
"VSS:p" -1.784658479903928e-08
