HEADER
"PSFversion" "1.00"
"simulator" "spectre"
"version" "19.1.0.237.isr3"
"date" "1:51:09 PM, Sat Sep 10, 2022"
"design" "// Generated for: spectre"
"analysis type" "tran"
"analysis name" "sim"
"analysis description" "Transient Analysis `sim': time = (0 s -> 100 ps)"
"xVecSorted" "ascending"
"tolerance.relative" 0.00100000
"start" 0.00000
"outputstart" 0.00000
"stop" 1.00000e-10
"step" 1.00000e-13
"istep" 0.00100000
"maxstep" 2.00000e-12
"ic" "all"
"useprevic" "no"
"skipdc" "no"
"reltol" 0.00100000
"abstol(V)" 1.00000e-06
"abstol(I)" 1.00000e-12
"temp" 27.0000
"tnom" 27.0000
"tempeffects" "all"
"errpreset" "moderate"
"method" "traponly"
"lteratio" 3.50000
"relref" "sigglobal"
"cmin" 0.00000
"gmin" 1.00000e-12
TYPE
"sweep" FLOAT DOUBLE PROP(
"key" "sweep"
)
"LogicV" FLOAT DOUBLE PROP(
"key" "node"
)
"Tau" FLOAT DOUBLE PROP(
"units" "N*m"
"key" "node"
"tolerance" 1.00000e-06
)
"Alpha" FLOAT DOUBLE PROP(
"units" "rads/s^2"
"key" "node"
"tolerance" 1.00000e-06
)
"Omega" FLOAT DOUBLE PROP(
"units" "rads/s"
"key" "node"
"tolerance" 1.00000e-06
)
"Theta" FLOAT DOUBLE PROP(
"units" "rads"
"key" "node"
"tolerance" 1.00000e-06
)
"F" FLOAT DOUBLE PROP(
"units" "N"
"key" "node"
"tolerance" 1.00000e-06
)
"Imp" FLOAT DOUBLE PROP(
"units" "m/s^3"
"key" "node"
"tolerance" 1.00000e-06
)
"Acc" FLOAT DOUBLE PROP(
"units" "m/s^2"
"key" "node"
"tolerance" 1.00000e-06
)
"Vel" FLOAT DOUBLE PROP(
"units" "m/s"
"key" "node"
"tolerance" 1.00000e-06
)
"Pos" FLOAT DOUBLE PROP(
"units" "m"
"key" "node"
"tolerance" 1.00000e-06
)
"Phi" FLOAT DOUBLE PROP(
"units" "Wb"
"key" "node"
"tolerance" 1.00000e-09
)
"V" FLOAT DOUBLE PROP(
"units" "V"
"key" "node"
"tolerance" 1.00000e-06
)
"I" FLOAT DOUBLE PROP(
"units" "A"
"key" "branch"
"tolerance" 1.00000e-12
)
"MMF" FLOAT DOUBLE PROP(
"units" "A*turn"
"key" "node"
"tolerance" 1.00000e-12
)
"Wb" FLOAT DOUBLE PROP(
"units" "Wb"
"key" "node"
"tolerance" 1.00000e-09
)
"Temp" FLOAT DOUBLE PROP(
"units" "C"
"key" "node"
"tolerance" 0.000100000
)
"Pwr" FLOAT DOUBLE PROP(
"units" "W"
"key" "node"
"tolerance" 1.00000e-09
)
"U" FLOAT DOUBLE PROP(
"units" ""
"key" "node"
"tolerance" 1.00000e-06
)
"V/Sec" FLOAT DOUBLE PROP(
"units" "V/s"
"key" "node"
"tolerance" 0.000100000
)
"I/Sec" FLOAT DOUBLE PROP(
"units" "A/s"
"key" "node"
"tolerance" 1.00000e-06
)
"1/Sec" FLOAT DOUBLE PROP(
"units" "1/s"
"key" "node"
"tolerance" 0.000100000
)
"HOD" FLOAT DOUBLE PROP(
"units" ""
"key" "node"
"tolerance" 0.0100000
)
"Q" FLOAT DOUBLE PROP(
"units" "coul"
"key" "node"
"tolerance" 1.00000e-14
)
SWEEP
"time" "sweep" PROP(
"sweep_direction" 0
"units" "s"
"plot" 0
"grid" 1
)
TRACE
"in0" "V"
"in1" "V"
"net13" "V"
"out" "V"
"V0:p" "I"
"V1:p" "I"
"VDD:p" "I"
"VSS:p" "I"
"vdd" "V"
"vss" "V"
VALUE
"time" 0.000000000000000e+00
"in0" 1.200000000000000e+00
"in1" 0.000000000000000e+00
"net13" 1.175255987389764e+00
"out" 1.199998622265821e+00
"V0:p" 2.999488749051789e-11
"V1:p" -2.885339490148764e-16
"VDD:p" -1.571690853367175e-10
"VSS:p" 1.271602942602738e-10
"vdd" 1.200000000000000e+00
"vss" 0.000000000000000e+00
"time" 1.000000000000000e-13
"in0" 1.200000000000000e+00
"in1" 0.000000000000000e+00
"net13" 1.177468793315804e+00
"out" 1.199086207993239e+00
"V0:p" 4.478750460940091e-07
"V1:p" 2.871915350387067e-06
"VDD:p" -5.844482256934208e-06
"VSS:p" 2.524691860456601e-06
"vdd" 1.200000000000000e+00
"vss" 0.000000000000000e+00
"time" 2.929576043910464e-13
"in0" 1.200000000000000e+00
"in1" 0.000000000000000e+00
"net13" 1.189952920735670e+00
"out" 1.193920666773867e+00
"V0:p" 1.287246221666881e-06
"V1:p" 8.690908707747441e-06
"VDD:p" -1.734851663288047e-05
"VSS:p" 7.370361703465932e-06
"vdd" 1.200000000000000e+00
"vss" 0.000000000000000e+00
"time" 6.126714900950697e-13
"in0" 1.200000000000000e+00
"in1" 0.000000000000000e+00
"net13" 1.221965953390814e+00
"out" 1.180551590843846e+00
"V0:p" 2.550258936403926e-06
"V1:p" 1.862775670044345e-05
"VDD:p" -3.651721527562011e-05
"VSS:p" 1.533919963877445e-05
"vdd" 1.200000000000000e+00
"vss" 0.000000000000000e+00
"time" 8.063357450475348e-13
"in0" 1.200000000000000e+00
"in1" 0.000000000000000e+00
"net13" 1.252608555807303e+00
"out" 1.167842684607232e+00
"V0:p" 4.507774491654506e-06
"V1:p" 2.302675195209316e-05
"VDD:p" -4.785629729975844e-05
"VSS:p" 2.032177085600837e-05
"vdd" 1.200000000000000e+00
"vss" 0.000000000000000e+00
"time" 1.000000000000000e-12
"in0" 1.200000000000000e+00
"in1" 0.000000000000000e+00
"net13" 1.291951900071060e+00
"out" 1.151747652445130e+00
"V0:p" 6.501136078608520e-06
"V1:p" 2.763428152184860e-05
"VDD:p" -5.927933078756988e-05
"VSS:p" 2.514391318711427e-05
"vdd" 1.200000000000000e+00
"vss" 0.000000000000000e+00
"time" 1.387328509904930e-12
"in0" 1.200000000000000e+00
"in1" 0.000000000000000e+00
"net13" 1.380224396338132e+00
"out" 1.117144707777967e+00
"V0:p" 8.901242851621698e-06
"V1:p" 2.644052170565909e-05
"VDD:p" -6.053184002753852e-05
"VSS:p" 2.519007547025705e-05
"vdd" 1.200000000000000e+00
"vss" 0.000000000000000e+00
"time" 1.714443211694185e-12
"in0" 1.200000000000000e+00
"in1" 0.000000000000000e+00
"net13" 1.455564753357614e+00
"out" 1.088432784123274e+00
"V0:p" 1.372954545620872e-05
"V1:p" 2.078574661872070e-05
"VDD:p" -5.945793869813133e-05
"VSS:p" 2.494264662320157e-05
"vdd" 1.200000000000000e+00
"vss" 0.000000000000000e+00
"time" 2.147096261165566e-12
"in0" 1.200000000000000e+00
"in1" 0.000000000000000e+00
"net13" 1.555902749508754e+00
"out" 1.051580192201542e+00
"V0:p" 1.461202675421446e-05
"V1:p" 2.212188617760960e-05
"VDD:p" -6.146427882245793e-05
"VSS:p" 2.473036589063527e-05
"vdd" 1.200000000000000e+00
"vss" 0.000000000000000e+00
"time" 3.012402360108326e-12
"in0" 1.200000000000000e+00
"in1" 0.000000000000000e+00
"net13" 1.754837211056040e+00
"out" 9.824717843443744e-01
"V0:p" 2.219868360485818e-05
"V1:p" 1.359229519813506e-05
"VDD:p" -5.904135781485729e-05
"VSS:p" 2.325037901186201e-05
"vdd" 1.200000000000000e+00
"vss" 0.000000000000000e+00
"time" 3.320772264067361e-12
"in0" 1.200000000000000e+00
"in1" 0.000000000000000e+00
"net13" 1.811991327037058e+00
"out" 9.643250433517694e-01
"V0:p" 1.538535371693975e-05
"V1:p" 1.328538836272991e-05
"VDD:p" -4.328618481934774e-05
"VSS:p" 1.461544273967730e-05
"vdd" 1.200000000000000e+00
"vss" 0.000000000000000e+00
"time" 3.356830014374741e-12
"in0" 1.200000000000000e+00
"in1" 0.000000000000000e+00
"net13" 1.816780638391748e+00
"out" 9.629665768386553e-01
"V0:p" 1.560790067472944e-05
"V1:p" 9.856158348292144e-06
"VDD:p" -3.785071059201099e-05
"VSS:p" 1.238665156900838e-05
"vdd" 1.200000000000000e+00
"vss" 0.000000000000000e+00
"time" 3.428945514989502e-12
"in0" 1.200000000000000e+00
"in1" 0.000000000000000e+00
"net13" 1.824025137866011e+00
"out" 9.611633819712793e-01
"V0:p" 1.060471924087986e-05
"V1:p" 1.162097004012368e-05
"VDD:p" -3.024134628350337e-05
"VSS:p" 8.015657002489277e-06
"vdd" 1.200000000000000e+00
"vss" 0.000000000000000e+00
"time" 3.573176516219022e-12
"in0" 1.200000000000000e+00
"in1" 0.000000000000000e+00
"net13" 1.831520447166092e+00
"out" 9.602804488908790e-01
"V0:p" 8.250741163879304e-06
"V1:p" 7.562808099765009e-06
"VDD:p" -1.833982721377075e-05
"VSS:p" 2.526277950137241e-06
"vdd" 1.200000000000000e+00
"vss" 0.000000000000000e+00
"time" 3.818649353340664e-12
"in0" 1.200000000000000e+00
"in1" 0.000000000000000e+00
"net13" 1.835575880455927e+00
"out" 9.621410961890567e-01
"V0:p" 5.116505943283703e-06
"V1:p" 9.952837796917361e-06
"VDD:p" -1.589162182418420e-05
"VSS:p" 8.222780839740412e-07
"vdd" 1.200000000000000e+00
"vss" 0.000000000000000e+00
"time" 4.066860188820316e-12
"in0" 1.200000000000000e+00
"in1" 0.000000000000000e+00
"net13" 1.837849069245149e+00
"out" 9.647012669899074e-01
"V0:p" 7.057883995232156e-06
"V1:p" 7.054904941536728e-06
"VDD:p" -1.514598975223288e-05
"VSS:p" 1.033200815473984e-06
"vdd" 1.200000000000000e+00
"vss" 0.000000000000000e+00
"time" 4.400193584088126e-12
"in0" 1.200000000000000e+00
"in1" 0.000000000000000e+00
"net13" 1.841177082248502e+00
"out" 9.679827322535386e-01
"V0:p" 5.166699903263545e-06
"V1:p" 9.772854716215497e-06
"VDD:p" -1.592814336198621e-05
"VSS:p" 9.885887424978048e-07
"vdd" 1.200000000000000e+00
"vss" 0.000000000000000e+00
"time" 5.007469530104029e-12
"in0" 1.200000000000000e+00
"in1" 0.000000000000000e+00
"net13" 1.847126592345364e+00
"out" 9.738598659212730e-01
"V0:p" 6.903901493339239e-06
"V1:p" 6.706920455224013e-06
"VDD:p" -1.460478717593564e-05
"VSS:p" 9.939652273813985e-07
"vdd" 1.200000000000000e+00
"vss" 0.000000000000000e+00
"time" 5.999999999999999e-12
"in0" 1.200000000000000e+00
"in1" 0.000000000000000e+00
"net13" 1.856474256599272e+00
"out" 9.832119048907499e-01
"V0:p" 4.891333285709097e-06
"V1:p" 9.195691522648466e-06
"VDD:p" -1.499660606650924e-05
"VSS:p" 9.095812581429538e-07
"vdd" 1.200000000000000e+00
"vss" 0.000000000000000e+00
"time" 7.825726621006435e-12
"in0" 1.200000000000000e+00
"in1" 0.000000000000000e+00
"net13" 1.863288215856068e+00
"out" 1.002147091489620e+00
"V0:p" 5.082188227281297e-06
"V1:p" 6.971619771746871e-06
"VDD:p" -1.243060575301679e-05
"VSS:p" 3.767977539886894e-07
"vdd" 1.200000000000000e+00
"vss" 0.000000000000000e+00
"time" 9.412863310503218e-12
"in0" 1.200000000000000e+00
"in1" 0.000000000000000e+00
"net13" 1.863706296002403e+00
"out" 1.019872114242774e+00
"V0:p" 4.413821581642691e-06
"V1:p" 5.914696321945523e-06
"VDD:p" -1.000515554699090e-05
"VSS:p" -3.233623565976901e-07
"vdd" 1.200000000000000e+00
"vss" 0.000000000000000e+00
"time" 1.100000000000000e-11
"in0" 1.200000000000000e+00
"in1" 0.000000000000000e+00
"net13" 1.847274231873133e+00
"out" 1.042232685984454e+00
"V0:p" 3.043710231296448e-06
"V1:p" 4.531243075535309e-06
"VDD:p" -5.807741319550831e-06
"VSS:p" -1.767211987280952e-06
"vdd" 1.200000000000000e+00
"vss" 0.000000000000000e+00
"time" 1.300000000000000e-11
"in0" 1.200000000000000e+00
"in1" 0.000000000000000e+00
"net13" 1.836542517738279e+00
"out" 1.062985578753251e+00
"V0:p" 3.381148927761823e-06
"V1:p" 4.358303855198022e-06
"VDD:p" -7.196471160691656e-06
"VSS:p" -5.429816222678644e-07
"vdd" 1.200000000000000e+00
"vss" 0.000000000000000e+00
"time" 1.469763753887214e-11
"in0" 1.200000000000000e+00
"in1" 0.000000000000000e+00
"net13" 1.830737281192388e+00
"out" 1.078500701756273e+00
"V0:p" 3.327341299747493e-06
"V1:p" 3.942474683781908e-06
"VDD:p" -7.120399177197835e-06
"VSS:p" -1.494168063317819e-07
"vdd" 1.200000000000000e+00
"vss" 0.000000000000000e+00
"time" 1.669763753887214e-11
"in0" 1.200000000000000e+00
"in1" 0.000000000000000e+00
"net13" 1.828108295076327e+00
"out" 1.093380644369459e+00
"V0:p" 2.911629712771456e-06
"V1:p" 3.567300116783256e-06
"VDD:p" -6.362115547422525e-06
"VSS:p" -1.168142821320513e-07
"vdd" 1.200000000000000e+00
"vss" 0.000000000000000e+00
"time" 1.869763753887214e-11
"in0" 1.200000000000000e+00
"in1" 0.000000000000000e+00
"net13" 1.827211029760276e+00
"out" 1.105968790072756e+00
"V0:p" 2.744537498809439e-06
"V1:p" 3.133635863197925e-06
"VDD:p" -5.904388422614679e-06
"VSS:p" 2.621506060709907e-08
"vdd" 1.200000000000000e+00
"vss" 0.000000000000000e+00
"time" 2.069763753887214e-11
"in0" 1.200000000000000e+00
"in1" 0.000000000000000e+00
"net13" 1.827015425528409e+00
"out" 1.116882578847441e+00
"V0:p" 2.346330466815623e-06
"V1:p" 2.832470917499714e-06
"VDD:p" -5.133097129544211e-06
"VSS:p" -4.570425477080159e-08
"vdd" 1.200000000000000e+00
"vss" 0.000000000000000e+00
"time" 2.269763753887214e-11
"in0" 1.200000000000000e+00
"in1" 0.000000000000000e+00
"net13" 1.827146408203915e+00
"out" 1.126439139195507e+00
"V0:p" 2.220041451198864e-06
"V1:p" 2.477080822568338e-06
"VDD:p" -4.756457638867924e-06
"VSS:p" 5.933536510066729e-08
"vdd" 1.200000000000000e+00
"vss" 0.000000000000000e+00
"time" 2.469763753887214e-11
"in0" 1.200000000000000e+00
"in1" 0.000000000000000e+00
"net13" 1.827428067460859e+00
"out" 1.134850723514877e+00
"V0:p" 1.866774268731034e-06
"V1:p" 2.246847355289179e-06
"VDD:p" -4.083199691883697e-06
"VSS:p" -3.042193213646299e-08
"vdd" 1.200000000000000e+00
"vss" 0.000000000000000e+00
"time" 2.669763753887214e-11
"in0" 1.200000000000000e+00
"in1" 0.000000000000000e+00
"net13" 1.827771681840192e+00
"out" 1.142275934027644e+00
"V0:p" 1.784815216256289e-06
"V1:p" 1.955124280650919e-06
"VDD:p" -3.805557308644303e-06
"VSS:p" 6.561781173736587e-08
"vdd" 1.200000000000000e+00
"vss" 0.000000000000000e+00
"time" 2.869763753887214e-11
"in0" 1.200000000000000e+00
"in1" 0.000000000000000e+00
"net13" 1.828130579807397e+00
"out" 1.148841493372314e+00
"V0:p" 1.473570723549971e-06
"V1:p" 1.781856473451453e-06
"VDD:p" -3.226553440142626e-06
"VSS:p" -2.887375685928564e-08
"vdd" 1.200000000000000e+00
"vss" 0.000000000000000e+00
"time" 3.069763753887214e-11
"in0" 1.200000000000000e+00
"in1" 0.000000000000000e+00
"net13" 1.828479897128341e+00
"out" 1.154652787587349e+00
"V0:p" 1.430707154890329e-06
"V1:p" 1.541046892533055e-06
"VDD:p" -3.036398228412786e-06
"VSS:p" 6.464418098934861e-08
"vdd" 1.200000000000000e+00
"vss" 0.000000000000000e+00
"time" 3.269763753887214e-11
"in0" 1.200000000000000e+00
"in1" 0.000000000000000e+00
"net13" 1.828806674036017e+00
"out" 1.159799607919864e+00
"V0:p" 1.155448786834336e-06
"V1:p" 1.413259390420013e-06
"VDD:p" -2.537546726240815e-06
"VSS:p" -3.116145101375141e-08
"vdd" 1.200000000000000e+00
"vss" 0.000000000000000e+00
"time" 3.469763753887213e-11
"in0" 1.200000000000000e+00
"in1" 0.000000000000000e+00
"net13" 1.829104666914245e+00
"out" 1.164359615248607e+00
"V0:p" 1.145480700157205e-06
"V1:p" 1.213054742034101e-06
"VDD:p" -2.420259156521852e-06
"VSS:p" 6.172371433076189e-08
"vdd" 1.200000000000000e+00
"vss" 0.000000000000000e+00
"time" 3.669763753887213e-11
"in0" 1.200000000000000e+00
"in1" 0.000000000000000e+00
"net13" 1.829371488949626e+00
"out" 1.168400618929137e+00
"V0:p" 9.001445680589224e-07
"V1:p" 1.121494663881958e-06
"VDD:p" -1.987315702289196e-06
"VSS:p" -3.432352965184796e-08
"vdd" 1.200000000000000e+00
"vss" 0.000000000000000e+00
"time" 3.869763753887213e-11
"in0" 1.200000000000000e+00
"in1" 0.000000000000000e+00
"net13" 1.829606973969439e+00
"out" 1.171982187380950e+00
"V0:p" 9.172917393832067e-07
"V1:p" 9.535856823102906e-07
"VDD:p" -1.929422604503936e-06
"VSS:p" 5.854518281081821e-08
"vdd" 1.200000000000000e+00
"vss" 0.000000000000000e+00
"time" 4.069763753887213e-11
"in0" 1.200000000000000e+00
"in1" 0.000000000000000e+00
"net13" 1.829812214060107e+00
"out" 1.175156854337525e+00
"V0:p" 6.964524593298033e-07
"V1:p" 8.907909627947952e-07
"VDD:p" -1.549852441139873e-06
"VSS:p" -3.739098098537519e-08
"vdd" 1.200000000000000e+00
"vss" 0.000000000000000e+00
"time" 4.269763753887213e-11
"in0" 1.200000000000000e+00
"in1" 0.000000000000000e+00
"net13" 1.829988982578259e+00
"out" 1.177971064241066e+00
"V0:p" 7.356739647327483e-07
"V1:p" 7.484804989406522e-07
"VDD:p" -1.539812289494202e-06
"VSS:p" 5.565782582139676e-08
"vdd" 1.200000000000000e+00
"vss" 0.000000000000000e+00
"time" 4.469763753887213e-11
"in0" 1.200000000000000e+00
"in1" 0.000000000000000e+00
"net13" 1.830139384332973e+00
"out" 1.180465939458824e+00
"V0:p" 5.346810690602031e-07
"V1:p" 7.084477028146370e-07
"VDD:p" -1.203064072549664e-06
"VSS:p" -4.006469932609773e-08
"vdd" 1.200000000000000e+00
"vss" 0.000000000000000e+00
"time" 4.669763753887213e-11
"in0" 1.200000000000000e+00
"in1" 0.000000000000000e+00
"net13" 1.830265642943269e+00
"out" 1.182677919661008e+00
"V0:p" 5.917093510374814e-07
"V1:p" 5.863630652720172e-07
"VDD:p" -1.231282152543571e-06
"VSS:p" 5.320973623526502e-08
"vdd" 1.200000000000000e+00
"vss" 0.000000000000000e+00
"time" 4.869763753887213e-11
"in0" 1.200000000000000e+00
"in1" 0.000000000000000e+00
"net13" 1.830369972632085e+00
"out" 1.184639305627986e+00
"V0:p" 4.066630923234399e-07
"V1:p" 5.642932600552669e-07
"VDD:p" -9.286681919664757e-07
"VSS:p" -4.228816041299012e-08
"vdd" 1.200000000000000e+00
"vss" 0.000000000000000e+00
"time" 5.069763753887213e-11
"in0" 1.200000000000000e+00
"in1" 0.000000000000000e+00
"net13" 1.830454502767614e+00
"out" 1.186378729116471e+00
"V0:p" 4.779471778147658e-07
"V1:p" 4.581566808631525e-07
"VDD:p" -9.873061202241362e-07
"VSS:p" 5.120226154730222e-08
"vdd" 1.200000000000000e+00
"vss" 0.000000000000000e+00
"time" 5.269763753887213e-11
"in0" 1.200000000000000e+00
"in1" 0.000000000000000e+00
"net13" 1.830521235697546e+00
"out" 1.187921563801896e+00
"V0:p" 3.056245270226307e-07
"V1:p" 4.502440651940778e-07
"VDD:p" -7.117760344739541e-07
"VSS:p" -4.409255774373027e-08
"vdd" 1.200000000000000e+00
"vss" 0.000000000000000e+00
"time" 5.469763753887213e-11
"in0" 1.200000000000000e+00
"in1" 0.000000000000000e+00
"net13" 1.830572025705124e+00
"out" 1.189290287987732e+00
"V0:p" 3.882479046439777e-07
"V1:p" 3.566754134559349e-07
"VDD:p" -7.945092241149596e-07
"VSS:p" 4.958590601645667e-08
"vdd" 1.200000000000000e+00
"vss" 0.000000000000000e+00
"time" 5.669763753887213e-11
"in0" 1.200000000000000e+00
"in1" 0.000000000000000e+00
"net13" 1.830608571343272e+00
"out" 1.190504806830719e+00
"V0:p" 2.260174634285362e-07
"V1:p" 3.599220033207987e-07
"VDD:p" -5.404027883824232e-07
"VSS:p" -4.553667836799589e-08
"vdd" 1.200000000000000e+00
"vss" 0.000000000000000e+00
"time" 5.869763753887214e-11
"in0" 1.200000000000000e+00
"in1" 0.000000000000000e+00
"net13" 1.830632416146655e+00
"out" 1.191582739793237e+00
"V0:p" 3.176127579435160e-07
"V1:p" 2.762647806024872e-07
"VDD:p" -6.421758288957767e-07
"VSS:p" 4.829829035123727e-08
"vdd" 1.200000000000000e+00
"vss" 0.000000000000000e+00
"time" 6.069763753887214e-11
"in0" 1.200000000000000e+00
"in1" 0.000000000000000e+00
"net13" 1.830644954454044e+00
"out" 1.192539677625871e+00
"V0:p" 1.633505410846984e-07
"V1:p" 2.883179380232730e-07
"VDD:p" -4.049855541477685e-07
"VSS:p" -4.668292496101601e-08
"vdd" 1.200000000000000e+00
"vss" 0.000000000000000e+00
"time" 6.269763753887215e-11
"in0" 1.200000000000000e+00
"in1" 0.000000000000000e+00
"net13" 1.830647440188259e+00
"out" 1.193389412228176e+00
"V0:p" 2.620170775722167e-07
"V1:p" 2.124889329002123e-07
"VDD:p" -5.217851804882594e-07
"VSS:p" 4.727917001642677e-08
"vdd" 1.200000000000000e+00
"vss" 0.000000000000000e+00
"time" 6.469763753887215e-11
"in0" 1.200000000000000e+00
"in1" 0.000000000000000e+00
"net13" 1.830640997172043e+00
"out" 1.194144142105283e+00
"V0:p" 1.140262954700108e-07
"V1:p" 2.315037044045924e-07
"VDD:p" -2.979418861226833e-07
"VSS:p" -4.758811375213672e-08
"vdd" 1.200000000000000e+00
"vss" 0.000000000000000e+00
"time" 6.669763753887216e-11
"in0" 1.200000000000000e+00
"in1" 0.000000000000000e+00
"net13" 1.830626630045830e+00
"out" 1.194814655731876e+00
"V0:p" 2.182525180952564e-07
"V1:p" 1.618682878087781e-07
"VDD:p" -4.265966325257606e-07
"VSS:p" 4.647582662221376e-08
"vdd" 1.200000000000000e+00
"vss" 0.000000000000000e+00
"time" 6.869763753887217e-11
"in0" 1.200000000000000e+00
"in1" 0.000000000000000e+00
"net13" 1.830605235183242e+00
"out" 1.195410494874427e+00
"V0:p" 7.518909793394698e-08
"V1:p" 1.863955412839967e-07
"VDD:p" -2.132840492199038e-07
"VSS:p" -4.830058999847349e-08
"vdd" 1.200000000000000e+00
"vss" 0.000000000000000e+00
"time" 7.069763753887217e-11
"in0" 1.200000000000000e+00
"in1" 0.000000000000000e+00
"net13" 1.830577611225199e+00
"out" 1.195940099748246e+00
"V0:p" 1.837816868065713e-07
"V1:p" 1.216681513937587e-07
"VDD:p" -3.512941463671439e-07
"VSS:p" 4.584430816713914e-08
"vdd" 1.200000000000000e+00
"vss" 0.000000000000000e+00
"time" 7.269763753887218e-11
"in0" 1.200000000000000e+00
"in1" 0.000000000000000e+00
"net13" 1.830544469007579e+00
"out" 1.196410937756615e+00
"V0:p" 4.458744934227221e-08
"V1:p" 1.505666160067221e-07
"VDD:p" -1.462940124737629e-07
"VSS:p" -4.886005287528552e-08
"vdd" 1.200000000000000e+00
"vss" 0.000000000000000e+00
"time" 7.469763753887218e-11
"in0" 1.200000000000000e+00
"in1" 0.000000000000000e+00
"net13" 1.830506440762182e+00
"out" 1.196829617448798e+00
"V0:p" 1.566089362014961e-07
"V1:p" 8.973336614784029e-08
"VDD:p" -2.916912342774481e-07
"VSS:p" 4.534893192805758e-08
"vdd" 1.200000000000000e+00
"vss" 0.000000000000000e+00
"time" 7.669763753887219e-11
"in0" 1.200000000000000e+00
