HEADER
"PSFversion" "1.00"
"simulator" "spectre"
"version" "19.1.0.237.isr3"
"date" "1:51:06 PM, Sat Sep 10, 2022"
"design" "// Generated for: spectre"
"analysis type" "tran"
"analysis name" "sim"
"analysis description" "Transient Analysis `sim': time = (0 s -> 100 ps)"
"xVecSorted" "ascending"
"tolerance.relative" 0.00100000
"start" 0.00000
"outputstart" 0.00000
"stop" 1.00000e-10
"step" 1.00000e-13
"istep" 0.00100000
"maxstep" 2.00000e-12
"ic" "all"
"useprevic" "no"
"skipdc" "no"
"reltol" 0.00100000
"abstol(V)" 1.00000e-06
"abstol(I)" 1.00000e-12
"temp" 27.0000
"tnom" 27.0000
"tempeffects" "all"
"errpreset" "moderate"
"method" "traponly"
"lteratio" 3.50000
"relref" "sigglobal"
"cmin" 0.00000
"gmin" 1.00000e-12
TYPE
"sweep" FLOAT DOUBLE PROP(
"key" "sweep"
)
"LogicV" FLOAT DOUBLE PROP(
"key" "node"
)
"Tau" FLOAT DOUBLE PROP(
"units" "N*m"
"key" "node"
"tolerance" 1.00000e-06
)
"Alpha" FLOAT DOUBLE PROP(
"units" "rads/s^2"
"key" "node"
"tolerance" 1.00000e-06
)
"Omega" FLOAT DOUBLE PROP(
"units" "rads/s"
"key" "node"
"tolerance" 1.00000e-06
)
"Theta" FLOAT DOUBLE PROP(
"units" "rads"
"key" "node"
"tolerance" 1.00000e-06
)
"F" FLOAT DOUBLE PROP(
"units" "N"
"key" "node"
"tolerance" 1.00000e-06
)
"Imp" FLOAT DOUBLE PROP(
"units" "m/s^3"
"key" "node"
"tolerance" 1.00000e-06
)
"Acc" FLOAT DOUBLE PROP(
"units" "m/s^2"
"key" "node"
"tolerance" 1.00000e-06
)
"Vel" FLOAT DOUBLE PROP(
"units" "m/s"
"key" "node"
"tolerance" 1.00000e-06
)
"Pos" FLOAT DOUBLE PROP(
"units" "m"
"key" "node"
"tolerance" 1.00000e-06
)
"Phi" FLOAT DOUBLE PROP(
"units" "Wb"
"key" "node"
"tolerance" 1.00000e-09
)
"V" FLOAT DOUBLE PROP(
"units" "V"
"key" "node"
"tolerance" 1.00000e-06
)
"I" FLOAT DOUBLE PROP(
"units" "A"
"key" "branch"
"tolerance" 1.00000e-12
)
"MMF" FLOAT DOUBLE PROP(
"units" "A*turn"
"key" "node"
"tolerance" 1.00000e-12
)
"Wb" FLOAT DOUBLE PROP(
"units" "Wb"
"key" "node"
"tolerance" 1.00000e-09
)
"Temp" FLOAT DOUBLE PROP(
"units" "C"
"key" "node"
"tolerance" 0.000100000
)
"Pwr" FLOAT DOUBLE PROP(
"units" "W"
"key" "node"
"tolerance" 1.00000e-09
)
"U" FLOAT DOUBLE PROP(
"units" ""
"key" "node"
"tolerance" 1.00000e-06
)
"V/Sec" FLOAT DOUBLE PROP(
"units" "V/s"
"key" "node"
"tolerance" 0.000100000
)
"I/Sec" FLOAT DOUBLE PROP(
"units" "A/s"
"key" "node"
"tolerance" 1.00000e-06
)
"1/Sec" FLOAT DOUBLE PROP(
"units" "1/s"
"key" "node"
"tolerance" 0.000100000
)
"HOD" FLOAT DOUBLE PROP(
"units" ""
"key" "node"
"tolerance" 0.0100000
)
"Q" FLOAT DOUBLE PROP(
"units" "coul"
"key" "node"
"tolerance" 1.00000e-14
)
SWEEP
"time" "sweep" PROP(
"sweep_direction" 0
"units" "s"
"plot" 0
"grid" 1
)
TRACE
"in0" "V"
"in1" "V"
"net13" "V"
"out" "V"
"V0:p" "I"
"V1:p" "I"
"VDD:p" "I"
"VSS:p" "I"
"vdd" "V"
"vss" "V"
VALUE
"time" 0.000000000000000e+00
"in0" 0.000000000000000e+00
"in1" 0.000000000000000e+00
"net13" 2.470546966412399e-02
"out" 1.199999584058010e+00
"V0:p" 2.859123199320163e-11
"V1:p" 3.016613384934715e-11
"VDD:p" -1.148585513731463e-10
"VSS:p" 5.610122483096415e-11
"vdd" 1.200000000000000e+00
"vss" 0.000000000000000e+00
"time" 1.000000000000000e-13
"in0" 0.000000000000000e+00
"in1" 0.000000000000000e+00
"net13" 2.488422810979575e-02
"out" 1.201325381331020e+00
"V0:p" 6.824365673339092e-06
"V1:p" 1.002418180362530e-05
"VDD:p" -1.713738895278763e-05
"VSS:p" 2.888414758217146e-07
"vdd" 1.200000000000000e+00
"vss" 0.000000000000000e+00
"time" 3.000000000000000e-13
"in0" 0.000000000000000e+00
"in1" 0.000000000000000e+00
"net13" 2.593593945198093e-02
"out" 1.209129006806209e+00
"V0:p" 2.012488511906457e-05
"V1:p" 2.954183901217005e-05
"VDD:p" -5.051614308498807e-05
"VSS:p" 8.494189537557277e-07
"vdd" 1.200000000000000e+00
"vss" 0.000000000000000e+00
"time" 6.901008279259856e-13
"in0" 0.000000000000000e+00
"in1" 0.000000000000000e+00
"net13" 2.924654405796031e-02
"out" 1.233752213923889e+00
"V0:p" 4.570956913338976e-05
"V1:p" 6.675902840847837e-05
"VDD:p" -1.143579478356689e-04
"VSS:p" 1.889350293798420e-06
"vdd" 1.200000000000000e+00
"vss" 0.000000000000000e+00
"time" 1.000000000000000e-12
"in0" 0.000000000000000e+00
"in1" 0.000000000000000e+00
"net13" 3.358792839070525e-02
"out" 1.266190491204605e+00
"V0:p" 6.573830845611925e-05
"V1:p" 9.520775750439482e-05
"VDD:p" -1.635686360028327e-04
"VSS:p" 2.622570042325021e-06
"vdd" 1.200000000000000e+00
"vss" 0.000000000000000e+00
"time" 1.528799868954694e-12
"in0" 0.000000000000000e+00
"in1" 0.000000000000000e+00
"net13" 4.149142593255115e-02
"out" 1.325651440941370e+00
"V0:p" 6.166397512409719e-05
"V1:p" 8.879555540616211e-05
"VDD:p" -1.528592883905670e-04
"VSS:p" 2.399757860308023e-06
"vdd" 1.200000000000000e+00
"vss" 0.000000000000000e+00
"time" 1.956305644891761e-12
"in0" 0.000000000000000e+00
"in1" 0.000000000000000e+00
"net13" 4.753254445701652e-02
"out" 1.371453338097848e+00
"V0:p" 5.968007942870222e-05
"V1:p" 8.424396625894199e-05
"VDD:p" -1.460471065153845e-04
"VSS:p" 2.123060827740400e-06
"vdd" 1.200000000000000e+00
"vss" 0.000000000000000e+00
"time" 2.611775222081943e-12
"in0" 0.000000000000000e+00
"in1" 0.000000000000000e+00
"net13" 5.588758065669608e-02
"out" 1.435308354715684e+00
"V0:p" 5.429830968573904e-05
"V1:p" 7.673513218766755e-05
"VDD:p" -1.329761996761822e-04
"VSS:p" 1.942757802775610e-06
"vdd" 1.200000000000000e+00
"vss" 0.000000000000000e+00
"time" 3.787040710698850e-12
"in0" 0.000000000000000e+00
"in1" 0.000000000000000e+00
"net13" 6.859406161179912e-02
"out" 1.533550120106483e+00
"V0:p" 4.810008175503201e-05
"V1:p" 6.598711225673253e-05
"VDD:p" -1.155762027870730e-04
"VSS:p" 1.489008775307785e-06
"vdd" 1.200000000000000e+00
"vss" 0.000000000000000e+00
"time" 4.893520355349425e-12
"in0" 0.000000000000000e+00
"in1" 0.000000000000000e+00
"net13" 7.841229129308086e-02
"out" 1.610397727988588e+00
"V0:p" 4.113172056228846e-05
"V1:p" 5.674416213120949e-05
"VDD:p" -9.918894846633576e-05
"VSS:p" 1.313065772836720e-06
"vdd" 1.200000000000000e+00
"vss" 0.000000000000000e+00
"time" 5.999999999999999e-12
"in0" 0.000000000000000e+00
"in1" 0.000000000000000e+00
"net13" 8.662368419696881e-02
"out" 1.675298309244566e+00
"V0:p" 3.705292298140320e-05
"V1:p" 4.973000552445165e-05
"VDD:p" -8.780383819127542e-05
"VSS:p" 1.020909685422163e-06
"vdd" 1.200000000000000e+00
"vss" 0.000000000000000e+00
"time" 6.588225278248122e-12
"in0" 0.000000000000000e+00
"in1" 0.000000000000000e+00
"net13" 8.940639763657007e-02
"out" 1.697412705084331e+00
"V0:p" 2.555881472983853e-05
"V1:p" 3.462464949492091e-05
"VDD:p" -6.092570935184171e-05
"VSS:p" 7.422451270823377e-07
"vdd" 1.200000000000000e+00
"vss" 0.000000000000000e+00
"time" 7.736343394629803e-12
"in0" 0.000000000000000e+00
"in1" 0.000000000000000e+00
"net13" 9.267607650957180e-02
"out" 1.723490036785750e+00
"V0:p" 5.710253705385948e-06
"V1:p" 7.598502470281336e-06
"VDD:p" -1.345890689492749e-05
"VSS:p" 1.501507192600428e-07
"vdd" 1.200000000000000e+00
"vss" 0.000000000000000e+00
"time" 9.186968949730584e-12
"in0" 0.000000000000000e+00
"in1" 0.000000000000000e+00
"net13" 9.131126343762232e-02
"out" 1.712584447851434e+00
"V0:p" -1.613004134230269e-05
"V1:p" -2.164395305205091e-05
"VDD:p" 3.821852239489269e-05
"VSS:p" -4.445280005385239e-07
"vdd" 1.200000000000000e+00
"vss" 0.000000000000000e+00
"time" 1.009348447486529e-11
"in0" 0.000000000000000e+00
"in1" 0.000000000000000e+00
"net13" 8.769614410993266e-02
"out" 1.683796098130893e+00
"V0:p" -2.736588552977321e-05
"V1:p" -3.716791975295786e-05
"VDD:p" 6.533931735643332e-05
"VSS:p" -8.055120737038728e-07
"vdd" 1.200000000000000e+00
"vss" 0.000000000000000e+00
"time" 1.100000000000000e-11
"in0" 0.000000000000000e+00
"in1" 0.000000000000000e+00
"net13" 8.217740777417577e-02
"out" 1.640064157401740e+00
"V0:p" -3.755872014832537e-05
"V1:p" -5.102351016155105e-05
"VDD:p" 8.968898678898191e-05
"VSS:p" -1.106756479105530e-06
"vdd" 1.200000000000000e+00
"vss" 0.000000000000000e+00
"time" 1.281303105026941e-11
"in0" 0.000000000000000e+00
"in1" 0.000000000000000e+00
"net13" 7.155660960034138e-02
"out" 1.556631189521727e+00
"V0:p" -2.997901126381637e-05
"V1:p" -4.107692201918546e-05
"VDD:p" 7.197932433248724e-05
"VSS:p" -9.233910494853714e-07
"vdd" 1.200000000000000e+00
"vss" 0.000000000000000e+00
"time" 1.390562564389640e-11
"in0" 0.000000000000000e+00
"in1" 0.000000000000000e+00
"net13" 6.540477528542898e-02
"out" 1.508743376601401e+00
"V0:p" -2.515618751498572e-05
"V1:p" -3.519987408812198e-05
"VDD:p" 6.121450802192336e-05
"VSS:p" -8.584464188175444e-07
"vdd" 1.200000000000000e+00
"vss" 0.000000000000000e+00
"time" 1.590562564389640e-11
"in0" 0.000000000000000e+00
"in1" 0.000000000000000e+00
"net13" 5.596429599319399e-02
"out" 1.435871283984272e+00
"V0:p" -1.919488258448371e-05
"V1:p" -2.672803217656508e-05
"VDD:p" 4.656353535065331e-05
"VSS:p" -6.406205896027807e-07
"vdd" 1.200000000000000e+00
"vss" 0.000000000000000e+00
"time" 1.790562564389640e-11
"in0" 0.000000000000000e+00
"in1" 0.000000000000000e+00
"net13" 4.858719455217143e-02
"out" 1.379455611488231e+00
"V0:p" -1.389159621445809e-05
"V1:p" -1.996750876396079e-05
"VDD:p" 3.439451919790741e-05
"VSS:p" -5.354142194907964e-07
"vdd" 1.200000000000000e+00
"vss" 0.000000000000000e+00
"time" 1.990562564389640e-11
"in0" 0.000000000000000e+00
"in1" 0.000000000000000e+00
"net13" 4.288611162052311e-02
"out" 1.336170782263155e+00
"V0:p" -1.076440130142689e-05
"V1:p" -1.513106626963240e-05
"VDD:p" 2.627167086098000e-05
"VSS:p" -3.762032899180787e-07
"vdd" 1.200000000000000e+00
"vss" 0.000000000000000e+00
"time" 2.190562564389640e-11
"in0" 0.000000000000000e+00
"in1" 0.000000000000000e+00
"net13" 3.851253492696363e-02
"out" 1.303150241223373e+00
"V0:p" -7.616154858296503e-06
"V1:p" -1.121646529857958e-05
"VDD:p" 1.915740801564678e-05
"VSS:p" -3.247878587737555e-07
"vdd" 1.200000000000000e+00
"vss" 0.000000000000000e+00
"time" 2.390562564389640e-11
"in0" 0.000000000000000e+00
"in1" 0.000000000000000e+00
"net13" 3.517402900127564e-02
"out" 1.278052720812532e+00
"V0:p" -6.103600018270066e-06
"V1:p" -8.559079788983059e-06
"VDD:p" 1.487394273587099e-05
"VSS:p" -2.112629286150110e-07
"vdd" 1.200000000000000e+00
"vss" 0.000000000000000e+00
"time" 2.590562564389640e-11
"in0" 0.000000000000000e+00
"in1" 0.000000000000000e+00
"net13" 3.263412771933598e-02
"out" 1.259021509159993e+00
"V0:p" -4.154131483633957e-06
"V1:p" -6.290960743877231e-06
"VDD:p" 1.064220063043736e-05
"VSS:p" -1.971084029288802e-07
"vdd" 1.200000000000000e+00
"vss" 0.000000000000000e+00
"time" 2.790562564389640e-11
"in0" 0.000000000000000e+00
"in1" 0.000000000000000e+00
"net13" 3.070612420914515e-02
"out" 1.244611355902442e+00
"V0:p" -3.528297035100930e-06
"V1:p" -4.868852204687847e-06
"VDD:p" 8.510337258872390e-06
"VSS:p" -1.131880190808357e-07
"vdd" 1.200000000000000e+00
"vss" 0.000000000000000e+00
"time" 2.990562564389640e-11
"in0" 0.000000000000000e+00
"in1" 0.000000000000000e+00
"net13" 2.924482037114043e-02
"out" 1.233710167884626e+00
"V0:p" -2.234517938115193e-06
"V1:p" -3.524673202478188e-06
"VDD:p" 5.881354141023001e-06
"VSS:p" -1.221630004313691e-07
"vdd" 1.200000000000000e+00
"vss" 0.000000000000000e+00
"time" 3.190562564389640e-11
"in0" 0.000000000000000e+00
"in1" 0.000000000000000e+00
"net13" 2.813839178256107e-02
"out" 1.225468237236205e+00
"V0:p" -2.094315754324497e-06
"V1:p" -2.793183406704061e-06
"VDD:p" 4.943616600355409e-06
"VSS:p" -5.611743932527863e-08
"vdd" 1.200000000000000e+00
"vss" 0.000000000000000e+00
"time" 3.390562564389640e-11
"in0" 0.000000000000000e+00
"in1" 0.000000000000000e+00
"net13" 2.730125780251428e-02
"out" 1.219239142772044e+00
"V0:p" -1.161117141255016e-06
"V1:p" -1.965545750765504e-06
"VDD:p" 3.205470669543158e-06
"VSS:p" -7.880777752421049e-08
"vdd" 1.200000000000000e+00
"vss" 0.000000000000000e+00
"time" 3.590562564389640e-11
"in0" 0.000000000000000e+00
"in1" 0.000000000000000e+00
"net13" 2.666819276139916e-02
"out" 1.214532424219049e+00
"V0:p" -1.289380456464519e-06
"V1:p" -1.620863404881894e-06
"VDD:p" 2.933479747025578e-06
"VSS:p" -2.323588567748534e-08
"vdd" 1.200000000000000e+00
"vss" 0.000000000000000e+00
"time" 3.790562564389640e-11
"in0" 0.000000000000000e+00
"in1" 0.000000000000000e+00
"net13" 2.618962131141574e-02
"out" 1.210976567155984e+00
"V0:p" -5.565893075569349e-07
"V1:p" -1.083280593488088e-06
"VDD:p" 1.693768478266618e-06
"VSS:p" -5.389857722368189e-08
"vdd" 1.200000000000000e+00
"vss" 0.000000000000000e+00
"time" 3.990562564389640e-11
"in0" 0.000000000000000e+00
"in1" 0.000000000000000e+00
"net13" 2.582793337810257e-02
"out" 1.208290446307369e+00
"V0:p" -8.348036252108972e-07
"V1:p" -9.563887528412104e-07
"VDD:p" 1.795573986590943e-06
"VSS:p" -4.381608537060181e-09
"vdd" 1.200000000000000e+00
"vss" 0.000000000000000e+00
"time" 4.190562564389640e-11
"in0" 0.000000000000000e+00
"in1" 0.000000000000000e+00
"net13" 2.555463276895214e-02
"out" 1.206261472629841e+00
"V0:p" -2.144314077462179e-07
"V1:p" -5.825275009275386e-07
"VDD:p" 8.365947308157769e-07
"VSS:p" -3.963582214364653e-08
"vdd" 1.200000000000000e+00
"vss" 0.000000000000000e+00
"time" 4.390562564389640e-11
"in0" 0.000000000000000e+00
"in1" 0.000000000000000e+00
"net13" 2.534814791626092e-02
"out" 1.204728952029676e+00
"V0:p" -5.770627915182967e-07
"V1:p" -5.788329982185729e-07
"VDD:p" 1.149492627550326e-06
"VSS:p" 6.403162188074865e-09
"vdd" 1.200000000000000e+00
"vss" 0.000000000000000e+00
"time" 4.590562564389640e-11
"in0" 0.000000000000000e+00
"in1" 0.000000000000000e+00
"net13" 2.519215949405186e-02
"out" 1.203571450569688e+00
"V0:p" -2.016271733626721e-08
"V1:p" -2.977501429886873e-07
"VDD:p" 3.493963410986482e-07
"VSS:p" -3.148348077561834e-08
"vdd" 1.200000000000000e+00
"vss" 0.000000000000000e+00
"time" 4.790562564389640e-11
"in0" 0.000000000000000e+00
"in1" 0.000000000000000e+00
"net13" 2.507432718916973e-02
"out" 1.202697219286248e+00
"V0:p" -4.305668215285962e-07
"V1:p" -3.639709523942645e-07
"VDD:p" 7.819735776702848e-07
"VSS:p" 1.256419625448607e-08
"vdd" 1.200000000000000e+00
"vss" 0.000000000000000e+00
"time" 4.990562564389639e-11
"in0" 0.000000000000000e+00
"in1" 0.000000000000000e+00
"net13" 2.498532258705851e-02
"out" 1.202036946134887e+00
"V0:p" 9.034809940762095e-08
"V1:p" -1.356011476127770e-07
"VDD:p" 7.208119683781648e-08
"VSS:p" -2.682814863416487e-08
"vdd" 1.200000000000000e+00
"vss" 0.000000000000000e+00
"time" 5.190562564389639e-11
"in0" 0.000000000000000e+00
"in1" 0.000000000000000e+00
"net13" 2.491809574577605e-02
"out" 1.201538273561179e+00
"V0:p" -3.471788387467562e-07
"V1:p" -2.415809782814268e-07
"VDD:p" 5.726784573702344e-07
"VSS:p" 1.608135965927653e-08
"vdd" 1.200000000000000e+00
"vss" 0.000000000000000e+00
"time" 5.390562564389639e-11
"in0" 0.000000000000000e+00
"in1" 0.000000000000000e+00
"net13" 2.486731961560287e-02
"out" 1.201161653598209e+00
"V0:p" 1.532832606596906e-07
"V1:p" -4.320873142052960e-08
"VDD:p" -8.590339081902041e-08
"VSS:p" -2.417113842102139e-08
"vdd" 1.200000000000000e+00
"vss" 0.000000000000000e+00
"time" 5.590562564389639e-11
"in0" 0.000000000000000e+00
"in1" 0.000000000000000e+00
"net13" 2.482896951663765e-02
"out" 1.200877215186611e+00
"V0:p" -2.996723836385747e-07
"V1:p" -1.718265620854041e-07
"VDD:p" 4.534105135413499e-07
"VSS:p" 1.808843218402519e-08
"vdd" 1.200000000000000e+00
"vss" 0.000000000000000e+00
"time" 5.790562564389639e-11
"in0" 0.000000000000000e+00
"in1" 0.000000000000000e+00
"net13" 2.480000502704645e-02
"out" 1.200662397037938e+00
"V0:p" 1.891477461474494e-07
"V1:p" 9.458591325856014e-09
"VDD:p" -1.759512359731963e-07
"VSS:p" -2.265510150089517e-08
"vdd" 1.200000000000000e+00
"vss" 0.000000000000000e+00
"time" 5.990562564389639e-11
"in0" 0.000000000000000e+00
"in1" 0.000000000000000e+00
"net13" 2.477812944336710e-02
"out" 1.200500159230648e+00
"V0:p" -2.725943852830884e-07
"V1:p" -1.320582915522659e-07
"VDD:p" 3.854191559978585e-07
"VSS:p" 1.923352083818702e-08
"vdd" 1.200000000000000e+00
"vss" 0.000000000000000e+00
"time" 6.190562564389640e-11
"in0" 0.000000000000000e+00
"in1" 0.000000000000000e+00
"net13" 2.476160795328145e-02
"out" 1.200377632187943e+00
"V0:p" 2.095932960337160e-07
"V1:p" 3.948834892850056e-08
"VDD:p" -2.272914225029342e-07
"VSS:p" -2.179022246054264e-08
"vdd" 1.200000000000000e+00
"vss" 0.000000000000000e+00
"time" 6.390562564389640e-11
"in0" 0.000000000000000e+00
"in1" 0.000000000000000e+00
"net13" 2.474913022150106e-02
"out" 1.200285096144815e+00
"V0:p" -2.571559258530534e-07
"V1:p" -1.093814878297509e-07
"VDD:p" 3.466506693611677e-07
"VSS:p" 1.988674432235490e-08
"vdd" 1.200000000000000e+00
"vss" 0.000000000000000e+00
"time" 6.590562564389641e-11
"in0" 0.000000000000000e+00
"in1" 0.000000000000000e+00
"net13" 2.473970655814225e-02
"out" 1.200215210300675e+00
"V0:p" 2.212513610560706e-07
"V1:p" 5.661305508383736e-08
"VDD:p" -2.565675501060663e-07
"VSS:p" -2.129686603390940e-08
"vdd" 1.200000000000000e+00
"vss" 0.000000000000000e+00
"time" 6.790562564389642e-11
"in0" 0.000000000000000e+00
"in1" 0.000000000000000e+00
"net13" 2.473258947238956e-02
"out" 1.200162430591581e+00
"V0:p" -2.483522893092658e-07
"V1:p" -9.644927203129580e-08
"VDD:p" 3.245422072829648e-07
"VSS:p" 2.025935405756980e-08
"vdd" 1.200000000000000e+00
"vss" 0.000000000000000e+00
"time" 6.990562564389642e-11
"in0" 0.000000000000000e+00
"in1" 0.000000000000000e+00
"net13" 2.472721441076299e-02
"out" 1.200122569941000e+00
"V0:p" 2.278996158241014e-07
"V1:p" 6.637933588024713e-08
"VDD:p" -2.732634981725050e-07
"VSS:p" -2.101545353191153e-08
"vdd" 1.200000000000000e+00
"vss" 0.000000000000000e+00
"time" 7.190562564389643e-11
"in0" 0.000000000000000e+00
"in1" 0.000000000000000e+00
"net13" 2.472315499145670e-02
"out" 1.200092466129757e+00
"V0:p" -2.433316306120684e-07
"V1:p" -8.907379108167772e-08
"VDD:p" 3.119335331569102e-07
"VSS:p" 2.047188853687634e-08
"vdd" 1.200000000000000e+00
"vss" 0.000000000000000e+00
"time" 7.390562564389643e-11
"in0" 0.000000000000000e+00
"in1" 0.000000000000000e+00
"net13" 2.472008919066428e-02
"out" 1.200069730951568e+00
"V0:p" 2.316911887133115e-07
"V1:p" 7.194933554162307e-08
"VDD:p" -2.827855847546821e-07
"VSS:p" -2.085493950094357e-08
"vdd" 1.200000000000000e+00
"vss" 0.000000000000000e+00
"time" 7.590562564389644e-11
"in0" 0.000000000000000e+00
"in1" 0.000000000000000e+00
"net13" 2.471777380250220e-02
"out" 1.200052560762508e+00
"V0:p" -2.404682281146044e-07
"V1:p" -8.486727284227103e-08
"VDD:p" 3.047423866945832e-07
"VSS:p" 2.059311426309211e-08
"vdd" 1.200000000000000e+00
"vss" 0.000000000000000e+00
"time" 7.790562564389645e-11
"in0" 0.000000000000000e+00
"in1" 0.000000000000000e+00
"net13" 2.471602514871182e-02
"out" 1.200039593399542e+00
"V0:p" 2.338536514031395e-07
"V1:p" 7.512615465677265e-08
"VDD:p" -2.882164201154649e-07
"VSS:p" -2.076338594446056e-08
"vdd" 1.200000000000000e+00
"vss" 0.000000000000000e+00
"time" 7.990562564389645e-11
"in0" 0.000000000000000e+00
"in1" 0.000000000000000e+00
"net13" 2.471470450912744e-02
"out" 1.200029800119734e+00
"V0:p" -2.388351111544416e-07
"V1:p" -8.246808756773042e-08
"VDD:p" 3.006409404415477e-07
"VSS:p" 2.066225828073262e-08
"vdd" 1.200000000000000e+00
"vss" 0.000000000000000e+00
"time" 8.190562564389646e-11
"in0" 0.000000000000000e+00
"in1" 0.000000000000000e+00
"net13" 2.471370711782205e-02
"out" 1.200022403988849e+00
"V0:p" 2.350870055563514e-07
"V1:p" 7.693806326367179e-08
"VDD:p" -2.913139024365509e-07
"VSS:p" -2.071116638267262e-08
"vdd" 1.200000000000000e+00
"vss" 0.000000000000000e+00
"time" 8.390562564389646e-11
"in0" 0.000000000000000e+00
"in1" 0.000000000000000e+00
"net13" 2.471295385239005e-02
"out" 1.200016818245729e+00
"V0:p" -2.379036608153874e-07
"V1:p" -8.109969818776171e-08
"VDD:p" 2.983016630517261e-07
"VSS:p" 2.070169595037949e-08
"vdd" 1.200000000000000e+00
"vss" 0.000000000000000e+00
"time" 8.590562564389647e-11
"in0" 0.000000000000000e+00
"in1" 0.000000000000000e+00
"net13" 2.471238495729985e-02
"out" 1.200012599753144e+00
"V0:p" 2.357904546317092e-07
"V1:p" 7.797149974239271e-08
"VDD:p" -2.930805723881732e-07
"VSS:p" -2.068138198484415e-08
"vdd" 1.200000000000000e+00
"vss" 0.000000000000000e+00
"time" 8.790562564389648e-11
