HEADER
"PSFversion" "1.00"
"simulator" "spectre"
"version" "19.1.0.237.isr3"
"date" "1:51:13 PM, Sat Sep 10, 2022"
"design" "// Generated for: spectre"
"analysis type" "tran"
"analysis name" "sim"
"analysis description" "Transient Analysis `sim': time = (0 s -> 100 ps)"
"xVecSorted" "ascending"
"tolerance.relative" 0.00100000
"start" 0.00000
"outputstart" 0.00000
"stop" 1.00000e-10
"step" 1.00000e-13
"istep" 0.00100000
"maxstep" 2.00000e-12
"ic" "all"
"useprevic" "no"
"skipdc" "no"
"reltol" 0.00100000
"abstol(V)" 1.00000e-06
"abstol(I)" 1.00000e-12
"temp" 27.0000
"tnom" 27.0000
"tempeffects" "all"
"errpreset" "moderate"
"method" "traponly"
"lteratio" 3.50000
"relref" "sigglobal"
"cmin" 0.00000
"gmin" 1.00000e-12
TYPE
"sweep" FLOAT DOUBLE PROP(
"key" "sweep"
)
"LogicV" FLOAT DOUBLE PROP(
"key" "node"
)
"Tau" FLOAT DOUBLE PROP(
"units" "N*m"
"key" "node"
"tolerance" 1.00000e-06
)
"Alpha" FLOAT DOUBLE PROP(
"units" "rads/s^2"
"key" "node"
"tolerance" 1.00000e-06
)
"Omega" FLOAT DOUBLE PROP(
"units" "rads/s"
"key" "node"
"tolerance" 1.00000e-06
)
"Theta" FLOAT DOUBLE PROP(
"units" "rads"
"key" "node"
"tolerance" 1.00000e-06
)
"F" FLOAT DOUBLE PROP(
"units" "N"
"key" "node"
"tolerance" 1.00000e-06
)
"Imp" FLOAT DOUBLE PROP(
"units" "m/s^3"
"key" "node"
"tolerance" 1.00000e-06
)
"Acc" FLOAT DOUBLE PROP(
"units" "m/s^2"
"key" "node"
"tolerance" 1.00000e-06
)
"Vel" FLOAT DOUBLE PROP(
"units" "m/s"
"key" "node"
"tolerance" 1.00000e-06
)
"Pos" FLOAT DOUBLE PROP(
"units" "m"
"key" "node"
"tolerance" 1.00000e-06
)
"Phi" FLOAT DOUBLE PROP(
"units" "Wb"
"key" "node"
"tolerance" 1.00000e-09
)
"V" FLOAT DOUBLE PROP(
"units" "V"
"key" "node"
"tolerance" 1.00000e-06
)
"I" FLOAT DOUBLE PROP(
"units" "A"
"key" "branch"
"tolerance" 1.00000e-12
)
"MMF" FLOAT DOUBLE PROP(
"units" "A*turn"
"key" "node"
"tolerance" 1.00000e-12
)
"Wb" FLOAT DOUBLE PROP(
"units" "Wb"
"key" "node"
"tolerance" 1.00000e-09
)
"Temp" FLOAT DOUBLE PROP(
"units" "C"
"key" "node"
"tolerance" 0.000100000
)
"Pwr" FLOAT DOUBLE PROP(
"units" "W"
"key" "node"
"tolerance" 1.00000e-09
)
"U" FLOAT DOUBLE PROP(
"units" ""
"key" "node"
"tolerance" 1.00000e-06
)
"V/Sec" FLOAT DOUBLE PROP(
"units" "V/s"
"key" "node"
"tolerance" 0.000100000
)
"I/Sec" FLOAT DOUBLE PROP(
"units" "A/s"
"key" "node"
"tolerance" 1.00000e-06
)
"1/Sec" FLOAT DOUBLE PROP(
"units" "1/s"
"key" "node"
"tolerance" 0.000100000
)
"HOD" FLOAT DOUBLE PROP(
"units" ""
"key" "node"
"tolerance" 0.0100000
)
"Q" FLOAT DOUBLE PROP(
"units" "coul"
"key" "node"
"tolerance" 1.00000e-14
)
SWEEP
"time" "sweep" PROP(
"sweep_direction" 0
"units" "s"
"plot" 0
"grid" 1
)
TRACE
"in0" "V"
"in1" "V"
"net13" "V"
"out" "V"
"V0:p" "I"
"V1:p" "I"
"VDD:p" "I"
"VSS:p" "I"
"vdd" "V"
"vss" "V"
VALUE
"time" 0.000000000000000e+00
"in0" 0.000000000000000e+00
"in1" 1.200000000000000e+00
"net13" 2.522254161175162e-07
"out" 1.199998608538689e+00
"V0:p" -2.292918816276842e-11
"V1:p" 3.016577400687568e-11
"VDD:p" -1.585927201598540e-10
"VSS:p" 1.513562509904299e-10
"vdd" 1.200000000000000e+00
"vss" 0.000000000000000e+00
"time" 1.000000000000000e-13
"in0" 0.000000000000000e+00
"in1" 1.200000000000000e+00
"net13" -1.889055338088746e-03
"out" 1.199876102042168e+00
"V0:p" -1.227591430352337e-05
"V1:p" -7.241427261052663e-06
"VDD:p" -7.858628297722419e-07
"VSS:p" 2.030320439434914e-05
"vdd" 1.200000000000000e+00
"vss" 0.000000000000000e+00
"time" 3.000000000000000e-13
"in0" 0.000000000000000e+00
"in1" 1.200000000000000e+00
"net13" -1.245928643659861e-02
"out" 1.199196020035748e+00
"V0:p" -3.443626504992182e-05
"V1:p" -2.022181889286418e-05
"VDD:p" -2.227106711025211e-06
"VSS:p" 5.688519065380905e-05
"vdd" 1.200000000000000e+00
"vss" 0.000000000000000e+00
"time" 6.949112826153340e-13
"in0" 0.000000000000000e+00
"in1" 1.200000000000000e+00
"net13" -4.504107693054692e-02
"out" 1.197111983409672e+00
"V0:p" -7.494030785604762e-05
"V1:p" -4.259779691402816e-05
"VDD:p" -4.777512355443514e-06
"VSS:p" 1.223156171255237e-04
"vdd" 1.200000000000000e+00
"vss" 0.000000000000000e+00
"time" 1.000000000000000e-12
"in0" 0.000000000000000e+00
"in1" 1.200000000000000e+00
"net13" -8.478243941296154e-02
"out" 1.194593887423557e+00
"V0:p" -1.021594903986950e-04
"V1:p" -5.592487041864696e-05
"VDD:p" -6.371042537364068e-06
"VSS:p" 1.644554033547000e-04
"vdd" 1.200000000000000e+00
"vss" 0.000000000000000e+00
"time" 1.520719769060671e-12
"in0" 0.000000000000000e+00
"in1" 1.200000000000000e+00
"net13" -1.447829966294999e-01
"out" 1.190979913818178e+00
"V0:p" -8.091690066618921e-05
"V1:p" -4.311065631187057e-05
"VDD:p" -5.225697654296180e-06
"VSS:p" 1.292532546323564e-04
"vdd" 1.200000000000000e+00
"vss" 0.000000000000000e+00
"time" 1.854981788429395e-12
"in0" 0.000000000000000e+00
"in1" 1.200000000000000e+00
"net13" -1.796602405270080e-01
"out" 1.188945280978751e+00
"V0:p" -7.016162299032143e-05
"V1:p" -3.474383921570621e-05
"VDD:p" -4.333447061529389e-06
"VSS:p" 1.092389092675596e-04
"vdd" 1.200000000000000e+00
"vss" 0.000000000000000e+00
"time" 2.523505827166842e-12
"in0" 0.000000000000000e+00
"in1" 1.200000000000000e+00
"net13" -2.333525706019890e-01
"out" 1.186080697135413e+00
"V0:p" -4.915610075131066e-05
"V1:p" -2.530176022732405e-05
"VDD:p" -3.486815550663214e-06
"VSS:p" 7.794467652929535e-05
"vdd" 1.200000000000000e+00
"vss" 0.000000000000000e+00
"time" 3.254910625216866e-12
"in0" 0.000000000000000e+00
"in1" 1.200000000000000e+00
"net13" -2.739503870034264e-01
"out" 1.184286203378964e+00
"V0:p" -3.543482230213860e-05
"V1:p" -1.689334095089653e-05
"VDD:p" -2.553457208755371e-06
"VSS:p" 5.488162046179399e-05
"vdd" 1.200000000000000e+00
"vss" 0.000000000000000e+00
"time" 4.183839161982027e-12
"in0" 0.000000000000000e+00
"in1" 1.200000000000000e+00
"net13" -3.079011635502787e-01
"out" 1.183193083190317e+00
"V0:p" -2.124604579130519e-05
"V1:p" -1.178581772477667e-05
"VDD:p" -2.219217549467769e-06
"VSS:p" 3.525108106554575e-05
"vdd" 1.200000000000000e+00
"vss" 0.000000000000000e+00
"time" 5.205216408621103e-12
"in0" 0.000000000000000e+00
"in1" 1.200000000000000e+00
"net13" -3.308925019050499e-01
"out" 1.182780006323384e+00
"V0:p" -1.407618589571819e-05
"V1:p" -6.613322179110609e-06
"VDD:p" -1.764785338711117e-06
"VSS:p" 2.245429341354338e-05
"vdd" 1.200000000000000e+00
"vss" 0.000000000000000e+00
"time" 5.999999999999999e-12
"in0" 0.000000000000000e+00
"in1" 1.200000000000000e+00
"net13" -3.422359534050357e-01
"out" 1.182715943143154e+00
"V0:p" -8.461948665239215e-06
"V1:p" -5.453886271313407e-06
"VDD:p" -1.873106624009042e-06
"VSS:p" 1.578894156055644e-05
"vdd" 1.200000000000000e+00
"vss" 0.000000000000000e+00
"time" 6.499690857801463e-12
"in0" 0.000000000000000e+00
"in1" 1.200000000000000e+00
"net13" -3.401262012330716e-01
"out" 1.183015569788910e+00
"V0:p" 3.507311845945987e-06
"V1:p" 2.368645676440984e-06
"VDD:p" -1.377945623343602e-06
"VSS:p" -4.498011899043997e-06
"vdd" 1.200000000000000e+00
"vss" 0.000000000000000e+00
"time" 7.381129750288364e-12
"in0" 0.000000000000000e+00
"in1" 1.200000000000000e+00
"net13" -3.259259180242245e-01
"out" 1.184044450261622e+00
"V0:p" 2.239829422197157e-05
"V1:p" 1.274870836747282e-05
"VDD:p" -5.812008457157223e-07
"VSS:p" -3.456580174372890e-05
"vdd" 1.200000000000000e+00
"vss" 0.000000000000000e+00
"time" 8.414886721535329e-12
"in0" 0.000000000000000e+00
"in1" 1.200000000000000e+00
"net13" -2.870997792920517e-01
"out" 1.186554545685853e+00
"V0:p" 3.697224895619822e-05
"V1:p" 1.965772520801223e-05
"VDD:p" 5.250793622648578e-07
"VSS:p" -5.715505352647426e-05
"vdd" 1.200000000000000e+00
"vss" 0.000000000000000e+00
"time" 9.805190304457840e-12
"in0" 0.000000000000000e+00
"in1" 1.200000000000000e+00
"net13" -2.107261539309873e-01
"out" 1.191760912739487e+00
"V0:p" 4.723379497377365e-05
"V1:p" 2.399320864415042e-05
"VDD:p" 1.843910498515258e-06
"VSS:p" -7.307091411643998e-05
"vdd" 1.200000000000000e+00
"vss" 0.000000000000000e+00
"time" 1.100000000000000e-11
"in0" 0.000000000000000e+00
"in1" 1.200000000000000e+00
"net13" -1.318451556064028e-01
"out" 1.197102098599848e+00
"V0:p" 4.932916644612135e-05
"V1:p" 2.630168861393997e-05
"VDD:p" 2.559397720298956e-06
"VSS:p" -7.819025278035898e-05
"vdd" 1.200000000000000e+00
"vss" 0.000000000000000e+00
"time" 1.164096554733920e-11
"in0" 0.000000000000000e+00
"in1" 1.200000000000000e+00
"net13" -9.843048748617476e-02
"out" 1.199262542563221e+00
"V0:p" 3.677230544028706e-05
"V1:p" 1.967092894269084e-05
"VDD:p" 2.037743399245429e-06
"VSS:p" -5.848097778222354e-05
"vdd" 1.200000000000000e+00
"vss" 0.000000000000000e+00
"time" 1.256336115888008e-11
"in0" 0.000000000000000e+00
"in1" 1.200000000000000e+00
"net13" -5.932729471577665e-02
"out" 1.202220183634682e+00
"V0:p" 2.149031202222886e-05
"V1:p" 1.301384570075208e-05
"VDD:p" 7.058341340006721e-07
"VSS:p" -3.520999185697946e-05
"vdd" 1.200000000000000e+00
"vss" 0.000000000000000e+00
"time" 1.437581590828148e-11
"in0" 0.000000000000000e+00
"in1" 1.200000000000000e+00
"net13" -2.009417064407041e-02
"out" 1.204968664479314e+00
"V0:p" 7.365063323131268e-06
"V1:p" 3.576534265263575e-06
"VDD:p" 1.031859603927006e-06
"VSS:p" -1.197345719232380e-05
"vdd" 1.200000000000000e+00
"vss" 0.000000000000000e+00
"time" 1.630575149916552e-11
"in0" 0.000000000000000e+00
"in1" 1.200000000000000e+00
"net13" -6.262657219922543e-03
"out" 1.205353157644913e+00
"V0:p" 2.053767118206826e-06
"V1:p" 1.485720840921515e-06
"VDD:p" 1.712209127399966e-07
"VSS:p" -3.710708871866612e-06
"vdd" 1.200000000000000e+00
"vss" 0.000000000000000e+00
"time" 1.784316396672898e-11
"in0" 0.000000000000000e+00
"in1" 1.200000000000000e+00
"net13" -2.592771714989566e-03
"out" 1.205048876623516e+00
"V0:p" 9.433395185026720e-07
"V1:p" -1.730654167879888e-07
"VDD:p" 7.818538879954962e-07
"VSS:p" -1.552127989711040e-06
"vdd" 1.200000000000000e+00
"vss" 0.000000000000000e+00
"time" 1.967433542070118e-11
"in0" 0.000000000000000e+00
"in1" 1.200000000000000e+00
"net13" -9.014125661623365e-04
"out" 1.204521654511743e+00
"V0:p" 1.118605224121068e-07
"V1:p" 3.823208056326134e-07
"VDD:p" 2.533189995369746e-08
"VSS:p" -5.195132279982022e-07
"vdd" 1.200000000000000e+00
"vss" 0.000000000000000e+00
"time" 2.167433542070118e-11
"in0" 0.000000000000000e+00
"in1" 1.200000000000000e+00
"net13" -3.058257254885391e-04
"out" 1.203926787498357e+00
"V0:p" 1.400004476783440e-07
"V1:p" -6.057261344080659e-07
"VDD:p" 6.585292175509802e-07
"VSS:p" -1.928035308220181e-07
"vdd" 1.200000000000000e+00
"vss" 0.000000000000000e+00
"time" 2.367433542070118e-11
"in0" 0.000000000000000e+00
"in1" 1.200000000000000e+00
"net13" -1.283194574995051e-04
"out" 1.203383415258781e+00
"V0:p" -1.414731554056794e-07
"V1:p" 2.787396201266773e-07
"VDD:p" -7.657843011831625e-08
"VSS:p" -6.068803460181374e-08
"vdd" 1.200000000000000e+00
"vss" 0.000000000000000e+00
"time" 2.567433542070118e-11
"in0" 0.000000000000000e+00
"in1" 1.200000000000000e+00
"net13" -7.170057127239420e-05
"out" 1.202907353363721e+00
"V0:p" 7.835600972786975e-08
"V1:p" -5.983362670754111e-07
"VDD:p" 5.742584038772468e-07
"VSS:p" -5.427814653068160e-08
"vdd" 1.200000000000000e+00
"vss" 0.000000000000000e+00
"time" 2.767433542070118e-11
"in0" 0.000000000000000e+00
"in1" 1.200000000000000e+00
"net13" -5.053698939231586e-05
"out" 1.202495805559085e+00
"V0:p" -1.498430149889686e-07
"V1:p" 3.127916680036126e-07
"VDD:p" -1.479396283831338e-07
"VSS:p" -1.500902463053448e-08
"vdd" 1.200000000000000e+00
"vss" 0.000000000000000e+00
"time" 2.967433542070118e-11
"in0" 0.000000000000000e+00
"in1" 1.200000000000000e+00
"net13" -4.021729692481236e-05
"out" 1.202141636438660e+00
"V0:p" 8.383273606003844e-08
"V1:p" -5.611189571528976e-07
"VDD:p" 5.133271414975496e-07
"VSS:p" -3.604092040555748e-08
"vdd" 1.200000000000000e+00
"vss" 0.000000000000000e+00
"time" 3.167433542070118e-11
"in0" 0.000000000000000e+00
"in1" 1.200000000000000e+00
"net13" -3.359796906902516e-05
"out" 1.201837340397404e+00
"V0:p" -1.415898916973544e-07
"V1:p" 3.470508876027663e-07
"VDD:p" -2.001114636030173e-07
"VSS:p" -5.349532301636097e-09
"vdd" 1.200000000000000e+00
"vss" 0.000000000000000e+00
"time" 3.367433542070118e-11
"in0" 0.000000000000000e+00
"in1" 1.200000000000000e+00
"net13" -2.855219306392617e-05
"out" 1.201576063713513e+00
"V0:p" 9.187874471237546e-08
"V1:p" -5.310337928524250e-07
"VDD:p" 4.686136474559529e-07
"VSS:p" -2.945859931666257e-08
"vdd" 1.200000000000000e+00
"vss" 0.000000000000000e+00
"time" 3.567433542070118e-11
"in0" 0.000000000000000e+00
"in1" 1.200000000000000e+00
"net13" -2.440002633547799e-05
"out" 1.201351794426613e+00
"V0:p" -1.344502154639678e-07
"V1:p" 3.730789882282922e-07
"VDD:p" -2.384445805306899e-07
"VSS:p" -1.841922328752763e-10
"vdd" 1.200000000000000e+00
"vss" 0.000000000000000e+00
"time" 3.767433542070118e-11
"in0" 0.000000000000000e+00
"in1" 1.200000000000000e+00
"net13" -2.088520590991584e-05
"out" 1.201159327036238e+00
"V0:p" 9.804168964403132e-08
"V1:p" -5.086283009736494e-07
"VDD:p" 4.357473068240752e-07
"VSS:p" -2.516069549532461e-08
"vdd" 1.200000000000000e+00
"vss" 0.000000000000000e+00
"time" 3.967433542070118e-11
"in0" 0.000000000000000e+00
"in1" 1.200000000000000e+00
"net13" -1.788112303244967e-05
"out" 1.200994174639399e+00
"V0:p" -1.291750695267064e-07
"V1:p" 3.923316975654920e-07
"VDD:p" -2.666245264082554e-07
"VSS:p" 3.467898369903128e-09
"vdd" 1.200000000000000e+00
"vss" 0.000000000000000e+00
"time" 4.167433542070118e-11
"in0" 0.000000000000000e+00
"in1" 1.200000000000000e+00
"net13" -1.530558571945602e-05
"out" 1.200852476448265e+00
"V0:p" 1.025463890623637e-07
"V1:p" -4.920963710668940e-07
"VDD:p" 4.115854171860372e-07
"VSS:p" -2.203543518226599e-08
"vdd" 1.200000000000000e+00
"vss" 0.000000000000000e+00
"time" 4.367433542070118e-11
"in0" 0.000000000000000e+00
"in1" 1.200000000000000e+00
"net13" -1.309545384000692e-05
"out" 1.200730913069521e+00
"V0:p" -1.253296827392188e-07
"V1:p" 4.065226194638164e-07
"VDD:p" -2.873412327336409e-07
"VSS:p" 6.148296009260279e-09
"vdd" 1.200000000000000e+00
"vss" 0.000000000000000e+00
"time" 4.567433542070117e-11
"in0" 0.000000000000000e+00
"in1" 1.200000000000000e+00
"net13" -1.119852779219181e-05
"out" 1.200626631907498e+00
"V0:p" 1.058298021547472e-07
"V1:p" -4.799173742367660e-07
"VDD:p" 3.938227193214154e-07
"VSS:p" -1.973514723961325e-08
"vdd" 1.200000000000000e+00
"vss" 0.000000000000000e+00
"time" 4.767433542070117e-11
"in0" 0.000000000000000e+00
"in1" 1.200000000000000e+00
"net13" -9.570483698177867e-06
"out" 1.200537182331052e+00
"V0:p" -1.225249284699517e-07
"V1:p" 4.169734371096265e-07
"VDD:p" -3.025710806988530e-07
"VSS:p" 8.122572059828897e-09
"vdd" 1.200000000000000e+00
"vss" 0.000000000000000e+00
"time" 4.967433542070117e-11
"in0" 0.000000000000000e+00
"in1" 1.200000000000000e+00
"net13" -8.173349569892092e-06
"out" 1.200460459594216e+00
"V0:p" 1.082267349037489e-07
"V1:p" -4.709505439080033e-07
"VDD:p" 3.807645942734670e-07
"VSS:p" -1.804078526986264e-08
"vdd" 1.200000000000000e+00
"vss" 0.000000000000000e+00
"time" 5.167433542070117e-11
"in0" 0.000000000000000e+00
"in1" 1.200000000000000e+00
"net13" -6.974507634139878e-06
"out" 1.200394656428566e+00
"V0:p" -1.204756727870030e-07
"V1:p" 4.246662517877025e-07
"VDD:p" -3.137671328878096e-07
"VSS:p" 9.576553887977144e-09
"vdd" 1.200000000000000e+00
"vss" 0.000000000000000e+00
"time" 5.367433542070117e-11
"in0" 0.000000000000000e+00
"in1" 1.200000000000000e+00
"net13" -5.945921863068416e-06
"out" 1.200338221305140e+00
"V0:p" 1.099793950669051e-07
"V1:p" -4.643512863873048e-07
"VDD:p" 3.711651069607389e-07
"VSS:p" -1.679321564131469e-08
"vdd" 1.200000000000000e+00
"vss" 0.000000000000000e+00
"time" 5.567433542070117e-11
"in0" 0.000000000000000e+00
"in1" 1.200000000000000e+00
"net13" -5.063495188160234e-06
"out" 1.200289822475296e+00
"V0:p" -1.189761881196914e-07
"V1:p" 4.303269920927679e-07
"VDD:p" -3.219977114467306e-07
"VSS:p" 1.064690747473846e-08
"vdd" 1.200000000000000e+00
"vss" 0.000000000000000e+00
"time" 5.767433542070117e-11
"in0" 0.000000000000000e+00
"in1" 1.200000000000000e+00
"net13" -4.306520739536243e-06
"out" 1.200248317009922e+00
"V0:p" 1.112626462909154e-07
"V1:p" -4.594958985529340e-07
"VDD:p" 3.641082383979306e-07
"VSS:p" -1.587498613775520e-08
"vdd" 1.200000000000000e+00
"vss" 0.000000000000000e+00
"time" 5.967433542070118e-11
"in0" 0.000000000000000e+00
"in1" 1.200000000000000e+00
"net13" -3.657209554021512e-06
"out" 1.200212724156634e+00
"V0:p" -1.178777113173942e-07
"V1:p" 4.344913765079634e-07
"VDD:p" -3.280482376205897e-07
"VSS:p" 1.143457243164641e-08
"vdd" 1.200000000000000e+00
"vss" 0.000000000000000e+00
"time" 6.167433542070118e-11
"in0" 0.000000000000000e+00
"in1" 1.200000000000000e+00
"net13" -3.100283252918630e-06
"out" 1.200182202423591e+00
"V0:p" 1.122031608494174e-07
"V1:p" -4.559243456812070e-07
"VDD:p" 3.589205509439728e-07
"VSS:p" -1.519936611380942e-08
"vdd" 1.200000000000000e+00
"vss" 0.000000000000000e+00
"time" 6.367433542070119e-11
"in0" 0.000000000000000e+00
"in1" 1.200000000000000e+00
"net13" -2.622622709047087e-06
"out" 1.200156029876895e+00
"V0:p" -1.170722900680843e-07
"V1:p" 4.375543661411213e-07
"VDD:p" -3.324961280608616e-07
"VSS:p" 1.201405198945083e-08
"vdd" 1.200000000000000e+00
"vss" 0.000000000000000e+00
"time" 6.567433542070120e-11
"in0" 0.000000000000000e+00
"in1" 1.200000000000000e+00
"net13" -2.212965156914342e-06
"out" 1.200133587207129e+00
"V0:p" 1.128930075071798e-07
"V1:p" -4.532975967100505e-07
"VDD:p" 3.551069605845146e-07
"VSS:p" -1.470237138402950e-08
"vdd" 1.200000000000000e+00
"vss" 0.000000000000000e+00
"time" 6.767433542070120e-11
"in0" 0.000000000000000e+00
"in1" 1.200000000000000e+00
"net13" -1.861643220623516e-06
"out" 1.200114343180518e+00
"V0:p" -1.164813488034866e-07
"V1:p" 4.398069363048736e-07
"VDD:p" -3.357658719248225e-07
"VSS:p" 1.244028442582133e-08
"vdd" 1.200000000000000e+00
"vss" 0.000000000000000e+00
"time" 6.967433542070121e-11
"in0" 0.000000000000000e+00
"in1" 1.200000000000000e+00
"net13" -1.560360195734810e-06
"out" 1.200097842142421e+00
"V0:p" 1.133992865032607e-07
"V1:p" -4.513659547585989e-07
"VDD:p" 3.523035080901739e-07
"VSS:p" -1.433683983657033e-08
"vdd" 1.200000000000000e+00
"vss" 0.000000000000000e+00
"time" 7.167433542070121e-11
"in0" 0.000000000000000e+00
"in1" 1.200000000000000e+00
"net13" -1.301996660831063e-06
"out" 1.200083693286268e+00
"V0:p" -1.160475563458660e-07
"V1:p" 4.414633356985502e-07
"VDD:p" -3.381695288439946e-07
"VSS:p" 1.275374949347846e-08
"vdd" 1.200000000000000e+00
"vss" 0.000000000000000e+00
"time" 7.367433542070122e-11
"in0" 0.000000000000000e+00
"in1" 1.200000000000000e+00
"net13" -1.080444127540082e-06
"out" 1.200071561440496e+00
"V0:p" 1.137710050180908e-07
"V1:p" -4.499456059785872e-07
"VDD:p" 3.502426333416647e-07
"VSS:p" -1.406803238366232e-08
"vdd" 1.200000000000000e+00
"vss" 0.000000000000000e+00
"time" 7.567433542070123e-11
"in0" 0.000000000000000e+00
"in1" 1.200000000000000e+00
"net13" -8.904620142257489e-07
"out" 1.200061159160211e+00
"V0:p" -1.157290038868977e-07
"V1:p" 4.426812525358366e-07
"VDD:p" -3.399365045599500e-07
"VSS:p" 1.298425591307124e-08
"vdd" 1.200000000000000e+00
"vss" 0.000000000000000e+00
"time" 7.767433542070123e-11
"in0" 0.000000000000000e+00
"in1" 1.200000000000000e+00
"net13" -7.275547193879067e-07
"out" 1.200052239939905e+00
"V0:p" 1.140440143599622e-07
"V1:p" -4.489012850478006e-07
"VDD:p" 3.487276444472652e-07
"VSS:p" -1.387037376148709e-08
"vdd" 1.200000000000000e+00
"vss" 0.000000000000000e+00
"time" 7.967433542070124e-11
"in0" 0.000000000000000e+00
"in1" 1.200000000000000e+00
"net13" -5.878660035724117e-07
"out" 1.200044592389098e+00
"V0:p" -1.154950126026638e-07
"V1:p" 4.435767099319814e-07
"VDD:p" -3.412354419550592e-07
"VSS:p" 1.315374462747650e-08
"vdd" 1.200000000000000e+00
"vss" 0.000000000000000e+00
"time" 8.167433542070124e-11
"in0" 0.000000000000000e+00
"in1" 1.200000000000000e+00
"net13" -4.680882735885857e-07
"out" 1.200038035234921e+00
"V0:p" 1.142445741656019e-07
"V1:p" -4.481334795228307e-07
"VDD:p" 3.476139478107170e-07
"VSS:p" -1.372504245587293e-08
"vdd" 1.200000000000000e+00
