HEADER
"PSFversion" "1.00"
"simulator" "spectre"
"version" "19.1.0.237.isr3"
"date" "4:09:50 PM, Tue Aug 30, 2022"
"design" "// Generated for: spectre"
"analysis type" "tran"
"analysis name" "sim"
"analysis description" "Transient Analysis `sim': time = (0 s -> 100 ps)"
"xVecSorted" "ascending"
"tolerance.relative" 0.00100000
"start" 0.00000
"outputstart" 0.00000
"stop" 1.00000e-10
"step" 1.00000e-13
"istep" 0.00100000
"maxstep" 2.00000e-12
"ic" "all"
"useprevic" "no"
"skipdc" "no"
"reltol" 0.00100000
"abstol(V)" 1.00000e-06
"abstol(I)" 1.00000e-12
"temp" 27.0000
"tnom" 27.0000
"tempeffects" "all"
"errpreset" "moderate"
"method" "traponly"
"lteratio" 3.50000
"relref" "sigglobal"
"cmin" 0.00000
"gmin" 1.00000e-12
TYPE
"sweep" FLOAT DOUBLE PROP(
"key" "sweep"
)
"LogicV" FLOAT DOUBLE PROP(
"key" "node"
)
"Tau" FLOAT DOUBLE PROP(
"units" "N*m"
"key" "node"
"tolerance" 1.00000e-06
)
"Alpha" FLOAT DOUBLE PROP(
"units" "rads/s^2"
"key" "node"
"tolerance" 1.00000e-06
)
"Omega" FLOAT DOUBLE PROP(
"units" "rads/s"
"key" "node"
"tolerance" 1.00000e-06
)
"Theta" FLOAT DOUBLE PROP(
"units" "rads"
"key" "node"
"tolerance" 1.00000e-06
)
"F" FLOAT DOUBLE PROP(
"units" "N"
"key" "node"
"tolerance" 1.00000e-06
)
"Imp" FLOAT DOUBLE PROP(
"units" "m/s^3"
"key" "node"
"tolerance" 1.00000e-06
)
"Acc" FLOAT DOUBLE PROP(
"units" "m/s^2"
"key" "node"
"tolerance" 1.00000e-06
)
"Vel" FLOAT DOUBLE PROP(
"units" "m/s"
"key" "node"
"tolerance" 1.00000e-06
)
"Pos" FLOAT DOUBLE PROP(
"units" "m"
"key" "node"
"tolerance" 1.00000e-06
)
"Phi" FLOAT DOUBLE PROP(
"units" "Wb"
"key" "node"
"tolerance" 1.00000e-09
)
"V" FLOAT DOUBLE PROP(
"units" "V"
"key" "node"
"tolerance" 1.00000e-06
)
"I" FLOAT DOUBLE PROP(
"units" "A"
"key" "branch"
"tolerance" 1.00000e-12
)
"MMF" FLOAT DOUBLE PROP(
"units" "A*turn"
"key" "node"
"tolerance" 1.00000e-12
)
"Wb" FLOAT DOUBLE PROP(
"units" "Wb"
"key" "node"
"tolerance" 1.00000e-09
)
"Temp" FLOAT DOUBLE PROP(
"units" "C"
"key" "node"
"tolerance" 0.000100000
)
"Pwr" FLOAT DOUBLE PROP(
"units" "W"
"key" "node"
"tolerance" 1.00000e-09
)
"U" FLOAT DOUBLE PROP(
"units" ""
"key" "node"
"tolerance" 1.00000e-06
)
"V/Sec" FLOAT DOUBLE PROP(
"units" "V/s"
"key" "node"
"tolerance" 0.000100000
)
"I/Sec" FLOAT DOUBLE PROP(
"units" "A/s"
"key" "node"
"tolerance" 1.00000e-06
)
"1/Sec" FLOAT DOUBLE PROP(
"units" "1/s"
"key" "node"
"tolerance" 0.000100000
)
"HOD" FLOAT DOUBLE PROP(
"units" ""
"key" "node"
"tolerance" 0.0100000
)
"Q" FLOAT DOUBLE PROP(
"units" "coul"
"key" "node"
"tolerance" 1.00000e-14
)
SWEEP
"time" "sweep" PROP(
"sweep_direction" 0
"units" "s"
"plot" 0
"grid" 1
)
TRACE
"GND:p" "I"
"in0" "V"
"in1" "V"
"net13" "V"
"out" "V"
"V0:p" "I"
"V1:p" "I"
"VDD:p" "I"
"vdd" "V"
"vss" "V"
VALUE
"time" 0.000000000000000e+00
"GND:p" 1.513562509904299e-10
"in0" 0.000000000000000e+00
"in1" 1.200000000000000e+00
"net13" 2.522254161175162e-07
"out" 1.199998608538689e+00
"V0:p" 3.016577400687568e-11
"V1:p" -2.292918816276842e-11
"VDD:p" -1.585927201598540e-10
"vdd" 1.200000000000000e+00
"vss" 0.000000000000000e+00
"time" 1.000000000000000e-13
"GND:p" 1.464834700222866e-06
"in0" 0.000000000000000e+00
"in1" 1.200000000000000e+00
"net13" 3.922312847560048e-04
"out" 1.199680822080941e+00
"V0:p" -9.993532852168523e-07
"V1:p" 1.572167755413714e-06
"VDD:p" -2.037649170419729e-06
"vdd" 1.200000000000000e+00
"vss" 0.000000000000000e+00
"time" 3.000000000000000e-13
"GND:p" 5.011408013066032e-06
"in0" 0.000000000000000e+00
"in1" 1.200000000000000e+00
"net13" 2.629022535519586e-03
"out" 1.197773717193774e+00
"V0:p" -3.188638319802903e-06
"V1:p" 4.401297754477534e-06
"VDD:p" -6.224067447742399e-06
"vdd" 1.200000000000000e+00
"vss" 0.000000000000000e+00
"time" 7.000000000000000e-13
"GND:p" 1.321353126900121e-05
"in0" 0.000000000000000e+00
"in1" 1.200000000000000e+00
"net13" 9.802980131572742e-03
"out" 1.191356785295237e+00
"V0:p" -8.079127360717481e-06
"V1:p" 9.704215804686037e-06
"VDD:p" -1.483861971296673e-05
"vdd" 1.200000000000000e+00
"vss" 0.000000000000000e+00
"time" 1.238001467285061e-12
"GND:p" 2.732600599654803e-05
"in0" 0.000000000000000e+00
"in1" 1.200000000000000e+00
"net13" 2.722181358830420e-02
"out" 1.174399265515285e+00
"V0:p" -1.569724606579743e-05
"V1:p" 1.543219571197434e-05
"VDD:p" -2.706095564272754e-05
"vdd" 1.200000000000000e+00
"vss" 0.000000000000000e+00
"time" 2.072073810913633e-12
"GND:p" 5.421921631111109e-05
"in0" 0.000000000000000e+00
"in1" 1.200000000000000e+00
"net13" 6.885999971710735e-02
"out" 1.129041743805473e+00
"V0:p" -2.791411452072038e-05
"V1:p" 2.075086231475551e-05
"VDD:p" -4.705596410514297e-05
"vdd" 1.200000000000000e+00
"vss" 0.000000000000000e+00
"time" 3.323132951462524e-12
"GND:p" 1.008022173151050e-04
"in0" 0.000000000000000e+00
"in1" 1.200000000000000e+00
"net13" 1.598404007594647e-01
"out" 1.016342197332060e+00
"V0:p" -4.401598437523369e-05
"V1:p" 2.189908873973119e-05
"VDD:p" -7.868532167960553e-05
"vdd" 1.200000000000000e+00
"vss" 0.000000000000000e+00
"time" 4.161566475731262e-12
"GND:p" 1.322918729271463e-04
"in0" 0.000000000000000e+00
"in1" 1.200000000000000e+00
"net13" 2.406078745988130e-01
"out" 9.062561942721264e-01
"V0:p" -4.785173713013320e-05
"V1:p" 1.529180997381144e-05
"VDD:p" -9.973194577082216e-05
"vdd" 1.200000000000000e+00
"vss" 0.000000000000000e+00
"time" 5.000000000000000e-12
"GND:p" 1.605817927823548e-04
"in0" 0.000000000000000e+00
"in1" 1.200000000000000e+00
"net13" 3.411072083386021e-01
"out" 7.579676745638767e-01
"V0:p" -4.440119464365116e-05
"V1:p" 2.083645955889982e-06
"VDD:p" -1.182642440945975e-04
"vdd" 1.200000000000000e+00
"vss" 0.000000000000000e+00
"time" 5.494032350768113e-12
"GND:p" 1.700720453286931e-04
"in0" 0.000000000000000e+00
"in1" 1.200000000000000e+00
"net13" 4.005790024024105e-01
"out" 6.559171652307648e-01
"V0:p" -4.550582765247548e-05
"V1:p" -5.250019946288582e-06
"VDD:p" -1.193161977299295e-04
"vdd" 1.200000000000000e+00
"vss" 0.000000000000000e+00
"time" 5.999999999999999e-12
"GND:p" 1.745079749168432e-04
"in0" 0.000000000000000e+00
"in1" 1.200000000000000e+00
"net13" 4.581652574756440e-01
"out" 5.491052090418889e-01
"V0:p" -4.250781377363720e-05
"V1:p" -1.644919600814863e-05
"VDD:p" -1.155509651350568e-04
"vdd" 1.200000000000000e+00
"vss" 0.000000000000000e+00
"time" 6.314302354590519e-12
"GND:p" 1.767366320433242e-04
"in0" 0.000000000000000e+00
"in1" 1.200000000000000e+00
"net13" 4.847001767458953e-01
"out" 4.870142770009930e-01
"V0:p" -4.779859147515698e-05
"V1:p" -1.666511164922340e-05
"VDD:p" -1.122729289189435e-04
"vdd" 1.200000000000000e+00
"vss" 0.000000000000000e+00
"time" 6.820250677723492e-12
"GND:p" 1.781371643420546e-04
"in0" 0.000000000000000e+00
"in1" 1.200000000000000e+00
"net13" 5.221603461842940e-01
"out" 3.933130779886546e-01
"V0:p" -5.966754373295551e-05
"V1:p" -1.761546090094972e-05
"VDD:p" -1.008541597081499e-04
"vdd" 1.200000000000000e+00
"vss" 0.000000000000000e+00
"time" 7.368808798229207e-12
"GND:p" 1.776116273642359e-04
"in0" 0.000000000000000e+00
"in1" 1.200000000000000e+00
"net13" 5.493510486882621e-01
"out" 3.054821525978854e-01
"V0:p" -6.506104221067401e-05
"V1:p" -1.929918582785695e-05
"VDD:p" -9.325139932570460e-05
"vdd" 1.200000000000000e+00
"vss" 0.000000000000000e+00
"time" 8.089471233799138e-12
"GND:p" 1.718948549711329e-04
"in0" 0.000000000000000e+00
"in1" 1.200000000000000e+00
"net13" 5.585610815288722e-01
"out" 2.103995429680886e-01
"V0:p" -6.653466442880936e-05
"V1:p" -2.474935183554165e-05
"VDD:p" -8.061083870678484e-05
"vdd" 1.200000000000000e+00
"vss" 0.000000000000000e+00
"time" 9.049932912094105e-12
"GND:p" 1.603495436431705e-04
"in0" 0.000000000000000e+00
"in1" 1.200000000000000e+00
"net13" 5.217396820400799e-01
"out" 1.181314827504871e-01
"V0:p" -6.079735379586659e-05
"V1:p" -3.051829221868761e-05
"VDD:p" -6.903389762861383e-05
"vdd" 1.200000000000000e+00
"vss" 0.000000000000000e+00
"time" 1.002496645604705e-11
"GND:p" 1.389844533709215e-04
"in0" 0.000000000000000e+00
"in1" 1.200000000000000e+00
"net13" 4.344373776388419e-01
"out" 6.566761846977530e-02
"V0:p" -5.043472043341475e-05
"V1:p" -3.505655137776561e-05
"VDD:p" -5.349318155974301e-05
"vdd" 1.200000000000000e+00
"vss" 0.000000000000000e+00
"time" 1.100000000000000e-11
"GND:p" 1.055882690219200e-04
"in0" 0.000000000000000e+00
"in1" 1.200000000000000e+00
"net13" 3.181628856718213e-01
"out" 5.918870637899719e-02
"V0:p" -2.965313142350541e-05
"V1:p" -3.654673247416804e-05
"VDD:p" -3.938840512424386e-05
"vdd" 1.200000000000000e+00
"vss" 0.000000000000000e+00
"time" 1.149725616240557e-11
"GND:p" 9.224857740199356e-05
"in0" 0.000000000000000e+00
"in1" 1.200000000000000e+00
"net13" 2.663106473786198e-01
"out" 7.042714207125407e-02
"V0:p" -2.186901113724876e-05
"V1:p" -3.319891359295605e-05
"VDD:p" -3.718065267178896e-05
"vdd" 1.200000000000000e+00
"vss" 0.000000000000000e+00
"time" 1.214970710447607e-11
"GND:p" 7.502001586392997e-05
"in0" 0.000000000000000e+00
"in1" 1.200000000000000e+00
"net13" 2.096508097497361e-01
"out" 8.733451417971891e-02
"V0:p" -9.705935757458624e-06
"V1:p" -3.039970062836912e-05
"VDD:p" -3.491437947810111e-05
"vdd" 1.200000000000000e+00
"vss" 0.000000000000000e+00
"time" 1.286159435484513e-11
"GND:p" 6.256284810228273e-05
"in0" 0.000000000000000e+00
"in1" 1.200000000000000e+00
"net13" 1.630634235147870e-01
"out" 1.084470199167086e-01
"V0:p" -6.882412451882624e-06
"V1:p" -2.121586013370819e-05
"VDD:p" -3.446457551669256e-05
"vdd" 1.200000000000000e+00
"vss" 0.000000000000000e+00
"time" 1.428536885558326e-11
"GND:p" 4.008992558862978e-05
"in0" 0.000000000000000e+00
"in1" 1.200000000000000e+00
"net13" 9.998132117512351e-02
"out" 1.556192356331252e-01
"V0:p" 5.133138274059940e-06
"V1:p" -1.313109834533004e-05
"VDD:p" -3.209196551735872e-05
"vdd" 1.200000000000000e+00
"vss" 0.000000000000000e+00
"time" 1.540111804851857e-11
"GND:p" 2.986535299890553e-05
"in0" 0.000000000000000e+00
"in1" 1.200000000000000e+00
"net13" 6.924252884144981e-02
"out" 1.953753432124099e-01
"V0:p" 6.719527173436411e-06
"V1:p" -4.537829607263341e-06
"VDD:p" -3.204705056507880e-05
"vdd" 1.200000000000000e+00
"vss" 0.000000000000000e+00
"time" 1.681767607766643e-11
"GND:p" 1.906777927364453e-05
"in0" 0.000000000000000e+00
"in1" 1.200000000000000e+00
"net13" 4.442934366112618e-02
"out" 2.476232542531369e-01
"V0:p" 1.320226351576298e-05
"V1:p" -1.888759356054461e-06
"VDD:p" -3.038128343335234e-05
"vdd" 1.200000000000000e+00
"vss" 0.000000000000000e+00
"time" 1.844727672573756e-11
"GND:p" 1.361177492136597e-05
"in0" 0.000000000000000e+00
"in1" 1.200000000000000e+00
"net13" 2.816571369043043e-02
"out" 3.088634299164523e-01
"V0:p" 1.249422112384056e-05
"V1:p" 4.319080069606463e-06
"VDD:p" -3.042507611481429e-05
"vdd" 1.200000000000000e+00
"vss" 0.000000000000000e+00
"time" 2.044727672573756e-11
"GND:p" 8.233366979560148e-06
"in0" 0.000000000000000e+00
"in1" 1.200000000000000e+00
"net13" 1.795267943822600e-02
"out" 3.842384852342586e-01
"V0:p" 1.661868890068159e-05
"V1:p" 3.933611554445874e-06
"VDD:p" -2.878566743468649e-05
"vdd" 1.200000000000000e+00
"vss" 0.000000000000000e+00
"time" 2.244727672573756e-11
"GND:p" 7.296538938569796e-06
"in0" 0.000000000000000e+00
"in1" 1.200000000000000e+00
"net13" 1.318375573446012e-02
"out" 4.587756034777197e-01
"V0:p" 1.401037675202292e-05
"V1:p" 7.460907584445982e-06
"VDD:p" -2.876782327504006e-05
"vdd" 1.200000000000000e+00
"vss" 0.000000000000000e+00
"time" 2.444727672573756e-11
"GND:p" 5.127902742984147e-06
"in0" 0.000000000000000e+00
"in1" 1.200000000000000e+00
"net13" 1.082016024898825e-02
"out" 5.315004684331758e-01
"V0:p" 1.672841058751517e-05
"V1:p" 5.084748569807526e-06
"VDD:p" -2.694106190030457e-05
"vdd" 1.200000000000000e+00
"vss" 0.000000000000000e+00
"time" 2.644727672573756e-11
"GND:p" 5.600079399245152e-06
"in0" 0.000000000000000e+00
"in1" 1.200000000000000e+00
"net13" 9.475797514826261e-03
"out" 6.013817945159999e-01
"V0:p" 1.328929193439509e-05
"V1:p" 7.580414082985120e-06
"VDD:p" -2.646978541662778e-05
"vdd" 1.200000000000000e+00
"vss" 0.000000000000000e+00
"time" 2.844727672573756e-11
"GND:p" 4.002886724054348e-06
"in0" 0.000000000000000e+00
"in1" 1.200000000000000e+00
"net13" 8.527364413738463e-03
"out" 6.673104082660460e-01
"V0:p" 1.547303827203134e-05
"V1:p" 4.612147016555230e-06
"VDD:p" -2.408807201263897e-05
"vdd" 1.200000000000000e+00
"vss" 0.000000000000000e+00
"time" 3.044727672573756e-11
"GND:p" 4.671481076797739e-06
"in0" 0.000000000000000e+00
"in1" 1.200000000000000e+00
"net13" 7.703358759482401e-03
"out" 7.282077460232117e-01
"V0:p" 1.174058869652061e-05
"V1:p" 6.730229196021122e-06
"VDD:p" -2.314229896934153e-05
"vdd" 1.200000000000000e+00
"vss" 0.000000000000000e+00
"time" 3.244727672573756e-11
"GND:p" 3.117729144989294e-06
"in0" 0.000000000000000e+00
"in1" 1.200000000000000e+00
"net13" 6.898133368143138e-03
"out" 7.831951915395480e-01
"V0:p" 1.384266643648042e-05
"V1:p" 3.519920884090552e-06
"VDD:p" -2.048031646555777e-05
"vdd" 1.200000000000000e+00
"vss" 0.000000000000000e+00
"time" 3.444727672573756e-11
"GND:p" 3.793280005851132e-06
"in0" 0.000000000000000e+00
"in1" 1.200000000000000e+00
"net13" 6.097441132982538e-03
"out" 8.319038710729234e-01
"V0:p" 1.014495087442701e-05
"V1:p" 5.547812372109960e-06
"VDD:p" -1.948604325239028e-05
"vdd" 1.200000000000000e+00
"vss" 0.000000000000000e+00
"time" 3.644727672573756e-11
"GND:p" 2.272718828424837e-06
"in0" 0.000000000000000e+00
"in1" 1.200000000000000e+00
"net13" 5.335318964351468e-03
"out" 8.746397694638165e-01
"V0:p" 1.227614263582654e-05
"V1:p" 2.407730137396805e-06
"VDD:p" -1.695659160164585e-05
"vdd" 1.200000000000000e+00
"vss" 0.000000000000000e+00
"time" 3.844727672573756e-11
"GND:p" 3.020921433326771e-06
"in0" 0.000000000000000e+00
"in1" 1.200000000000000e+00
"net13" 4.648039618645901e-03
"out" 9.121128267052958e-01
"V0:p" 8.567928338168756e-06
"V1:p" 4.587523632039139e-06
"VDD:p" -1.617637340353683e-05
"vdd" 1.200000000000000e+00
"vss" 0.000000000000000e+00
"time" 4.044727672573756e-11
"GND:p" 1.594345336404110e-06
"in0" 0.000000000000000e+00
"in1" 1.200000000000000e+00
"net13" 4.050173760098203e-03
"out" 9.450772699742463e-01
"V0:p" 1.068431432368879e-05
"V1:p" 1.596659017117693e-06
"VDD:p" -1.387531867720853e-05
"vdd" 1.200000000000000e+00
"vss" 0.000000000000000e+00
"time" 4.244727672573756e-11
"GND:p" 2.437069040834799e-06
"in0" 0.000000000000000e+00
"in1" 1.200000000000000e+00
"net13" 3.538065909245295e-03
"out" 9.741765426859335e-01
"V0:p" 6.985436393297107e-06
"V1:p" 3.894421564551307e-06
"VDD:p" -1.331692699868516e-05
"vdd" 1.200000000000000e+00
"vss" 0.000000000000000e+00
"time" 4.444727672573756e-11
"GND:p" 1.094481855882022e-06
"in0" 0.000000000000000e+00
"in1" 1.200000000000000e+00
"net13" 3.100249061379593e-03
"out" 9.999296950338222e-01
"V0:p" 9.141227834392611e-06
"V1:p" 9.935883715416551e-07
"VDD:p" -1.122929806181455e-05
"vdd" 1.200000000000000e+00
"vss" 0.000000000000000e+00
"time" 4.644727672573756e-11
"GND:p" 2.007835261932256e-06
"in0" 0.000000000000000e+00
"in1" 1.200000000000000e+00
"net13" 2.724185375593582e-03
"out" 1.022757554749664e+00
"V0:p" 5.506753156200806e-06
"V1:p" 3.362450908683599e-06
"VDD:p" -1.087703932681850e-05
"vdd" 1.200000000000000e+00
"vss" 0.000000000000000e+00
"time" 4.844727672573756e-11
"GND:p" 7.236206447185457e-07
"in0" 0.000000000000000e+00
"in1" 1.200000000000000e+00
"net13" 2.398971590691419e-03
"out" 1.043009191101488e+00
"V0:p" 7.744314045077275e-06
"V1:p" 5.204809578001825e-07
"VDD:p" -8.988415647594704e-06
"vdd" 1.200000000000000e+00
"vss" 0.000000000000000e+00
"time" 5.044727672573756e-11
"GND:p" 1.685324427358604e-06
"in0" 0.000000000000000e+00
"in1" 1.200000000000000e+00
"net13" 2.115894203833910e-03
"out" 1.060980983867396e+00
"V0:p" 4.202020591585496e-06
"V1:p" 2.939941207957682e-06
"VDD:p" -8.827286226903306e-06
"vdd" 1.200000000000000e+00
"vss" 0.000000000000000e+00
"time" 5.244727672573756e-11
"GND:p" 4.415965859173163e-07
"in0" 0.000000000000000e+00
"in1" 1.200000000000000e+00
"net13" 1.868172934925830e-03
"out" 1.076929266014817e+00
"V0:p" 6.536705539193149e-06
"V1:p" 1.425298880961068e-07
"VDD:p" -7.120832013205380e-06
"vdd" 1.200000000000000e+00
"vss" 0.000000000000000e+00
"time" 5.444727672573756e-11
"GND:p" 1.437651226376066e-06
"in0" 0.000000000000000e+00
"in1" 1.200000000000000e+00
"net13" 1.650520354855806e-03
"out" 1.091078642997320e+00
"V0:p" 3.092463639634008e-06
"V1:p" 2.601777283147718e-06
"VDD:p" -7.131892149158982e-06
"vdd" 1.200000000000000e+00
"vss" 0.000000000000000e+00
"time" 5.644727672573755e-11
"GND:p" 2.234251545496124e-07
"in0" 0.000000000000000e+00
"in1" 1.200000000000000e+00
"net13" 1.458744480369190e-03
"out" 1.103627612046716e+00
"V0:p" 5.523310073748593e-06
"V1:p" -1.598534442312146e-07
"VDD:p" -5.586881784065687e-06
"vdd" 1.200000000000000e+00
"vss" 0.000000000000000e+00
"time" 5.844727672573755e-11
"GND:p" 1.245069402810796e-06
"in0" 0.000000000000000e+00
"in1" 1.200000000000000e+00
"net13" 1.289447734859409e-03
"out" 1.114752527670543e+00
"V0:p" 2.171446215074998e-06
"V1:p" 2.331670659636665e-06
"VDD:p" -5.748186277523866e-06
"vdd" 1.200000000000000e+00
"vss" 0.000000000000000e+00
"time" 6.044727672573756e-11
"GND:p" 5.320594439619388e-08
"in0" 0.000000000000000e+00
"in1" 1.200000000000000e+00
"net13" 1.139814887967939e-03
"out" 1.124610548869201e+00
"V0:p" 4.689684857959894e-06
"V1:p" -4.008238344225537e-07
"VDD:p" -4.342066967931909e-06
"vdd" 1.200000000000000e+00
"vss" 0.000000000000000e+00
"time" 6.244727672573757e-11
"GND:p" 1.094497232719847e-06
"in0" 0.000000000000000e+00
"in1" 1.200000000000000e+00
"net13" 1.007467984863516e-03
"out" 1.133341946030604e+00
"V0:p" 1.419531887180861e-06
"V1:p" 2.116982860530091e-06
"VDD:p" -4.631011980432750e-06
"vdd" 1.200000000000000e+00
"vss" 0.000000000000000e+00
"time" 6.444727672573757e-11
"GND:p" -8.004182598636698e-08
"in0" 0.000000000000000e+00
"in1" 1.200000000000000e+00
"net13" 8.903675311858434e-04
"out" 1.141071990830994e+00
"V0:p" 4.013470616299527e-06
"V1:p" -5.918403250642784e-07
"VDD:p" -3.341588465246930e-06
"vdd" 1.200000000000000e+00
"vss" 0.000000000000000e+00
"time" 6.644727672573758e-11
"GND:p" 9.765627250078108e-07
"in0" 0.000000000000000e+00
"in1" 1.200000000000000e+00
"net13" 7.867443076686468e-04
"out" 1.147912561107681e+00
"V0:p" 8.129370513499713e-07
"V1:p" 1.947240876328605e-06
"VDD:p" -3.736740652688123e-06
"vdd" 1.200000000000000e+00
"vss" 0.000000000000000e+00
"time" 6.844727672573758e-11
"GND:p" -1.844199203985118e-07
"in0" 0.000000000000000e+00
"in1" 1.200000000000000e+00
"net13" 6.950510906936304e-04
"out" 1.153963539022167e+00
"V0:p" 3.470524362684338e-06
"V1:p" -7.425092343946161e-07
"VDD:p" -2.543595207889367e-06
"vdd" 1.200000000000000e+00
"vss" 0.000000000000000e+00
"time" 7.044727672573759e-11
"GND:p" 8.841969495132679e-07
"in0" 0.000000000000000e+00
"in1" 1.200000000000000e+00
"net13" 6.139272607113217e-04
"out" 1.159314049475796e+00
"V0:p" 3.278984661074927e-07
"V1:p" 1.813624762780182e-06
"VDD:p" -3.025720178402680e-06
"vdd" 1.200000000000000e+00
"vss" 0.000000000000000e+00
"time" 7.244727672573760e-11
"GND:p" -2.661360490654897e-07
"in0" 0.000000000000000e+00
"in1" 1.200000000000000e+00
"net13" 5.421718238950936e-04
"out" 1.164043567572191e+00
"V0:p" 3.037958162790926e-06
"V1:p" -8.609228783638191e-07
"VDD:p" -1.910899235359557e-06
"vdd" 1.200000000000000e+00
"vss" 0.000000000000000e+00
"time" 7.444727672573760e-11
"GND:p" 8.119246282121104e-07
"in0" 0.000000000000000e+00
"in1" 1.200000000000000e+00
"net13" 4.787220375472588e-04
"out" 1.168222913593510e+00
"V0:p" -5.728186354648133e-08
"V1:p" 1.708724101787890e-06
"VDD:p" -2.463366866455472e-06
"vdd" 1.200000000000000e+00
"vss" 0.000000000000000e+00
"time" 7.644727672573761e-11
"GND:p" -3.300335686415394e-07
"in0" 0.000000000000000e+00
"in1" 1.200000000000000e+00
"net13" 4.226358935684914e-04
"out" 1.171915148303109e+00
"V0:p" 2.695445576077834e-06
"V1:p" -9.538468098479163e-07
"VDD:p" -1.411565197586861e-06
"vdd" 1.200000000000000e+00
"vss" 0.000000000000000e+00
"time" 7.844727672573761e-11
