HEADER
"PSFversion" "1.00"
"simulator" "spectre"
"version" "19.1.0.237.isr3"
"date" "1:51:10 PM, Sat Sep 10, 2022"
"design" "// Generated for: spectre"
"analysis type" "tran"
"analysis name" "sim"
"analysis description" "Transient Analysis `sim': time = (0 s -> 100 ps)"
"xVecSorted" "ascending"
"tolerance.relative" 0.00100000
"start" 0.00000
"outputstart" 0.00000
"stop" 1.00000e-10
"step" 1.00000e-13
"istep" 0.00100000
"maxstep" 2.00000e-12
"ic" "all"
"useprevic" "no"
"skipdc" "no"
"reltol" 0.00100000
"abstol(V)" 1.00000e-06
"abstol(I)" 1.00000e-12
"temp" 27.0000
"tnom" 27.0000
"tempeffects" "all"
"errpreset" "moderate"
"method" "traponly"
"lteratio" 3.50000
"relref" "sigglobal"
"cmin" 0.00000
"gmin" 1.00000e-12
TYPE
"sweep" FLOAT DOUBLE PROP(
"key" "sweep"
)
"LogicV" FLOAT DOUBLE PROP(
"key" "node"
)
"Tau" FLOAT DOUBLE PROP(
"units" "N*m"
"key" "node"
"tolerance" 1.00000e-06
)
"Alpha" FLOAT DOUBLE PROP(
"units" "rads/s^2"
"key" "node"
"tolerance" 1.00000e-06
)
"Omega" FLOAT DOUBLE PROP(
"units" "rads/s"
"key" "node"
"tolerance" 1.00000e-06
)
"Theta" FLOAT DOUBLE PROP(
"units" "rads"
"key" "node"
"tolerance" 1.00000e-06
)
"F" FLOAT DOUBLE PROP(
"units" "N"
"key" "node"
"tolerance" 1.00000e-06
)
"Imp" FLOAT DOUBLE PROP(
"units" "m/s^3"
"key" "node"
"tolerance" 1.00000e-06
)
"Acc" FLOAT DOUBLE PROP(
"units" "m/s^2"
"key" "node"
"tolerance" 1.00000e-06
)
"Vel" FLOAT DOUBLE PROP(
"units" "m/s"
"key" "node"
"tolerance" 1.00000e-06
)
"Pos" FLOAT DOUBLE PROP(
"units" "m"
"key" "node"
"tolerance" 1.00000e-06
)
"Phi" FLOAT DOUBLE PROP(
"units" "Wb"
"key" "node"
"tolerance" 1.00000e-09
)
"V" FLOAT DOUBLE PROP(
"units" "V"
"key" "node"
"tolerance" 1.00000e-06
)
"I" FLOAT DOUBLE PROP(
"units" "A"
"key" "branch"
"tolerance" 1.00000e-12
)
"MMF" FLOAT DOUBLE PROP(
"units" "A*turn"
"key" "node"
"tolerance" 1.00000e-12
)
"Wb" FLOAT DOUBLE PROP(
"units" "Wb"
"key" "node"
"tolerance" 1.00000e-09
)
"Temp" FLOAT DOUBLE PROP(
"units" "C"
"key" "node"
"tolerance" 0.000100000
)
"Pwr" FLOAT DOUBLE PROP(
"units" "W"
"key" "node"
"tolerance" 1.00000e-09
)
"U" FLOAT DOUBLE PROP(
"units" ""
"key" "node"
"tolerance" 1.00000e-06
)
"V/Sec" FLOAT DOUBLE PROP(
"units" "V/s"
"key" "node"
"tolerance" 0.000100000
)
"I/Sec" FLOAT DOUBLE PROP(
"units" "A/s"
"key" "node"
"tolerance" 1.00000e-06
)
"1/Sec" FLOAT DOUBLE PROP(
"units" "1/s"
"key" "node"
"tolerance" 0.000100000
)
"HOD" FLOAT DOUBLE PROP(
"units" ""
"key" "node"
"tolerance" 0.0100000
)
"Q" FLOAT DOUBLE PROP(
"units" "coul"
"key" "node"
"tolerance" 1.00000e-14
)
SWEEP
"time" "sweep" PROP(
"sweep_direction" 0
"units" "s"
"plot" 0
"grid" 1
)
TRACE
"in0" "V"
"in1" "V"
"net13" "V"
"out" "V"
"V0:p" "I"
"V1:p" "I"
"VDD:p" "I"
"VSS:p" "I"
"vdd" "V"
"vss" "V"
VALUE
"time" 0.000000000000000e+00
"in0" 1.200000000000000e+00
"in1" 0.000000000000000e+00
"net13" 1.175255987389764e+00
"out" 1.199998622265821e+00
"V0:p" 2.999488749051789e-11
"V1:p" -2.885339490148764e-16
"VDD:p" -1.571690853367175e-10
"VSS:p" 1.271602942602738e-10
"vdd" 1.200000000000000e+00
"vss" 0.000000000000000e+00
"time" 1.000000000000000e-13
"in0" 1.200000000000000e+00
"in1" 0.000000000000000e+00
"net13" 1.175534728885793e+00
"out" 1.201442973466562e+00
"V0:p" 7.615195359345051e-06
"V1:p" 7.162457580728826e-06
"VDD:p" -1.509585663209266e-05
"VSS:p" 3.182036920231224e-07
"vdd" 1.200000000000000e+00
"vss" 0.000000000000000e+00
"time" 3.000000000000000e-13
"in0" 1.200000000000000e+00
"in1" 0.000000000000000e+00
"net13" 1.177171977576615e+00
"out" 1.209940718666219e+00
"V0:p" 2.247652549484604e-05
"V1:p" 2.179362918326358e-05
"VDD:p" -4.520424207123940e-05
"VSS:p" 9.340873931309775e-07
"vdd" 1.200000000000000e+00
"vss" 0.000000000000000e+00
"time" 6.795710627485970e-13
"in0" 1.200000000000000e+00
"in1" 0.000000000000000e+00
"net13" 1.182088651614256e+00
"out" 1.235601503630147e+00
"V0:p" 4.986306914437127e-05
"V1:p" 5.188203046167789e-05
"VDD:p" -1.037649175471029e-04
"VSS:p" 2.019817941049963e-06
"vdd" 1.200000000000000e+00
"vss" 0.000000000000000e+00
"time" 1.000000000000000e-12
"in0" 1.200000000000000e+00
"in1" 0.000000000000000e+00
"net13" 1.188937702404613e+00
"out" 1.271695685304719e+00
"V0:p" 7.306104446223573e-05
"V1:p" 7.801369381102395e-05
"VDD:p" -1.539232560061494e-04
"VSS:p" 2.848517732895756e-06
"vdd" 1.200000000000000e+00
"vss" 0.000000000000000e+00
"time" 1.507780041461944e-12
"in0" 1.200000000000000e+00
"in1" 0.000000000000000e+00
"net13" 1.200822417105758e+00
"out" 1.335286895045161e+00
"V0:p" 7.044798739303966e-05
"V1:p" 7.782055747550010e-05
"VDD:p" -1.509288280595690e-04
"VSS:p" 2.660283191029668e-06
"vdd" 1.200000000000000e+00
"vss" 0.000000000000000e+00
"time" 1.936609668499959e-12
"in0" 1.200000000000000e+00
"in1" 0.000000000000000e+00
"net13" 1.210218690492731e+00
"out" 1.386411488099797e+00
"V0:p" 6.820989738403051e-05
"V1:p" 8.389596308979591e-05
"VDD:p" -1.544158644413077e-04
"VSS:p" 2.310003967482379e-06
"vdd" 1.200000000000000e+00
"vss" 0.000000000000000e+00
"time" 2.515154187565365e-12
"in0" 1.200000000000000e+00
"in1" 0.000000000000000e+00
"net13" 1.221817901068132e+00
"out" 1.450566298909393e+00
"V0:p" 6.505370416724944e-05
"V1:p" 8.063303724378253e-05
"VDD:p" -1.479147483292342e-04
"VSS:p" 2.228006918199865e-06
"vdd" 1.200000000000000e+00
"vss" 0.000000000000000e+00
"time" 3.672243225696178e-12
"in0" 1.200000000000000e+00
"in1" 0.000000000000000e+00
"net13" 1.242067784976143e+00
"out" 1.565280044039798e+00
"V0:p" 6.000415873980151e-05
"V1:p" 8.426932011406366e-05
"VDD:p" -1.459940239602065e-04
"VSS:p" 1.720545106344442e-06
"vdd" 1.200000000000000e+00
"vss" 0.000000000000000e+00
"time" 4.836121612848089e-12
"in0" 1.200000000000000e+00
"in1" 0.000000000000000e+00
"net13" 1.259428314323340e+00
"out" 1.666357849985019e+00
"V0:p" 5.583341951851222e-05
"V1:p" 7.350440120612014e-05
"VDD:p" -1.309700640855898e-04
"VSS:p" 1.632243360953286e-06
"vdd" 1.200000000000000e+00
"vss" 0.000000000000000e+00
"time" 5.999999999999999e-12
"in0" 1.200000000000000e+00
"in1" 0.000000000000000e+00
"net13" 1.274466209003499e+00
"out" 1.755947900399188e+00
"V0:p" 5.160827730147185e-05
"V1:p" 7.217605801174129e-05
"VDD:p" -1.250470032647916e-04
"VSS:p" 1.262667951581385e-06
"vdd" 1.200000000000000e+00
"vss" 0.000000000000000e+00
"time" 6.611542774646409e-12
"in0" 1.200000000000000e+00
"in1" 0.000000000000000e+00
"net13" 1.280147075782121e+00
"out" 1.790266299947156e+00
"V0:p" 4.017072114384890e-05
"V1:p" 5.393192602880645e-05
"VDD:p" -9.514131102559469e-05
"VSS:p" 1.038663852939466e-06
"vdd" 1.200000000000000e+00
"vss" 0.000000000000000e+00
"time" 7.801216763747399e-12
"in0" 1.200000000000000e+00
"in1" 0.000000000000000e+00
"net13" 1.288088373619573e+00
"out" 1.838712787745256e+00
"V0:p" 1.906928450467098e-05
"V1:p" 2.494892044582535e-05
"VDD:p" -4.447024585388116e-05
"VSS:p" 4.520409033842236e-07
"vdd" 1.200000000000000e+00
"vss" 0.000000000000000e+00
"time" 9.400664653604837e-12
"in0" 1.200000000000000e+00
"in1" 0.000000000000000e+00
"net13" 1.290171202132415e+00
"out" 1.851486558715983e+00
"V0:p" -7.357594549612750e-06
"V1:p" -9.422761741075499e-06
"VDD:p" 1.694160201977577e-05
"VSS:p" -1.612457290876298e-07
"vdd" 1.200000000000000e+00
"vss" 0.000000000000000e+00
"time" 1.100000000000000e-11
"in0" 1.200000000000000e+00
"in1" 0.000000000000000e+00
"net13" 1.283572242945697e+00
"out" 1.811070254094917e+00
"V0:p" -2.962752562434760e-05
"V1:p" -3.966204077952318e-05
"VDD:p" 7.004878779535932e-05
"VSS:p" -7.592213914875003e-07
"vdd" 1.200000000000000e+00
"vss" 0.000000000000000e+00
"time" 1.300000000000000e-11
"in0" 1.200000000000000e+00
"in1" 0.000000000000000e+00
"net13" 1.271884625817455e+00
"out" 1.740343458843283e+00
"V0:p" -2.538812784473795e-05
"V1:p" -3.403394255215265e-05
"VDD:p" 6.007508590293134e-05
"VSS:p" -6.530155060406141e-07
"vdd" 1.200000000000000e+00
"vss" 0.000000000000000e+00
"time" 1.444949568436966e-11
"in0" 1.200000000000000e+00
"in1" 0.000000000000000e+00
"net13" 1.263651046499005e+00
"out" 1.691205599237982e+00
"V0:p" -2.209136556344963e-05
"V1:p" -3.030307812381994e-05
"VDD:p" 5.301343489261750e-05
"VSS:p" -6.189912053484102e-07
"vdd" 1.200000000000000e+00
"vss" 0.000000000000000e+00
"time" 1.635841867504182e-11
"in0" 1.200000000000000e+00
"in1" 0.000000000000000e+00
"net13" 1.253865015033479e+00
"out" 1.633574618110669e+00
"V0:p" -1.911451995402315e-05
"V1:p" -2.587492494229950e-05
"VDD:p" 4.552055785765087e-05
"VSS:p" -5.311129613276187e-07
"vdd" 1.200000000000000e+00
"vss" 0.000000000000000e+00
"time" 1.835841867504182e-11
"in0" 1.200000000000000e+00
"in1" 0.000000000000000e+00
"net13" 1.244744252913980e+00
"out" 1.580583710847977e+00
"V0:p" -1.607405683901932e-05
"V1:p" -2.206628667230789e-05
"VDD:p" 3.863424326556275e-05
"VSS:p" -4.938997542360877e-07
"vdd" 1.200000000000000e+00
"vss" 0.000000000000000e+00
"time" 2.035841867504182e-11
"in0" 1.200000000000000e+00
"in1" 0.000000000000000e+00
"net13" 1.236607294782749e+00
"out" 1.533895751166243e+00
"V0:p" -1.414679052364519e-05
"V1:p" -1.870609924318021e-05
"VDD:p" 3.327499417831943e-05
"VSS:p" -4.221044114934247e-07
"vdd" 1.200000000000000e+00
"vss" 0.000000000000000e+00
"time" 2.235841867504182e-11
"in0" 1.200000000000000e+00
"in1" 0.000000000000000e+00
"net13" 1.229317314413847e+00
"out" 1.492538662079864e+00
"V0:p" -1.201097861475503e-05
"V1:p" -1.595287205022191e-05
"VDD:p" 2.836365007544859e-05
"VSS:p" -3.997994104723591e-07
"vdd" 1.200000000000000e+00
"vss" 0.000000000000000e+00
"time" 2.435841867504182e-11
"in0" 1.200000000000000e+00
"in1" 0.000000000000000e+00
"net13" 1.222779607260730e+00
"out" 1.455828861728194e+00
"V0:p" -1.072759398366781e-05
"V1:p" -1.345657201940428e-05
"VDD:p" 2.452245802307426e-05
"VSS:p" -3.382920200015767e-07
"vdd" 1.200000000000000e+00
"vss" 0.000000000000000e+00
"time" 2.635841867504182e-11
"in0" 1.200000000000000e+00
"in1" 0.000000000000000e+00
"net13" 1.216927681576186e+00
"out" 1.423274940171497e+00
"V0:p" -9.061132204664337e-06
"V1:p" -1.144494160544474e-05
"VDD:p" 2.082925176203864e-05
"VSS:p" -3.231779519301094e-07
"vdd" 1.200000000000000e+00
"vss" 0.000000000000000e+00
"time" 2.835841867504182e-11
"in0" 1.200000000000000e+00
"in1" 0.000000000000000e+00
"net13" 1.211708591494946e+00
"out" 1.394485303319046e+00
"V0:p" -8.146243703996515e-06
"V1:p" -9.610419339469257e-06
"VDD:p" 1.802405788445778e-05
"VSS:p" -2.673948409915493e-07
"vdd" 1.200000000000000e+00
"vss" 0.000000000000000e+00
"time" 3.035841867504182e-11
"in0" 1.200000000000000e+00
"in1" 0.000000000000000e+00
"net13" 1.207073941921654e+00
"out" 1.369112863374357e+00
"V0:p" -6.790970666040808e-06
"V1:p" -8.189163827451295e-06
"VDD:p" 1.523767638150863e-05
"VSS:p" -2.575418880170760e-07
"vdd" 1.200000000000000e+00
"vss" 0.000000000000000e+00
"time" 3.235841867504182e-11
"in0" 1.200000000000000e+00
"in1" 0.000000000000000e+00
"net13" 1.202976078467782e+00
"out" 1.346830970042686e+00
"V0:p" -6.150751755865786e-06
"V1:p" -6.870011217455014e-06
"VDD:p" 1.322774311855290e-05
"VSS:p" -2.069801452311806e-07
"vdd" 1.200000000000000e+00
"vss" 0.000000000000000e+00
"time" 3.435841867504182e-11
"in0" 1.200000000000000e+00
"in1" 0.000000000000000e+00
"net13" 1.199367249723535e+00
"out" 1.327326578226364e+00
"V0:p" -5.042340666036691e-06
"V1:p" -5.888609797970347e-06
"VDD:p" 1.113334832372662e-05
"VSS:p" -2.023978597203911e-07
"vdd" 1.200000000000000e+00
"vss" 0.000000000000000e+00
"time" 3.635841867504182e-11
"in0" 1.200000000000000e+00
"in1" 0.000000000000000e+00
"net13" 1.196200144942570e+00
"out" 1.310301159032287e+00
"V0:p" -4.624437637153652e-06
"V1:p" -4.939017291183465e-06
"VDD:p" 9.720544669024098e-06
"VSS:p" -1.570897406861669e-07
"vdd" 1.200000000000000e+00
"vss" 0.000000000000000e+00
"time" 3.835841867504182e-11
"in0" 1.200000000000000e+00
"in1" 0.000000000000000e+00
"net13" 1.193428866919025e+00
"out" 1.295474031462916e+00
"V0:p" -3.715090829646598e-06
"V1:p" -4.265524420525870e-06
"VDD:p" 8.138243664550780e-06
"VSS:p" -1.576284143790986e-07
"vdd" 1.200000000000000e+00
"vss" 0.000000000000000e+00
"time" 4.035841867504182e-11
"in0" 1.200000000000000e+00
"in1" 0.000000000000000e+00
"net13" 1.191009849669306e+00
"out" 1.282585475870662e+00
"V0:p" -3.473962324537133e-06
"V1:p" -3.571718895474658e-06
"VDD:p" 7.162880636042553e-06
"VSS:p" -1.171994160300591e-07
"vdd" 1.200000000000000e+00
"vss" 0.000000000000000e+00
"time" 4.235841867504182e-11
"in0" 1.200000000000000e+00
"in1" 0.000000000000000e+00
"net13" 1.188902524571143e+00
"out" 1.271398643140235e+00
"V0:p" -2.720321346352617e-06
"V1:p" -3.110809190870984e-06
"VDD:p" 5.953425692938922e-06
"VSS:p" -1.222951557163501e-07
"vdd" 1.200000000000000e+00
"vss" 0.000000000000000e+00
"time" 4.435841867504182e-11
"in0" 1.200000000000000e+00
"in1" 0.000000000000000e+00
"net13" 1.187069703755299e+00
"out" 1.261700150512206e+00
"V0:p" -2.615391936665486e-06
"V1:p" -2.594086398302937e-06
"VDD:p" 5.295531960364763e-06
"VSS:p" -8.605362539509387e-08
"vdd" 1.200000000000000e+00
"vss" 0.000000000000000e+00
"time" 4.635841867504182e-11
"in0" 1.200000000000000e+00
"in1" 0.000000000000000e+00
"net13" 1.185477722949601e+00
"out" 1.253299616536616e+00
"V0:p" -1.980236359150451e-06
"V1:p" -2.281154208389474e-06
"VDD:p" 4.356338214157491e-06
"VSS:p" -9.494764661881289e-08
"vdd" 1.200000000000000e+00
"vss" 0.000000000000000e+00
"time" 4.835841867504182e-11
"in0" 1.200000000000000e+00
"in1" 0.000000000000000e+00
"net13" 1.184096406739210e+00
"out" 1.246028470283716e+00
"V0:p" -1.977959051014161e-06
"V1:p" -1.888516465370146e-06
"VDD:p" 3.928591935020409e-06
"VSS:p" -6.211641863458511e-08
"vdd" 1.200000000000000e+00
"vss" 0.000000000000000e+00
"time" 5.035841867504182e-11
"in0" 1.200000000000000e+00
"in1" 0.000000000000000e+00
"net13" 1.182898915566518e+00
"out" 1.239738332336237e+00
"V0:p" -1.431473090481790e-06
"V1:p" -1.679996861612722e-06
"VDD:p" 3.185517921950872e-06
"VSS:p" -7.404796985777115e-08
"vdd" 1.200000000000000e+00
"vss" 0.000000000000000e+00
"time" 5.235841867504182e-11
"in0" 1.200000000000000e+00
"in1" 0.000000000000000e+00
"net13" 1.181861521774646e+00
"out" 1.234299192234567e+00
"V0:p" -1.505627367447329e-06
"V1:p" -1.375512349661136e-06
"VDD:p" 2.925044968977632e-06
"VSS:p" -4.390525186781128e-08
"vdd" 1.200000000000000e+00
"vss" 0.000000000000000e+00
"time" 5.435841867504182e-11
"in0" 1.200000000000000e+00
"in1" 0.000000000000000e+00
"net13" 1.180963349152435e+00
"out" 1.229597536274454e+00
"V0:p" -1.024931294430906e-06
"V1:p" -1.241651988375287e-06
"VDD:p" 2.324787874155717e-06
"VSS:p" -5.820459135109681e-08
"vdd" 1.200000000000000e+00
"vss" 0.000000000000000e+00
"time" 5.635841867504182e-11
"in0" 1.200000000000000e+00
"in1" 0.000000000000000e+00
"net13" 1.180186099618305e+00
"out" 1.225534523293922e+00
"V0:p" -1.155665358294196e-06
"V1:p" -1.000579531535203e-06
"VDD:p" 2.186383909231790e-06
"VSS:p" -3.013901940098174e-08
"vdd" 1.200000000000000e+00
"vss" 0.000000000000000e+00
"time" 5.835841867504182e-11
"in0" 1.200000000000000e+00
"in1" 0.000000000000000e+00
"net13" 1.179513782470936e+00
"out" 1.222024265739848e+00
"V0:p" -7.236051470959698e-07
"V1:p" -9.207152161064456e-07
"VDD:p" 1.690575264851208e-06
"VSS:p" -4.625490165004000e-08
"vdd" 1.200000000000000e+00
"vss" 0.000000000000000e+00
"time" 6.035841867504182e-11
"in0" 1.200000000000000e+00
"in1" 0.000000000000000e+00
"net13" 1.178932455734474e+00
"out" 1.218992246258411e+00
"V0:p" -8.961402169527807e-07
"V1:p" -7.257203224141366e-07
"VDD:p" 1.641634667013304e-06
"VSS:p" -1.977412764495017e-08
"vdd" 1.200000000000000e+00
"vss" 0.000000000000000e+00
"time" 6.235841867504183e-11
"in0" 1.200000000000000e+00
"in1" 0.000000000000000e+00
"net13" 1.178429985080785e+00
"out" 1.216373882745006e+00
"V0:p" -5.000108089859122e-07
"V1:p" -6.852446531717991e-07
"VDD:p" 1.222525533830518e-06
"VSS:p" -3.727007167416250e-08
"vdd" 1.200000000000000e+00
"vss" 0.000000000000000e+00
"time" 6.435841867504183e-11
"in0" 1.200000000000000e+00
"in1" 0.000000000000000e+00
"net13" 1.177995823172871e+00
"out" 1.214113244014607e+00
"V0:p" -7.034410015164729e-07
"V1:p" -5.239640468672527e-07
"VDD:p" 1.239394470681107e-06
"VSS:p" -1.198942229602610e-08
"vdd" 1.200000000000000e+00
"vss" 0.000000000000000e+00
"time" 6.635841867504184e-11
"in0" 1.200000000000000e+00
"in1" 0.000000000000000e+00
"net13" 1.177620810556458e+00
"out" 1.212161911639161e+00
"V0:p" -3.338898123163486e-07
"V1:p" -5.123705606748982e-07
"VDD:p" 8.767883595383085e-07
"VSS:p" -3.052798654840360e-08
"vdd" 1.200000000000000e+00
"vss" 0.000000000000000e+00
"time" 6.835841867504185e-11
"in0" 1.200000000000000e+00
"in1" 0.000000000000000e+00
"net13" 1.177296998051796e+00
"out" 1.210477979468074e+00
"V0:p" -5.601981327659665e-07
"V1:p" -3.758441937386702e-07
"VDD:p" 9.421948295202486e-07
"VSS:p" -6.152503014256874e-09
"vdd" 1.200000000000000e+00
"vss" 0.000000000000000e+00
"time" 7.035841867504185e-11
"in0" 1.200000000000000e+00
"in1" 0.000000000000000e+00
"net13" 1.177017489777994e+00
"out" 1.209025179937876e+00
"V0:p" -2.103527238490229e-07
"V1:p" -3.854701373870197e-07
"VDD:p" 6.212993892697897e-07
"VSS:p" -2.547652803512933e-08
"vdd" 1.200000000000000e+00
"vss" 0.000000000000000e+00
"time" 7.235841867504186e-11
"in0" 1.200000000000000e+00
"in1" 0.000000000000000e+00
"net13" 1.176776305397508e+00
"out" 1.207772124966771e+00
"V0:p" -4.536450447989769e-07
"V1:p" -2.671316042922806e-07
"VDD:p" 7.225590459712286e-07
"VSS:p" -1.782396878561766e-09
"vdd" 1.200000000000000e+00
"vss" 0.000000000000000e+00
"time" 7.435841867504186e-11
"in0" 1.200000000000000e+00
"in1" 0.000000000000000e+00
"net13" 1.176568259848638e+00
"out" 1.206691648755223e+00
"V0:p" -1.184460818757488e-07
"V1:p" -2.923433406151071e-07
"VDD:p" 4.324867201181483e-07
"VSS:p" -2.169729762833599e-08
"vdd" 1.200000000000000e+00
"vss" 0.000000000000000e+00
"time" 7.635841867504187e-11
"in0" 1.200000000000000e+00
"in1" 0.000000000000000e+00
"net13" 1.176388858697054e+00
"out" 1.205760240010062e+00
"V0:p" -3.743748962166970e-07
"V1:p" -1.873569292448211e-07
"VDD:p" 5.602472635087845e-07
"VSS:p" 1.484561953627873e-09
"vdd" 1.200000000000000e+00
"vss" 0.000000000000000e+00
"time" 7.835841867504188e-11
"in0" 1.200000000000000e+00
"in1" 0.000000000000000e+00
"net13" 1.176234207241845e+00
"out" 1.204957551821231e+00
"V0:p" -5.008202460786744e-08
"V1:p" -2.240039339897826e-07
"VDD:p" 2.929602850930910e-07
"VSS:p" -1.887432649659291e-08
"vdd" 1.200000000000000e+00
"vss" 0.000000000000000e+00
"time" 8.035841867504188e-11
"in0" 1.200000000000000e+00
"in1" 0.000000000000000e+00
"net13" 1.176100931615091e+00
"out" 1.204265978478434e+00
"V0:p" -3.154254550552948e-07
"V1:p" -1.288087783448478e-07
"VDD:p" 4.403113688341480e-07
"VSS:p" 3.922864567255144e-09
"vdd" 1.200000000000000e+00
"vss" 0.000000000000000e+00
"time" 8.235841867504189e-11
"in0" 1.200000000000000e+00
"in1" 0.000000000000000e+00
"net13" 1.175986110276784e+00
"out" 1.203670289752113e+00
"V0:p" 7.396401912643373e-10
"V1:p" -1.738380106960782e-07
"VDD:p" 1.898675319478804e-07
"VSS:p" -1.676916144447604e-08
"vdd" 1.200000000000000e+00
"vss" 0.000000000000000e+00
"time" 8.435841867504189e-11
"in0" 1.200000000000000e+00
"in1" 0.000000000000000e+00
"net13" 1.175887214495276e+00
"out" 1.203157314436066e+00
"V0:p" -2.716203983598522e-07
"V1:p" -8.581827651506761e-08
"VDD:p" 3.516990220545691e-07
"VSS:p" 5.739652822071911e-09
"vdd" 1.200000000000000e+00
"vss" 0.000000000000000e+00
"time" 8.635841867504190e-11
"in0" 1.200000000000000e+00
"in1" 0.000000000000000e+00
"net13" 1.175802056592963e+00
"out" 1.202715666154046e+00
"V0:p" 3.848810818545362e-08
"V1:p" -1.369899314632653e-07
"VDD:p" 1.137037020726940e-07
"VSS:p" -1.520187879663064e-08
"vdd" 1.200000000000000e+00
"vss" 0.000000000000000e+00
"time" 8.835841867504191e-11
"in0" 1.200000000000000e+00
"in1" 0.000000000000000e+00
"net13" 1.175728744912297e+00
"out" 1.202335505509185e+00
"V0:p" -2.390988114981737e-07
"V1:p" -5.422879182436559e-08
"VDD:p" 2.862364290858510e-07
"VSS:p" 7.091174237976093e-09
"vdd" 1.200000000000000e+00
"vss" 0.000000000000000e+00
