HEADER
"PSFversion" "1.00"
"simulator" "spectre"
"version" "19.1.0.237.isr3"
"date" "4:10:08 PM, Tue Aug 30, 2022"
"design" "// Generated for: spectre"
"analysis type" "tran"
"analysis name" "sim"
"analysis description" "Transient Analysis `sim': time = (0 s -> 100 ps)"
"xVecSorted" "ascending"
"tolerance.relative" 0.00100000
"start" 0.00000
"outputstart" 0.00000
"stop" 1.00000e-10
"step" 1.00000e-13
"istep" 0.00100000
"maxstep" 2.00000e-12
"ic" "all"
"useprevic" "no"
"skipdc" "no"
"reltol" 0.00100000
"abstol(V)" 1.00000e-06
"abstol(I)" 1.00000e-12
"temp" 27.0000
"tnom" 27.0000
"tempeffects" "all"
"errpreset" "moderate"
"method" "traponly"
"lteratio" 3.50000
"relref" "sigglobal"
"cmin" 0.00000
"gmin" 1.00000e-12
TYPE
"sweep" FLOAT DOUBLE PROP(
"key" "sweep"
)
"LogicV" FLOAT DOUBLE PROP(
"key" "node"
)
"Tau" FLOAT DOUBLE PROP(
"units" "N*m"
"key" "node"
"tolerance" 1.00000e-06
)
"Alpha" FLOAT DOUBLE PROP(
"units" "rads/s^2"
"key" "node"
"tolerance" 1.00000e-06
)
"Omega" FLOAT DOUBLE PROP(
"units" "rads/s"
"key" "node"
"tolerance" 1.00000e-06
)
"Theta" FLOAT DOUBLE PROP(
"units" "rads"
"key" "node"
"tolerance" 1.00000e-06
)
"F" FLOAT DOUBLE PROP(
"units" "N"
"key" "node"
"tolerance" 1.00000e-06
)
"Imp" FLOAT DOUBLE PROP(
"units" "m/s^3"
"key" "node"
"tolerance" 1.00000e-06
)
"Acc" FLOAT DOUBLE PROP(
"units" "m/s^2"
"key" "node"
"tolerance" 1.00000e-06
)
"Vel" FLOAT DOUBLE PROP(
"units" "m/s"
"key" "node"
"tolerance" 1.00000e-06
)
"Pos" FLOAT DOUBLE PROP(
"units" "m"
"key" "node"
"tolerance" 1.00000e-06
)
"Phi" FLOAT DOUBLE PROP(
"units" "Wb"
"key" "node"
"tolerance" 1.00000e-09
)
"V" FLOAT DOUBLE PROP(
"units" "V"
"key" "node"
"tolerance" 1.00000e-06
)
"I" FLOAT DOUBLE PROP(
"units" "A"
"key" "branch"
"tolerance" 1.00000e-12
)
"MMF" FLOAT DOUBLE PROP(
"units" "A*turn"
"key" "node"
"tolerance" 1.00000e-12
)
"Wb" FLOAT DOUBLE PROP(
"units" "Wb"
"key" "node"
"tolerance" 1.00000e-09
)
"Temp" FLOAT DOUBLE PROP(
"units" "C"
"key" "node"
"tolerance" 0.000100000
)
"Pwr" FLOAT DOUBLE PROP(
"units" "W"
"key" "node"
"tolerance" 1.00000e-09
)
"U" FLOAT DOUBLE PROP(
"units" ""
"key" "node"
"tolerance" 1.00000e-06
)
"V/Sec" FLOAT DOUBLE PROP(
"units" "V/s"
"key" "node"
"tolerance" 0.000100000
)
"I/Sec" FLOAT DOUBLE PROP(
"units" "A/s"
"key" "node"
"tolerance" 1.00000e-06
)
"1/Sec" FLOAT DOUBLE PROP(
"units" "1/s"
"key" "node"
"tolerance" 0.000100000
)
"HOD" FLOAT DOUBLE PROP(
"units" ""
"key" "node"
"tolerance" 0.0100000
)
"Q" FLOAT DOUBLE PROP(
"units" "coul"
"key" "node"
"tolerance" 1.00000e-14
)
SWEEP
"time" "sweep" PROP(
"sweep_direction" 0
"units" "s"
"plot" 0
"grid" 1
)
TRACE
"GND:p" "I"
"in0" "V"
"in1" "V"
"net13" "V"
"out" "V"
"V0:p" "I"
"V1:p" "I"
"VDD:p" "I"
"vdd" "V"
"vss" "V"
VALUE
"time" 0.000000000000000e+00
"GND:p" 2.170367324928983e-10
"in0" 1.200000000000000e+00
"in1" 1.200000000000000e+00
"net13" 3.706476565175914e-07
"out" 6.999538919529706e-07
"V0:p" -7.657574485775169e-11
"V1:p" -7.657574584620934e-11
"VDD:p" -6.388557615303578e-11
"vdd" 1.200000000000000e+00
"vss" 0.000000000000000e+00
"time" 1.000000000000000e-13
"GND:p" 1.420251073841036e-06
"in0" 1.200000000000000e+00
"in1" 1.200000000000000e+00
"net13" 3.803990603958601e-04
"out" -4.624082969381313e-04
"V0:p" -1.464861288644656e-06
"V1:p" 1.462619411847221e-06
"VDD:p" -1.418009197040132e-06
"vdd" 1.200000000000000e+00
"vss" 0.000000000000000e+00
"time" 3.000000000000000e-13
"GND:p" 4.436206553913721e-06
"in0" 1.200000000000000e+00
"in1" 1.200000000000000e+00
"net13" 2.351030368133612e-03
"out" -2.975006736399730e-03
"V0:p" -4.274028159758096e-06
"V1:p" 3.683491550738330e-06
"VDD:p" -3.845669944895685e-06
"vdd" 1.200000000000000e+00
"vss" 0.000000000000000e+00
"time" 7.000000000000000e-13
"GND:p" 1.071881834325705e-05
"in0" 1.200000000000000e+00
"in1" 1.200000000000000e+00
"net13" 8.226280805926658e-03
"out" -1.070234331920395e-02
"V0:p" -9.769670346503196e-06
"V1:p" 7.015955628136664e-06
"VDD:p" -7.965103624891815e-06
"vdd" 1.200000000000000e+00
"vss" 0.000000000000000e+00
"time" 1.210402751172507e-12
"GND:p" 1.919274893735750e-05
"in0" 1.200000000000000e+00
"in1" 1.200000000000000e+00
"net13" 1.994876058500005e-02
"out" -2.707310781117613e-02
"V0:p" -1.641947013273730e-05
"V1:p" 8.813584998938109e-06
"VDD:p" -1.158686380355918e-05
"vdd" 1.200000000000000e+00
"vss" 0.000000000000000e+00
"time" 2.230018662888687e-12
"GND:p" 3.617232630192791e-05
"in0" 1.200000000000000e+00
"in1" 1.200000000000000e+00
"net13" 4.963137400338139e-02
"out" -7.349948431546935e-02
"V0:p" -2.899721897292503e-05
"V1:p" 8.784383745280453e-06
"VDD:p" -1.595949107428269e-05
"vdd" 1.200000000000000e+00
"vss" 0.000000000000000e+00
"time" 3.251957211941812e-12
"GND:p" 5.255298216544204e-05
"in0" 1.200000000000000e+00
"in1" 1.200000000000000e+00
"net13" 8.276464427755217e-02
"out" -1.321218314333555e-01
"V0:p" -4.138372640877323e-05
"V1:p" 7.147275884360461e-06
"VDD:p" -1.831653164103037e-05
"vdd" 1.200000000000000e+00
"vss" 0.000000000000000e+00
"time" 4.125978605970906e-12
"GND:p" 6.594340850817538e-05
"in0" 1.200000000000000e+00
"in1" 1.200000000000000e+00
"net13" 1.119540680795558e-01
"out" -1.887199051255546e-01
"V0:p" -5.182212882229260e-05
"V1:p" 5.738751253126019e-06
"VDD:p" -1.986003093900746e-05
"vdd" 1.200000000000000e+00
"vss" 0.000000000000000e+00
"time" 5.000000000000000e-12
"GND:p" 7.890319469400719e-05
"in0" 1.200000000000000e+00
"in1" 1.200000000000000e+00
"net13" 1.418852846168517e-01
"out" -2.501946014847249e-01
"V0:p" -6.230755148750200e-05
"V1:p" 4.458462062156917e-06
"VDD:p" -2.105410526866343e-05
"vdd" 1.200000000000000e+00
"vss" 0.000000000000000e+00
"time" 5.542213397515557e-12
"GND:p" 7.745973712259031e-05
"in0" 1.200000000000000e+00
"in1" 1.200000000000000e+00
"net13" 1.508777495163587e-01
"out" -2.832587014011848e-01
"V0:p" -5.712141004338705e-05
"V1:p" -2.786188102907450e-06
"VDD:p" -1.755213897629647e-05
"vdd" 1.200000000000000e+00
"vss" 0.000000000000000e+00
"time" 5.999999999999999e-12
"GND:p" 7.582079740752622e-05
"in0" 1.200000000000000e+00
"in1" 1.200000000000000e+00
"net13" 1.557148095863755e-01
"out" -3.090080529856251e-01
"V0:p" -5.368752987538757e-05
"V1:p" -7.515504802394601e-06
"VDD:p" -1.461776272974446e-05
"vdd" 1.200000000000000e+00
"vss" 0.000000000000000e+00
"time" 6.369875977949587e-12
"GND:p" 6.766171322636470e-05
"in0" 1.200000000000000e+00
"in1" 1.200000000000000e+00
"net13" 1.497076547174990e-01
"out" -3.222257243293445e-01
"V0:p" -4.254515620701861e-05
"V1:p" -1.493568133677971e-05
"VDD:p" -1.018087568256684e-05
"vdd" 1.200000000000000e+00
"vss" 0.000000000000000e+00
"time" 6.900963504597685e-12
"GND:p" 5.494692744965062e-05
"in0" 1.200000000000000e+00
"in1" 1.200000000000000e+00
"net13" 1.351458547611348e-01
"out" -3.356271544562407e-01
"V0:p" -2.772154113517308e-05
"V1:p" -2.307137806679487e-05
"VDD:p" -4.154008247682652e-06
"vdd" 1.200000000000000e+00
"vss" 0.000000000000000e+00
"time" 7.481917425510478e-12
"GND:p" 3.951227391783578e-05
"in0" 1.200000000000000e+00
"in1" 1.200000000000000e+00
"net13" 1.090854846682967e-01
"out" -3.387788853318894e-01
"V0:p" -1.321064126385758e-05
"V1:p" -2.737840743610436e-05
"VDD:p" 1.076774782123974e-06
"vdd" 1.200000000000000e+00
"vss" 0.000000000000000e+00
"time" 8.367287706467716e-12
"GND:p" 1.521741898493617e-05
"in0" 1.200000000000000e+00
"in1" 1.200000000000000e+00
"net13" 6.168505015733056e-02
"out" -3.255960294467347e-01
"V0:p" 5.010481274518289e-06
"V1:p" -2.759896726115006e-05
"VDD:p" 7.371067001699083e-06
"vdd" 1.200000000000000e+00
"vss" 0.000000000000000e+00
"time" 9.205993412657688e-12
"GND:p" -6.880314071994586e-06
"in0" 1.200000000000000e+00
"in1" 1.200000000000000e+00
"net13" 1.692051286431854e-02
"out" -2.970451062165640e-01
"V0:p" 1.794369235250344e-05
"V1:p" -2.309648990880194e-05
"VDD:p" 1.203311162829112e-05
"vdd" 1.200000000000000e+00
"vss" 0.000000000000000e+00
"time" 1.023988100169235e-11
"GND:p" -1.002648853131404e-05
"in0" 1.200000000000000e+00
"in1" 1.200000000000000e+00
"net13" -3.813706256596735e-02
"out" -2.476757519005577e-01
"V0:p" 2.089348584970397e-05
"V1:p" -2.628309183224921e-05
"VDD:p" 1.541609451386166e-05
"vdd" 1.200000000000000e+00
"vss" 0.000000000000000e+00
"time" 1.100000000000000e-11
"GND:p" -4.394650689928886e-05
"in0" 1.200000000000000e+00
"in1" 1.200000000000000e+00
"net13" -7.102625305326001e-02
"out" -2.042733957201571e-01
"V0:p" 3.540874047215801e-05
"V1:p" -9.211056282351569e-06
"VDD:p" 1.774882270947963e-05
"vdd" 1.200000000000000e+00
"vss" 0.000000000000000e+00
"time" 1.146078416071497e-11
"GND:p" -4.246392443157317e-05
"in0" 1.200000000000000e+00
"in1" 1.200000000000000e+00
"net13" -7.917314637998639e-02
"out" -1.825047627589533e-01
"V0:p" 3.149920592502299e-05
"V1:p" -2.854754541958644e-06
"VDD:p" 1.381947304850885e-05
"vdd" 1.200000000000000e+00
"vss" 0.000000000000000e+00
"time" 1.221109556139430e-11
"GND:p" -4.694683026100520e-05
"in0" 1.200000000000000e+00
"in1" 1.200000000000000e+00
"net13" -8.439243606698590e-02
"out" -1.527317281572626e-01
"V0:p" 2.887101482757519e-05
"V1:p" 8.541408132669413e-06
"VDD:p" 9.534407300762316e-06
"vdd" 1.200000000000000e+00
"vss" 0.000000000000000e+00
"time" 1.298839791354871e-11
"GND:p" -4.450244208296048e-05
"in0" 1.200000000000000e+00
"in1" 1.200000000000000e+00
"net13" -7.907546618761319e-02
"out" -1.311386404965916e-01
"V0:p" 2.645582940806285e-05
"V1:p" 1.113496830434011e-05
"VDD:p" 6.911644370556005e-06
"vdd" 1.200000000000000e+00
"vss" 0.000000000000000e+00
"time" 1.403314227483615e-11
"GND:p" -3.856298982433545e-05
"in0" 1.200000000000000e+00
"in1" 1.200000000000000e+00
"net13" -6.817620031884743e-02
"out" -1.090052174697036e-01
"V0:p" 2.198325037809453e-05
"V1:p" 1.088929992038526e-05
"VDD:p" 5.690439525857611e-06
"vdd" 1.200000000000000e+00
"vss" 0.000000000000000e+00
"time" 1.504975794957524e-11
"GND:p" -3.263996282677050e-05
"in0" 1.200000000000000e+00
"in1" 1.200000000000000e+00
"net13" -5.764083738219604e-02
"out" -9.178939500980839e-02
"V0:p" 1.895035201073596e-05
"V1:p" 9.257549667060762e-06
"VDD:p" 4.432061148971839e-06
"vdd" 1.200000000000000e+00
"vss" 0.000000000000000e+00
"time" 1.664797387350891e-11
"GND:p" -2.488518788413438e-05
"in0" 1.200000000000000e+00
"in1" 1.200000000000000e+00
"net13" -4.392503217341670e-02
"out" -7.016887160937602e-02
"V0:p" 1.405849278911900e-05
"V1:p" 7.135203994139521e-06
"VDD:p" 3.691491100878469e-06
"vdd" 1.200000000000000e+00
"vss" 0.000000000000000e+00
"time" 1.864797387350891e-11
"GND:p" -1.767276863719630e-05
"in0" 1.200000000000000e+00
"in1" 1.200000000000000e+00
"net13" -3.119230412043766e-02
"out" -5.011336457000670e-02
"V0:p" 1.037240374618166e-05
"V1:p" 4.940099914734865e-06
"VDD:p" 2.360264976276849e-06
"vdd" 1.200000000000000e+00
"vss" 0.000000000000000e+00
"time" 2.064797387350891e-11
"GND:p" -1.257062775625895e-05
"in0" 1.200000000000000e+00
"in1" 1.200000000000000e+00
"net13" -2.218547968264551e-02
"out" -3.578210680370918e-02
"V0:p" 7.006601860327319e-06
"V1:p" 3.581987541463212e-06
"VDD:p" 1.982038354471130e-06
"vdd" 1.200000000000000e+00
"vss" 0.000000000000000e+00
"time" 2.264797387350891e-11
"GND:p" -8.948966729901444e-06
"in0" 1.200000000000000e+00
"in1" 1.200000000000000e+00
"net13" -1.579427694739741e-02
"out" -2.554771602475684e-02
"V0:p" 5.367161542036898e-06
"V1:p" 2.453678287414438e-06
"VDD:p" 1.128126900447503e-06
"vdd" 1.200000000000000e+00
"vss" 0.000000000000000e+00
"time" 2.464797387350890e-11
"GND:p" -6.375983113173065e-06
"in0" 1.200000000000000e+00
"in1" 1.200000000000000e+00
"net13" -1.125267672572784e-02
"out" -1.823953365791868e-02
"V0:p" 3.448669826084135e-06
"V1:p" 1.829814679332462e-06
"VDD:p" 1.097498607758529e-06
"vdd" 1.200000000000000e+00
"vss" 0.000000000000000e+00
"time" 2.664797387350890e-11
"GND:p" -4.544668759813306e-06
"in0" 1.200000000000000e+00
"in1" 1.200000000000000e+00
"net13" -8.021357896938568e-03
"out" -1.302143878810931e-02
"V0:p" 2.835516617766468e-06
"V1:p" 1.215138556744758e-06
"VDD:p" 4.940135852998025e-07
"vdd" 1.200000000000000e+00
"vss" 0.000000000000000e+00
"time" 2.864797387350890e-11
"GND:p" -3.241188082871765e-06
"in0" 1.200000000000000e+00
"in1" 1.200000000000000e+00
"net13" -5.720203575456453e-03
"out" -9.295903655527283e-03
"V0:p" 1.645777965834017e-06
"V1:p" 9.519304479047063e-07
"VDD:p" 6.434796691347760e-07
"vdd" 1.200000000000000e+00
"vss" 0.000000000000000e+00
"time" 3.064797387350890e-11
"GND:p" -2.311661909229834e-06
"in0" 1.200000000000000e+00
"in1" 1.200000000000000e+00
"net13" -4.080354221176521e-03
"out" -6.636112411593286e-03
"V0:p" 1.550780402611412e-06
"V1:p" 5.916640784447828e-07
"VDD:p" 1.692174281716880e-07
"vdd" 1.200000000000000e+00
"vss" 0.000000000000000e+00
"time" 3.264797387350890e-11
"GND:p" -1.649603030816306e-06
"in0" 1.200000000000000e+00
"in1" 1.200000000000000e+00
"net13" -2.911191105612179e-03
"out" -4.737245809654005e-03
"V0:p" 7.298360632156654e-07
"V1:p" 5.084984871156463e-07
"VDD:p" 4.112684804866202e-07
"vdd" 1.200000000000000e+00
"vss" 0.000000000000000e+00
"time" 3.464797387350890e-11
"GND:p" -1.176758004131661e-06
"in0" 1.200000000000000e+00
"in1" 1.200000000000000e+00
"net13" -2.077316650459551e-03
"out" -3.381640918761134e-03
"V0:p" 8.975334643815741e-07
"V1:p" 2.759534460088234e-07
"VDD:p" 3.271093740071000e-09
"vdd" 1.200000000000000e+00
"vss" 0.000000000000000e+00
"time" 3.664797387350890e-11
"GND:p" -8.400858907436175e-07
"in0" 1.200000000000000e+00
"in1" 1.200000000000000e+00
"net13" -1.482425278411018e-03
"out" -2.413884402167074e-03
"V0:p" 2.638199817397271e-07
"V1:p" 2.835520705811680e-07
"VDD:p" 2.927138384236981e-07
"vdd" 1.200000000000000e+00
"vss" 0.000000000000000e+00
"time" 3.864797387350890e-11
"GND:p" -5.992040329946399e-07
"in0" 1.200000000000000e+00
"in1" 1.200000000000000e+00
"net13" -1.057947609583974e-03
"out" -1.723016343800459e-03
"V0:p" 5.650213820629411e-07
"V1:p" 1.155902871217724e-07
"VDD:p" -8.140763619169958e-08
"vdd" 1.200000000000000e+00
"vss" 0.000000000000000e+00
"time" 4.064797387350890e-11
"GND:p" -4.279591251203877e-07
"in0" 1.200000000000000e+00
"in1" 1.200000000000000e+00
"net13" -7.550264709033693e-04
"out" -1.229818302297036e-03
"V0:p" 2.653293573267992e-08
"V1:p" 1.691854652668151e-07
"VDD:p" 2.322407241213262e-07
"vdd" 1.200000000000000e+00
"vss" 0.000000000000000e+00
"time" 4.264797387350890e-11
"GND:p" -3.050867180989592e-07
"in0" 1.200000000000000e+00
"in1" 1.200000000000000e+00
"net13" -5.388315111224780e-04
"out" -8.777348484140970e-04
"V0:p" 3.956718762694674e-07
"V1:p" 3.400440618311752e-08
"VDD:p" -1.245895643542761e-07
"vdd" 1.200000000000000e+00
"vss" 0.000000000000000e+00
"time" 4.464797387350890e-11
"GND:p" -2.180422695700900e-07
"in0" 1.200000000000000e+00
"in1" 1.200000000000000e+00
"net13" -3.845225737146808e-04
"out" -6.263908576319790e-04
"V0:p" -9.433885820677199e-08
"V1:p" 1.109728004023995e-07
"VDD:p" 2.014083273754386e-07
"vdd" 1.200000000000000e+00
"vss" 0.000000000000000e+00
"time" 4.664797387350890e-11
"GND:p" -1.552561272692400e-07
"in0" 1.200000000000000e+00
"in1" 1.200000000000000e+00
"net13" -2.743793658901942e-04
"out" -4.469627742739530e-04
"V0:p" 3.093962071204812e-07
"V1:p" -7.537072278629152e-09
"VDD:p" -1.466030075731540e-07
"vdd" 1.200000000000000e+00
"vss" 0.000000000000000e+00
"time" 4.864797387350890e-11
"GND:p" -1.110942852595233e-07
"in0" 1.200000000000000e+00
"in1" 1.200000000000000e+00
"net13" -1.957582030938521e-04
"out" -3.188738333109679e-04
"V0:p" -1.559228315383534e-07
"V1:p" 8.132511970602761e-08
"VDD:p" 1.856919970922828e-07
"vdd" 1.200000000000000e+00
"vss" 0.000000000000000e+00
"time" 5.064797387350890e-11
"GND:p" -7.891505569163909e-08
"in0" 1.200000000000000e+00
"in1" 1.200000000000000e+00
"net13" -1.396363508004588e-04
"out" -2.274346459027800e-04
"V0:p" 2.654361217932598e-07
"V1:p" -2.869782712308500e-08
"VDD:p" -1.578232389791862e-07
"vdd" 1.200000000000000e+00
"vss" 0.000000000000000e+00
"time" 5.264797387350890e-11
"GND:p" -5.659967209301470e-08
"in0" 1.200000000000000e+00
"in1" 1.200000000000000e+00
"net13" -9.957438648678583e-05
"out" -1.621587667767788e-04
"V0:p" -1.873031638032236e-07
"V1:p" 6.622104247956516e-08
"VDD:p" 1.776817934179743e-07
"vdd" 1.200000000000000e+00
"vss" 0.000000000000000e+00
"time" 5.464797387350890e-11
"GND:p" -4.001449973690327e-08
"in0" 1.200000000000000e+00
"in1" 1.200000000000000e+00
"net13" -7.097623320113754e-05
"out" -1.155601687322512e-04
"V0:p" 2.430353798539398e-07
"V1:p" -3.947918312422790e-08
"VDD:p" -1.635416969937842e-07
"vdd" 1.200000000000000e+00
"vss" 0.000000000000000e+00
"time" 5.664797387350890e-11
"GND:p" -2.883049697380062e-08
"in0" 1.200000000000000e+00
"in1" 1.200000000000000e+00
"net13" -5.056131369205435e-05
"out" -8.229476539012123e-05
"V0:p" -2.032940101838092e-07
"V1:p" 5.852505936084562e-08
"VDD:p" 1.735994477978484e-07
"vdd" 1.200000000000000e+00
"vss" 0.000000000000000e+00
"time" 5.864797387350890e-11
"GND:p" -2.019130368600722e-08
"in0" 1.200000000000000e+00
"in1" 1.200000000000000e+00
"net13" -3.598793795365866e-05
"out" -5.854755449125036e-05
"V0:p" 2.316201808372071e-07
"V1:p" -4.497285933204375e-08
"VDD:p" -1.664560178201318e-07
"vdd" 1.200000000000000e+00
"vss" 0.000000000000000e+00
"time" 6.064797387350891e-11
"GND:p" -1.467950480154796e-08
"in0" 1.200000000000000e+00
"in1" 1.200000000000000e+00
"net13" -2.558455327288950e-05
"out" -4.159510987936965e-05
"V0:p" -2.114428852222818e-07
"V1:p" 5.460341786374886e-08
"VDD:p" 1.715189721609483e-07
"vdd" 1.200000000000000e+00
"vss" 0.000000000000000e+00
"time" 6.264797387350892e-11
"GND:p" -1.008943071592731e-08
"in0" 1.200000000000000e+00
"in1" 1.200000000000000e+00
"net13" -1.815794385255846e-05
"out" -2.949325351003325e-05
"V0:p" 2.258029894486282e-07
"V1:p" -4.777233641543844e-08
"VDD:p" -1.679412223189972e-07
"vdd" 1.200000000000000e+00
"vss" 0.000000000000000e+00
"time" 6.464797387350892e-11
"GND:p" -7.468127828109211e-09
"in0" 1.200000000000000e+00
"in1" 1.200000000000000e+00
"net13" -1.285633683074611e-05
"out" -2.085409170385856e-05
"V0:p" -2.155955811812503e-07
"V1:p" 5.260498786803197e-08
"VDD:p" 1.704587211436042e-07
"vdd" 1.200000000000000e+00
"vss" 0.000000000000000e+00
"time" 6.664797387350893e-11
"GND:p" -4.941467786201801e-09
"in0" 1.200000000000000e+00
"in1" 1.200000000000000e+00
"net13" -9.071691288996544e-06
"out" -1.468684688060727e-05
"V0:p" 2.228385151114014e-07
"V1:p" -4.919893931281896e-08
"VDD:p" -1.686981080147658e-07
"vdd" 1.200000000000000e+00
"vss" 0.000000000000000e+00
"time" 6.864797387350893e-11
"GND:p" -3.793162235441748e-09
"in0" 1.200000000000000e+00
"in1" 1.200000000000000e+00
"net13" -6.369952175715180e-06
"out" -1.028423149929016e-05
"V0:p" -2.177118255207671e-07
"V1:p" 5.158658693033880e-08
"VDD:p" 1.699184008285804e-07
"vdd" 1.200000000000000e+00
"vss" 0.000000000000000e+00
"time" 7.064797387350894e-11
"GND:p" -2.318024918844439e-09
"in0" 1.200000000000000e+00
"in1" 1.200000000000000e+00
"net13" -4.441264163540593e-06
"out" -7.141333495754482e-06
"V0:p" 2.213277939234843e-07
"V1:p" -4.992594125287037e-08
"VDD:p" -1.690838277549138e-07
"vdd" 1.200000000000000e+00
"vss" 0.000000000000000e+00
"time" 7.264797387350895e-11
"GND:p" -1.920367078936114e-09
"in0" 1.200000000000000e+00
"in1" 1.200000000000000e+00
"net13" -3.064432587123059e-06
"out" -4.897710844766173e-06
"V0:p" -2.187902832144748e-07
"V1:p" 5.106760393721208e-08
"VDD:p" 1.696430463601020e-07
"vdd" 1.200000000000000e+00
"vss" 0.000000000000000e+00
"time" 7.464797387350895e-11
"GND:p" -9.810933374967657e-10
"in0" 1.200000000000000e+00
"in1" 1.200000000000000e+00
"net13" -2.081554068405279e-06
"out" -3.296054509770315e-06
"V0:p" 2.205579155699886e-07
"V1:p" -5.029642677377198e-08
"VDD:p" -1.692803954628397e-07
"vdd" 1.200000000000000e+00
"vss" 0.000000000000000e+00
"time" 7.664797387350896e-11
"GND:p" -9.659718553333813e-10
"in0" 1.200000000000000e+00
"in1" 1.200000000000000e+00
"net13" -1.379906532155600e-06
"out" -2.152679094463639e-06
"V0:p" -2.193398762842185e-07
"V1:p" 5.080312581658726e-08
"VDD:p" 1.695027223258921e-07
