HEADER
"PSFversion" "1.00"
"simulator" "spectre"
"version" "19.1.0.237.isr3"
"date" "1:46:58 AM, Sat Sep 10, 2022"
"design" "// Generated for: spectre"
"analysis type" "tran"
"analysis name" "sim"
"analysis description" "Transient Analysis `sim': time = (0 s -> 100 ps)"
"xVecSorted" "ascending"
"tolerance.relative" 0.00100000
"start" 0.00000
"outputstart" 0.00000
"stop" 1.00000e-10
"step" 1.00000e-13
"istep" 0.00100000
"maxstep" 2.00000e-12
"ic" "all"
"useprevic" "no"
"skipdc" "no"
"reltol" 0.00100000
"abstol(V)" 1.00000e-06
"abstol(I)" 1.00000e-12
"temp" 27.0000
"tnom" 27.0000
"tempeffects" "all"
"errpreset" "moderate"
"method" "traponly"
"lteratio" 3.50000
"relref" "sigglobal"
"cmin" 0.00000
"gmin" 1.00000e-12
TYPE
"sweep" FLOAT DOUBLE PROP(
"key" "sweep"
)
"LogicV" FLOAT DOUBLE PROP(
"key" "node"
)
"Tau" FLOAT DOUBLE PROP(
"units" "N*m"
"key" "node"
"tolerance" 1.00000e-06
)
"Alpha" FLOAT DOUBLE PROP(
"units" "rads/s^2"
"key" "node"
"tolerance" 1.00000e-06
)
"Omega" FLOAT DOUBLE PROP(
"units" "rads/s"
"key" "node"
"tolerance" 1.00000e-06
)
"Theta" FLOAT DOUBLE PROP(
"units" "rads"
"key" "node"
"tolerance" 1.00000e-06
)
"F" FLOAT DOUBLE PROP(
"units" "N"
"key" "node"
"tolerance" 1.00000e-06
)
"Imp" FLOAT DOUBLE PROP(
"units" "m/s^3"
"key" "node"
"tolerance" 1.00000e-06
)
"Acc" FLOAT DOUBLE PROP(
"units" "m/s^2"
"key" "node"
"tolerance" 1.00000e-06
)
"Vel" FLOAT DOUBLE PROP(
"units" "m/s"
"key" "node"
"tolerance" 1.00000e-06
)
"Pos" FLOAT DOUBLE PROP(
"units" "m"
"key" "node"
"tolerance" 1.00000e-06
)
"Phi" FLOAT DOUBLE PROP(
"units" "Wb"
"key" "node"
"tolerance" 1.00000e-09
)
"V" FLOAT DOUBLE PROP(
"units" "V"
"key" "node"
"tolerance" 1.00000e-06
)
"I" FLOAT DOUBLE PROP(
"units" "A"
"key" "branch"
"tolerance" 1.00000e-12
)
"MMF" FLOAT DOUBLE PROP(
"units" "A*turn"
"key" "node"
"tolerance" 1.00000e-12
)
"Wb" FLOAT DOUBLE PROP(
"units" "Wb"
"key" "node"
"tolerance" 1.00000e-09
)
"Temp" FLOAT DOUBLE PROP(
"units" "C"
"key" "node"
"tolerance" 0.000100000
)
"Pwr" FLOAT DOUBLE PROP(
"units" "W"
"key" "node"
"tolerance" 1.00000e-09
)
"U" FLOAT DOUBLE PROP(
"units" ""
"key" "node"
"tolerance" 1.00000e-06
)
"V/Sec" FLOAT DOUBLE PROP(
"units" "V/s"
"key" "node"
"tolerance" 0.000100000
)
"I/Sec" FLOAT DOUBLE PROP(
"units" "A/s"
"key" "node"
"tolerance" 1.00000e-06
)
"1/Sec" FLOAT DOUBLE PROP(
"units" "1/s"
"key" "node"
"tolerance" 0.000100000
)
"HOD" FLOAT DOUBLE PROP(
"units" ""
"key" "node"
"tolerance" 0.0100000
)
"Q" FLOAT DOUBLE PROP(
"units" "coul"
"key" "node"
"tolerance" 1.00000e-14
)
SWEEP
"time" "sweep" PROP(
"sweep_direction" 0
"units" "s"
"plot" 0
"grid" 1
)
TRACE
"in0" "V"
"in1" "V"
"net13" "V"
"out" "V"
"V0:p" "I"
"V1:p" "I"
"VDD:p" "I"
"VSS:p" "I"
"vdd" "V"
"vss" "V"
VALUE
"time" 0.000000000000000e+00
"in0" 0.000000000000000e+00
"in1" 1.200000000000000e+00
"net13" 2.522254161175162e-07
"out" 1.199998608538689e+00
"V0:p" -2.292918816276842e-11
"V1:p" 3.016577400687568e-11
"VDD:p" -1.585927201598540e-10
"VSS:p" 1.513562509904299e-10
"vdd" 1.200000000000000e+00
"vss" 0.000000000000000e+00
"time" 1.000000000000000e-13
"in0" 0.000000000000000e+00
"in1" 1.200000000000000e+00
"net13" 1.168897260393429e-04
"out" 1.201476816811211e+00
"V0:p" 3.649786787087446e-06
"V1:p" 1.089542072815706e-05
"VDD:p" -1.498123116710801e-05
"VSS:p" 4.360236518626346e-07
"vdd" 1.200000000000000e+00
"vss" 0.000000000000000e+00
"time" 1.500000000000000e-13
"in0" 0.000000000000000e+00
"in1" 1.200000000000000e+00
"net13" 2.034139091669667e-04
"out" 1.202580930427722e+00
"V0:p" 5.554822939053087e-06
"V1:p" 1.628190966920797e-05
"VDD:p" -2.250022894745066e-05
"VSS:p" 6.634963391913351e-07
"vdd" 1.200000000000000e+00
"vss" 0.000000000000000e+00
"time" 2.500000000000000e-13
"in0" 0.000000000000000e+00
"in1" 1.200000000000000e+00
"net13" 4.307595178599946e-04
"out" 1.205507281169810e+00
"V0:p" 9.577690950868007e-06
"V1:p" 2.690347811436315e-05
"VDD:p" -3.761615062719439e-05
"VSS:p" 1.134981561977108e-06
"vdd" 1.200000000000000e+00
"vss" 0.000000000000000e+00
"time" 4.500000000000001e-13
"in0" 0.000000000000000e+00
"in1" 1.200000000000000e+00
"net13" 1.192110525165605e-03
"out" 1.215590581283565e+00
"V0:p" 1.808502508853920e-05
"V1:p" 4.766348413027282e-05
"VDD:p" -6.793491197668769e-05
"VSS:p" 2.186402757865254e-06
"vdd" 1.200000000000000e+00
"vss" 0.000000000000000e+00
"time" 7.250000000000000e-13
"in0" 0.000000000000000e+00
"in1" 1.200000000000000e+00
"net13" 2.827815587756153e-03
"out" 1.238304329752847e+00
"V0:p" 3.117184692957780e-05
"V1:p" 7.529950122031312e-05
"VDD:p" -1.102921031602097e-04
"VSS:p" 3.820755010329177e-06
"vdd" 1.200000000000000e+00
"vss" 0.000000000000000e+00
"time" 1.000000000000000e-12
"in0" 0.000000000000000e+00
"in1" 1.200000000000000e+00
"net13" 5.037198727143715e-03
"out" 1.270750428079072e+00
"V0:p" 4.523680300944819e-05
"V1:p" 1.023823459591124e-04
"VDD:p" -1.532479313387855e-04
"VSS:p" 5.628782370217087e-06
"vdd" 1.200000000000000e+00
"vss" 0.000000000000000e+00
"time" 1.550000000000000e-12
"in0" 0.000000000000000e+00
"in1" 1.200000000000000e+00
"net13" 8.751944384512666e-03
"out" 1.340500703838790e+00
"V0:p" 4.595088788008208e-05
"V1:p" 9.713039906229272e-05
"VDD:p" -1.500395297104475e-04
"VSS:p" 6.958242768072731e-06
"vdd" 1.200000000000000e+00
"vss" 0.000000000000000e+00
"time" 1.954231414659873e-12
"in0" 0.000000000000000e+00
"in1" 1.200000000000000e+00
"net13" 1.105095763337189e-02
"out" 1.389165619387467e+00
"V0:p" 5.506051097426096e-05
"V1:p" 9.169612173640390e-05
"VDD:p" -1.542844476382576e-04
"VSS:p" 7.527814927596646e-06
"vdd" 1.200000000000000e+00
"vss" 0.000000000000000e+00
"time" 2.571501278319549e-12
"in0" 0.000000000000000e+00
"in1" 1.200000000000000e+00
"net13" 1.349223327106849e-02
"out" 1.458030512195777e+00
"V0:p" 5.170843446939156e-05
"V1:p" 8.693481883782038e-05
"VDD:p" -1.470773254299448e-04
"VSS:p" 8.434072122727674e-06
"vdd" 1.200000000000000e+00
"vss" 0.000000000000000e+00
"time" 3.806041005638902e-12
"in0" 0.000000000000000e+00
"in1" 1.200000000000000e+00
"net13" 1.580231580440220e-02
"out" 1.579926573600792e+00
"V0:p" 5.970273710232265e-05
"V1:p" 7.654827397726619e-05
"VDD:p" -1.450311429201661e-04
"VSS:p" 8.780131840581791e-06
"vdd" 1.200000000000000e+00
"vss" 0.000000000000000e+00
"time" 4.903020502819451e-12
"in0" 0.000000000000000e+00
"in1" 1.200000000000000e+00
"net13" 1.608581364673039e-02
"out" 1.674558791081936e+00
"V0:p" 4.891949352240062e-05
"V1:p" 7.180243257019645e-05
"VDD:p" -1.295363734376350e-04
"VSS:p" 8.814447345033387e-06
"vdd" 1.200000000000000e+00
"vss" 0.000000000000000e+00
"time" 5.999999999999999e-12
"in0" 0.000000000000000e+00
"in1" 1.200000000000000e+00
"net13" 1.553630430537786e-02
"out" 1.758894731220362e+00
"V0:p" 5.236735311839192e-05
"V1:p" 6.448468770878180e-05
"VDD:p" -1.250088647346766e-04
"VSS:p" 8.156823907508678e-06
"vdd" 1.200000000000000e+00
"vss" 0.000000000000000e+00
"time" 6.604762890115864e-12
"in0" 0.000000000000000e+00
"in1" 1.200000000000000e+00
"net13" 1.456069735574266e-02
"out" 1.792915656192177e+00
"V0:p" 3.711031686934477e-05
"V1:p" 5.042561434988033e-05
"VDD:p" -9.499577492721659e-05
"VSS:p" 7.459843707991488e-06
"vdd" 1.200000000000000e+00
"vss" 0.000000000000000e+00
"time" 7.758864771980541e-12
"in0" 0.000000000000000e+00
"in1" 1.200000000000000e+00
"net13" 1.196047525400617e-02
"out" 1.840426089778973e+00
"V0:p" 1.653235099341246e-05
"V1:p" 2.360944039069678e-05
"VDD:p" -4.578819816332677e-05
"VSS:p" 5.646406779216896e-06
"vdd" 1.200000000000000e+00
"vss" 0.000000000000000e+00
"time" 9.286534936435421e-12
"in0" 0.000000000000000e+00
"in1" 1.200000000000000e+00
"net13" 7.146654914491566e-03
"out" 1.854686031515994e+00
"V0:p" -7.522375847303099e-06
"V1:p" -8.479977072686679e-06
"VDD:p" 1.314551476465861e-05
"VSS:p" 2.856838155331606e-06
"vdd" 1.200000000000000e+00
"vss" 0.000000000000000e+00
"time" 1.014326746821771e-11
"in0" 0.000000000000000e+00
"in1" 1.200000000000000e+00
"net13" 4.153122089799807e-03
"out" 1.840605628298110e+00
"V0:p" -1.943229266516691e-05
"V1:p" -2.429464675026969e-05
"VDD:p" 4.256891092421252e-05
"VSS:p" 1.158028491224946e-06
"vdd" 1.200000000000000e+00
"vss" 0.000000000000000e+00
"time" 1.100000000000000e-11
"in0" 0.000000000000000e+00
"in1" 1.200000000000000e+00
"net13" 1.128549301669260e-03
"out" 1.812106703216016e+00
"V0:p" -3.058116079931556e-05
"V1:p" -3.930769175985839e-05
"VDD:p" 7.037106423649584e-05
"VSS:p" -4.822116773240603e-07
"vdd" 1.200000000000000e+00
"vss" 0.000000000000000e+00
"time" 1.271346506356458e-11
"in0" 0.000000000000000e+00
"in1" 1.200000000000000e+00
"net13" -2.479496308632937e-03
"out" 1.749652370563568e+00
"V0:p" -2.604923112232510e-05
"V1:p" -3.380639910660818e-05
"VDD:p" 6.133691723693374e-05
"VSS:p" -1.481287008000354e-06
"vdd" 1.200000000000000e+00
"vss" 0.000000000000000e+00
"time" 1.392514375353786e-11
"in0" 0.000000000000000e+00
"in1" 1.200000000000000e+00
"net13" -4.514695221558151e-03
"out" 1.707061998386243e+00
"V0:p" -2.293117374343528e-05
"V1:p" -3.006205695528571e-05
"VDD:p" 5.515007711670823e-05
"VSS:p" -2.156846417986596e-06
"vdd" 1.200000000000000e+00
"vss" 0.000000000000000e+00
"time" 1.592514375353786e-11
"in0" 0.000000000000000e+00
"in1" 1.200000000000000e+00
"net13" -5.483522373772558e-03
"out" 1.644342887338186e+00
"V0:p" -1.841964094458735e-05
"V1:p" -2.516233563374711e-05
"VDD:p" 4.690041403048949e-05
"VSS:p" -3.318437452155795e-06
"vdd" 1.200000000000000e+00
"vss" 0.000000000000000e+00
"time" 1.792514375353786e-11
"in0" 0.000000000000000e+00
"in1" 1.200000000000000e+00
"net13" -5.262397511920308e-03
"out" 1.589661396008386e+00
"V0:p" -1.552006824194742e-05
"V1:p" -2.153722714636196e-05
"VDD:p" 3.971423028733990e-05
"VSS:p" -2.656934899030181e-06
"vdd" 1.200000000000000e+00
"vss" 0.000000000000000e+00
"time" 1.992514375353786e-11
"in0" 0.000000000000000e+00
"in1" 1.200000000000000e+00
"net13" -4.783234345231720e-03
"out" 1.541581041407928e+00
"V0:p" -1.262196582617231e-05
"V1:p" -1.857600691067994e-05
"VDD:p" 3.414651528447399e-05
"VSS:p" -2.948542547622161e-06
"vdd" 1.200000000000000e+00
"vss" 0.000000000000000e+00
"time" 2.192514375353786e-11
"in0" 0.000000000000000e+00
"in1" 1.200000000000000e+00
"net13" -4.292267897230733e-03
"out" 1.499040985379984e+00
"V0:p" -1.071057059209231e-05
"V1:p" -1.622457580705579e-05
"VDD:p" 2.905492098710963e-05
"VSS:p" -2.119774587961852e-06
"vdd" 1.200000000000000e+00
"vss" 0.000000000000000e+00
"time" 2.392514375353786e-11
"in0" 0.000000000000000e+00
"in1" 1.200000000000000e+00
"net13" -3.841021538987309e-03
"out" 1.461301102242801e+00
"V0:p" -8.548211198518137e-06
"V1:p" -1.412053316735231e-05
"VDD:p" 2.509193063106071e-05
"VSS:p" -2.423186265189720e-06
"vdd" 1.200000000000000e+00
"vss" 0.000000000000000e+00
"time" 2.592514375353786e-11
"in0" 0.000000000000000e+00
"in1" 1.200000000000000e+00
"net13" -3.431089916092479e-03
"out" 1.427839555521734e+00
"V0:p" -7.263995052536429e-06
"V1:p" -1.237136120257738e-05
"VDD:p" 2.127459328151437e-05
"VSS:p" -1.639237026401319e-06
"vdd" 1.200000000000000e+00
"vss" 0.000000000000000e+00
"time" 2.792514375353786e-11
"in0" 0.000000000000000e+00
"in1" 1.200000000000000e+00
"net13" -3.056245449976867e-03
"out" 1.398250262510046e+00
"V0:p" -5.670763799280690e-06
"V1:p" -1.073066583706372e-05
"VDD:p" 1.838688881310720e-05
"VSS:p" -1.985459176762351e-06
"vdd" 1.200000000000000e+00
"vss" 0.000000000000000e+00
"time" 2.992514375353785e-11
"in0" 0.000000000000000e+00
"in1" 1.200000000000000e+00
"net13" -2.712166326283353e-03
"out" 1.372178406758370e+00
"V0:p" -4.898801827381839e-06
"V1:p" -9.371796007879741e-06
"VDD:p" 1.550893259545443e-05
"VSS:p" -1.238334760193497e-06
"vdd" 1.200000000000000e+00
"vss" 0.000000000000000e+00
"time" 3.192514375353785e-11
"in0" 0.000000000000000e+00
"in1" 1.200000000000000e+00
"net13" -2.396929447394744e-03
"out" 1.349291302287608e+00
"V0:p" -3.749415365375560e-06
"V1:p" -8.078466172316045e-06
"VDD:p" 1.344562929893300e-05
"VSS:p" -1.617747761241288e-06
"vdd" 1.200000000000000e+00
"vss" 0.000000000000000e+00
"time" 3.392514375353785e-11
"in0" 0.000000000000000e+00
"in1" 1.200000000000000e+00
"net13" -2.109800320343503e-03
"out" 1.329269451644162e+00
"V0:p" -3.347792712818667e-06
"V1:p" -7.035614691584730e-06
"VDD:p" 1.128566368008526e-05
"VSS:p" -9.022562756816435e-07
"vdd" 1.200000000000000e+00
"vss" 0.000000000000000e+00
"time" 3.592514375353785e-11
"in0" 0.000000000000000e+00
"in1" 1.200000000000000e+00
"net13" -1.850247921346489e-03
"out" 1.311806924810035e+00
"V0:p" -2.499140314858797e-06
"V1:p" -6.030392547911524e-06
"VDD:p" 9.842119629870305e-06
"VSS:p" -1.312586767100418e-06
"vdd" 1.200000000000000e+00
"vss" 0.000000000000000e+00
"time" 3.792514375353785e-11
"in0" 0.000000000000000e+00
"in1" 1.200000000000000e+00
"net13" -1.617444221711372e-03
"out" 1.296614891111239e+00
"V0:p" -2.337866174521508e-06
"V1:p" -5.248327381895184e-06
"VDD:p" 8.213474714967005e-06
"VSS:p" -6.272811585498802e-07
"vdd" 1.200000000000000e+00
"vss" 0.000000000000000e+00
"time" 3.992514375353785e-11
"in0" 0.000000000000000e+00
"in1" 1.200000000000000e+00
"net13" -1.410124044412541e-03
"out" 1.283425173344581e+00
"V0:p" -1.679947486295225e-06
"V1:p" -4.476794172770125e-06
"VDD:p" 7.223410293272554e-06
"VSS:p" -1.066668634207960e-06
"vdd" 1.200000000000000e+00
"vss" 0.000000000000000e+00
"time" 4.192514375353785e-11
"in0" 0.000000000000000e+00
"in1" 1.200000000000000e+00
"net13" -1.226639805035914e-03
"out" 1.271992587082053e+00
"V0:p" -1.669893926908049e-06
"V1:p" -3.902085918393186e-06
"VDD:p" 5.980812366063443e-06
"VSS:p" -4.088325207611239e-07
"vdd" 1.200000000000000e+00
"vss" 0.000000000000000e+00
"time" 4.392514375353785e-11
"in0" 0.000000000000000e+00
"in1" 1.200000000000000e+00
"net13" -1.065089906772949e-03
"out" 1.262095860218912e+00
"V0:p" -1.132223670109067e-06
"V1:p" -3.313009736405554e-06
"VDD:p" 5.318973122238200e-06
"VSS:p" -8.737397157249894e-07
"vdd" 1.200000000000000e+00
"vss" 0.000000000000000e+00
"time" 4.592514375353785e-11
"in0" 0.000000000000000e+00
"in1" 1.200000000000000e+00
"net13" -9.234526422612423e-04
"out" 1.253537371238106e+00
"V0:p" -1.218290559454094e-06
"V1:p" -2.897783301766785e-06
"VDD:p" 4.355330218642601e-06
"VSS:p" -2.392563574206369e-07
"vdd" 1.200000000000000e+00
"vss" 0.000000000000000e+00
"time" 4.792514375353785e-11
"in0" 0.000000000000000e+00
"in1" 1.200000000000000e+00
"net13" -7.996961580191848e-04
"out" 1.246142060663727e+00
"V0:p" -7.579493233535279e-07
"V1:p" -2.447399560700493e-06
"VDD:p" 3.930618024640634e-06
"VSS:p" -7.252691405879145e-07
"vdd" 1.200000000000000e+00
"vss" 0.000000000000000e+00
"time" 4.992514375353785e-11
"in0" 0.000000000000000e+00
"in1" 1.200000000000000e+00
"net13" -6.918571284490902e-04
"out" 1.239755840635973e+00
"V0:p" -9.066629785894095e-07
"V1:p" -2.152329977825373e-06
"VDD:p" 3.168663837466480e-06
"VSS:p" -1.096708810510466e-07
"vdd" 1.200000000000000e+00
"vss" 0.000000000000000e+00
"time" 5.192514375353785e-11
"in0" 0.000000000000000e+00
"in1" 1.200000000000000e+00
"net13" -5.980909574554091e-04
"out" 1.234243752173752e+00
"V0:p" -4.974368094686969e-07
"V1:p" -1.805756639547890e-06
"VDD:p" 2.915641930581045e-06
"VSS:p" -6.124484815650009e-07
"vdd" 1.200000000000000e+00
"vss" 0.000000000000000e+00
"time" 5.392514375353785e-11
"in0" 0.000000000000000e+00
"in1" 1.200000000000000e+00
"net13" -5.166996956983718e-04
"out" 1.229488043312519e+00
"V0:p" -6.881494293622132e-07
"V1:p" -1.600196885160913e-06
"VDD:p" 2.299986214632688e-06
"VSS:p" -1.163990010880384e-08
"vdd" 1.200000000000000e+00
"vss" 0.000000000000000e+00
"time" 5.592514375353785e-11
"in0" 0.000000000000000e+00
"in1" 1.200000000000000e+00
"net13" -4.461439964988877e-04
"out" 1.225386279503370e+00
"V0:p" -3.136618668445048e-07
"V1:p" -1.330696418565999e-06
"VDD:p" 2.171758734159858e-06
"VSS:p" -5.274004487505476e-07
"vdd" 1.200000000000000e+00
"vss" 0.000000000000000e+00
"time" 5.792514375353785e-11
"in0" 0.000000000000000e+00
"in1" 1.200000000000000e+00
"net13" -3.850443489760523e-04
"out" 1.221849552850822e+00
"V0:p" -5.332824171041545e-07
"V1:p" -1.191440874267537e-06
"VDD:p" 1.662667876565597e-06
"VSS:p" 6.205541480728556e-08
"vdd" 1.200000000000000e+00
"vss" 0.000000000000000e+00
"time" 5.992514375353785e-11
"in0" 0.000000000000000e+00
"in1" 1.200000000000000e+00
"net13" -3.321755023808896e-04
"out" 1.218800826432606e+00
"V0:p" -1.829774932819091e-07
"V1:p" -9.789513029807212e-07
"VDD:p" 1.625531002554340e-06
"VSS:p" -4.636022062921436e-07
"vdd" 1.200000000000000e+00
"vss" 0.000000000000000e+00
"time" 6.192514375353785e-11
"in0" 0.000000000000000e+00
"in1" 1.200000000000000e+00
"net13" -2.864568328384575e-04
"out" 1.216173430350877e+00
"V0:p" -4.229142999416437e-07
"V1:p" -8.887064349406797e-07
"VDD:p" 1.194374949371972e-06
"VSS:p" 1.172457855105680e-07
"vdd" 1.200000000000000e+00
"vss" 0.000000000000000e+00
"time" 6.392514375353786e-11
"in0" 0.000000000000000e+00
"in1" 1.200000000000000e+00
"net13" -2.469405186155620e-04
"out" 1.213909713865402e+00
"V0:p" -8.973158792933859e-08
"V1:p" -7.183528045818845e-07
"VDD:p" 1.223969603248292e-06
"VSS:p" -4.158852107375025e-07
"vdd" 1.200000000000000e+00
"vss" 0.000000000000000e+00
"time" 6.592514375353787e-11
"in0" 0.000000000000000e+00
"in1" 1.200000000000000e+00
"net13" -2.127987700714743e-04
"out" 1.211959850310104e+00
"V0:p" -3.441284659476906e-07
"V1:p" -6.643431399005921e-07
"VDD:p" 8.499888369704375e-07
"VSS:p" 1.584827688776282e-07
"vdd" 1.200000000000000e+00
"vss" 0.000000000000000e+00
"time" 6.792514375353787e-11
"in0" 0.000000000000000e+00
"in1" 1.200000000000000e+00
"net13" -1.833109455496928e-04
"out" 1.210280786718264e+00
"V0:p" -2.317035959169994e-08
"V1:p" -5.251628390893034e-07
"VDD:p" 9.285949907384017e-07
"VSS:p" -3.802617920570732e-07
"vdd" 1.200000000000000e+00
"vss" 0.000000000000000e+00
"time" 6.992514375353788e-11
"in0" 0.000000000000000e+00
"in1" 1.200000000000000e+00
"net13" -1.578511072698925e-04
"out" 1.208835327131336e+00
"V0:p" -2.879041683620110e-07
"V1:p" -4.979843074937426e-07
"VDD:p" 5.966422433642101e-07
"VSS:p" 1.892462324912179e-07
"vdd" 1.200000000000000e+00
"vss" 0.000000000000000e+00
"time" 7.192514375353788e-11
"in0" 0.000000000000000e+00
"in1" 1.200000000000000e+00
"net13" -1.358763772711402e-04
"out" 1.207591336893369e+00
"V0:p" 2.431656568349500e-08
"V1:p" -3.819086176343749e-07
"VDD:p" 7.112961477471360e-07
"VSS:p" -3.537040957958222e-07
"vdd" 1.200000000000000e+00
"vss" 0.000000000000000e+00
"time" 7.392514375353789e-11
"in0" 0.000000000000000e+00
"in1" 1.200000000000000e+00
"net13" -1.169163077624970e-04
"out" 1.206521054553863e+00
"V0:p" -2.477971368208833e-07
"V1:p" -3.746339991950881e-07
"VDD:p" 4.102657835445326e-07
"VSS:p" 2.121653524708969e-07
"vdd" 1.200000000000000e+00
"vss" 0.000000000000000e+00
"time" 7.592514375353790e-11
"in0" 0.000000000000000e+00
"in1" 1.200000000000000e+00
"net13" -1.005633658542237e-04
"out" 1.205600498123557e+00
"V0:p" 5.819564161023906e-08
"V1:p" -2.757104023359269e-07
"VDD:p" 5.514468664431690e-07
"VSS:p" -3.339321057168304e-07
"vdd" 1.200000000000000e+00
"vss" 0.000000000000000e+00
"time" 7.792514375353790e-11
"in0" 0.000000000000000e+00
"in1" 1.200000000000000e+00
"net13" -8.646454413565848e-05
"out" 1.204808953159230e+00
"V0:p" -2.191696795454051e-07
"V1:p" -2.832194839907070e-07
"VDD:p" 2.731732387340517e-07
"VSS:p" 2.292159248013012e-07
"vdd" 1.200000000000000e+00
"vss" 0.000000000000000e+00
"time" 7.992514375353791e-11
"in0" 0.000000000000000e+00
"in1" 1.200000000000000e+00
"net13" -7.431404493627368e-05
"out" 1.204128531288546e+00
"V0:p" 8.239745640027085e-08
"V1:p" -1.970391903320503e-07
"VDD:p" 4.338759202153765e-07
"VSS:p" -3.192341862832717e-07
"vdd" 1.200000000000000e+00
"vss" 0.000000000000000e+00
"time" 8.192514375353791e-11
"in0" 0.000000000000000e+00
"in1" 1.200000000000000e+00
"net13" -6.384694623653432e-05
"out" 1.203543789124085e+00
"V0:p" -1.986961758631724e-07
"V1:p" -2.155323088739136e-07
"VDD:p" 1.723478353449049e-07
"VSS:p" 2.418806493917470e-07
"vdd" 1.200000000000000e+00
