HEADER
"PSFversion" "1.00"
"simulator" "spectre"
"version" "19.1.0.237.isr3"
"date" "1:43:13 AM, Sat Sep 10, 2022"
"design" "// Generated for: spectre"
"analysis type" "tran"
"analysis name" "sim"
"analysis description" "Transient Analysis `sim': time = (0 s -> 100 ps)"
"xVecSorted" "ascending"
"tolerance.relative" 0.00100000
"start" 0.00000
"outputstart" 0.00000
"stop" 1.00000e-10
"step" 1.00000e-13
"istep" 0.00100000
"maxstep" 2.00000e-12
"ic" "all"
"useprevic" "no"
"skipdc" "no"
"reltol" 0.00100000
"abstol(V)" 1.00000e-06
"abstol(I)" 1.00000e-12
"temp" 27.0000
"tnom" 27.0000
"tempeffects" "all"
"errpreset" "moderate"
"method" "traponly"
"lteratio" 3.50000
"relref" "sigglobal"
"cmin" 0.00000
"gmin" 1.00000e-12
TYPE
"sweep" FLOAT DOUBLE PROP(
"key" "sweep"
)
"LogicV" FLOAT DOUBLE PROP(
"key" "node"
)
"Tau" FLOAT DOUBLE PROP(
"units" "N*m"
"key" "node"
"tolerance" 1.00000e-06
)
"Alpha" FLOAT DOUBLE PROP(
"units" "rads/s^2"
"key" "node"
"tolerance" 1.00000e-06
)
"Omega" FLOAT DOUBLE PROP(
"units" "rads/s"
"key" "node"
"tolerance" 1.00000e-06
)
"Theta" FLOAT DOUBLE PROP(
"units" "rads"
"key" "node"
"tolerance" 1.00000e-06
)
"F" FLOAT DOUBLE PROP(
"units" "N"
"key" "node"
"tolerance" 1.00000e-06
)
"Imp" FLOAT DOUBLE PROP(
"units" "m/s^3"
"key" "node"
"tolerance" 1.00000e-06
)
"Acc" FLOAT DOUBLE PROP(
"units" "m/s^2"
"key" "node"
"tolerance" 1.00000e-06
)
"Vel" FLOAT DOUBLE PROP(
"units" "m/s"
"key" "node"
"tolerance" 1.00000e-06
)
"Pos" FLOAT DOUBLE PROP(
"units" "m"
"key" "node"
"tolerance" 1.00000e-06
)
"Phi" FLOAT DOUBLE PROP(
"units" "Wb"
"key" "node"
"tolerance" 1.00000e-09
)
"V" FLOAT DOUBLE PROP(
"units" "V"
"key" "node"
"tolerance" 1.00000e-06
)
"I" FLOAT DOUBLE PROP(
"units" "A"
"key" "branch"
"tolerance" 1.00000e-12
)
"MMF" FLOAT DOUBLE PROP(
"units" "A*turn"
"key" "node"
"tolerance" 1.00000e-12
)
"Wb" FLOAT DOUBLE PROP(
"units" "Wb"
"key" "node"
"tolerance" 1.00000e-09
)
"Temp" FLOAT DOUBLE PROP(
"units" "C"
"key" "node"
"tolerance" 0.000100000
)
"Pwr" FLOAT DOUBLE PROP(
"units" "W"
"key" "node"
"tolerance" 1.00000e-09
)
"U" FLOAT DOUBLE PROP(
"units" ""
"key" "node"
"tolerance" 1.00000e-06
)
"V/Sec" FLOAT DOUBLE PROP(
"units" "V/s"
"key" "node"
"tolerance" 0.000100000
)
"I/Sec" FLOAT DOUBLE PROP(
"units" "A/s"
"key" "node"
"tolerance" 1.00000e-06
)
"1/Sec" FLOAT DOUBLE PROP(
"units" "1/s"
"key" "node"
"tolerance" 0.000100000
)
"HOD" FLOAT DOUBLE PROP(
"units" ""
"key" "node"
"tolerance" 0.0100000
)
"Q" FLOAT DOUBLE PROP(
"units" "coul"
"key" "node"
"tolerance" 1.00000e-14
)
SWEEP
"time" "sweep" PROP(
"sweep_direction" 0
"units" "s"
"plot" 0
"grid" 1
)
TRACE
"in" "V"
"out" "V"
"V0:p" "I"
"VDD:p" "I"
"VSS:p" "I"
"vdd" "V"
"vss" "V"
VALUE
"time" 0.000000000000000e+00
"in" 1.200000000000000e+00
"out" 1.965155541026442e-06
"V0:p" -1.062004688439810e-11
"VDD:p" -1.002513471866062e-09
"VSS:p" 1.013133486429285e-09
"vdd" 1.200000000000000e+00
"vss" 0.000000000000000e+00
"time" 1.000000000000000e-13
"in" 1.200000000000000e+00
"out" 2.053226835827462e-03
"V0:p" 1.074211709455156e-05
"VDD:p" -1.458159625411516e-05
"VSS:p" 3.839479159563605e-06
"vdd" 1.200000000000000e+00
"vss" 0.000000000000000e+00
"time" 3.000000000000000e-13
"in" 1.200000000000000e+00
"out" 1.356779567861258e-02
"V0:p" 3.011211155618650e-05
"VDD:p" -4.476103405786291e-05
"VSS:p" 1.464892250167554e-05
"vdd" 1.200000000000000e+00
"vss" 0.000000000000000e+00
"time" 6.802990922114387e-13
"in" 1.200000000000000e+00
"out" 4.783760333612871e-02
"V0:p" 6.376871681123429e-05
"VDD:p" -1.033213562041537e-04
"VSS:p" 3.955263939291899e-05
"vdd" 1.200000000000000e+00
"vss" 0.000000000000000e+00
"time" 8.401495461057194e-13
"in" 1.200000000000000e+00
"out" 6.943364079632433e-02
"V0:p" 7.619596010015015e-05
"VDD:p" -1.283341951536553e-04
"VSS:p" 5.213823505350563e-05
"vdd" 1.200000000000000e+00
"vss" 0.000000000000000e+00
"time" 1.000000000000000e-12
"in" 1.200000000000000e+00
"out" 9.490886836958952e-02
"V0:p" 8.799390695369121e-05
"VDD:p" -1.537350159086373e-04
"VSS:p" 6.574110895494345e-05
"vdd" 1.200000000000000e+00
"vss" 0.000000000000000e+00
"time" 1.319700907788561e-12
"in" 1.200000000000000e+00
"out" 1.432612967508408e-01
"V0:p" 7.710886536577677e-05
"VDD:p" -1.588216990136914e-04
"VSS:p" 8.171283364791389e-05
"vdd" 1.200000000000000e+00
"vss" 0.000000000000000e+00
"time" 1.590493916410119e-12
"in" 1.200000000000000e+00
"out" 1.826130624602202e-01
"V0:p" 6.889761193806069e-05
"VDD:p" -1.611295320318153e-04
"VSS:p" 9.223192009375416e-05
"vdd" 1.200000000000000e+00
"vss" 0.000000000000000e+00
"time" 2.132079933653234e-12
"in" 1.200000000000000e+00
"out" 2.518692849363958e-01
"V0:p" 5.692227641405382e-05
"VDD:p" -1.673959161898922e-04
"VSS:p" 1.104736397758388e-04
"vdd" 1.200000000000000e+00
"vss" 0.000000000000000e+00
"time" 2.790376939814026e-12
"in" 1.200000000000000e+00
"out" 3.227319561728236e-01
"V0:p" 4.652486088665677e-05
"VDD:p" -1.712557206351954e-04
"VSS:p" 1.247308597485379e-04
"vdd" 1.200000000000000e+00
"vss" 0.000000000000000e+00
"time" 3.762835988902295e-12
"in" 1.200000000000000e+00
"out" 4.083276362811438e-01
"V0:p" 3.699619102060083e-05
"VDD:p" -1.774409070113631e-04
"VSS:p" 1.404447159907629e-04
"vdd" 1.200000000000000e+00
"vss" 0.000000000000000e+00
"time" 4.853644347888249e-12
"in" 1.200000000000000e+00
"out" 4.859653557996135e-01
"V0:p" 3.033496109873944e-05
"VDD:p" -1.800476881277804e-04
"VSS:p" 1.497127270290404e-04
"vdd" 1.200000000000000e+00
"vss" 0.000000000000000e+00
"time" 5.999999999999999e-12
"in" 1.200000000000000e+00
"out" 5.550260389902736e-01
"V0:p" 2.670208725442102e-05
"VDD:p" -1.831344470652453e-04
"VSS:p" 1.564323598108250e-04
"vdd" 1.200000000000000e+00
"vss" 0.000000000000000e+00
"time" 6.391657055960825e-12
"in" 1.200000000000000e+00
"out" 5.694545478682436e-01
"V0:p" 1.745684688528983e-05
"VDD:p" -1.729332042100212e-04
"VSS:p" 1.554763573247314e-04
"vdd" 1.200000000000000e+00
"vss" 0.000000000000000e+00
"time" 7.174971167882477e-12
"in" 1.200000000000000e+00
"out" 5.836626622134392e-01
"V0:p" -2.572403223664258e-07
"VDD:p" -1.531117313641345e-04
"VSS:p" 1.533689716865008e-04
"vdd" 1.200000000000000e+00
"vss" 0.000000000000000e+00
"time" 8.217017902153322e-12
"in" 1.200000000000000e+00
"out" 5.587849308248898e-01
"V0:p" -2.237974799840055e-05
"VDD:p" -1.260615520912941e-04
"VSS:p" 1.484413000896946e-04
"vdd" 1.200000000000000e+00
"vss" 0.000000000000000e+00
"time" 9.182674680252630e-12
"in" 1.200000000000000e+00
"out" 4.945606478298175e-01
"V0:p" -4.059824988108746e-05
"VDD:p" -9.868662590176076e-05
"VSS:p" 1.392848757828484e-04
"vdd" 1.200000000000000e+00
"vss" 0.000000000000000e+00
"time" 1.009133734012632e-11
"in" 1.200000000000000e+00
"out" 4.039432920388621e-01
"V0:p" -5.374651829918789e-05
"VDD:p" -6.997192450390918e-05
"VSS:p" 1.237184428030968e-04
"vdd" 1.200000000000000e+00
"vss" 0.000000000000000e+00
"time" 1.100000000000000e-11
"in" 1.200000000000000e+00
"out" 2.939278554332370e-01
"V0:p" -6.135731545069286e-05
"VDD:p" -3.662340566110482e-05
"VSS:p" 9.798072111179755e-05
"vdd" 1.200000000000000e+00
"vss" 0.000000000000000e+00
"time" 1.153640692594247e-11
"in" 1.200000000000000e+00
"out" 2.356428393433600e-01
"V0:p" -5.253331114539866e-05
"VDD:p" -3.077242636488918e-05
"VSS:p" 8.330573751028744e-05
"vdd" 1.200000000000000e+00
"vss" 0.000000000000000e+00
"time" 1.223002868055135e-11
"in" 1.200000000000000e+00
"out" 1.701074346809389e-01
"V0:p" -4.094382680938747e-05
"VDD:p" -2.183689010544367e-05
"VSS:p" 6.278071691483134e-05
"vdd" 1.200000000000000e+00
"vss" 0.000000000000000e+00
"time" 1.351121999415073e-11
"in" 1.200000000000000e+00
"out" 8.888769092415653e-02
"V0:p" -2.345792723885153e-05
"VDD:p" -1.278692792158419e-05
"VSS:p" 3.624485516043581e-05
"vdd" 1.200000000000000e+00
"vss" 0.000000000000000e+00
"time" 1.470857907501289e-11
"in" 1.200000000000000e+00
"out" 4.669519578447773e-02
"V0:p" -1.295394816188825e-05
"VDD:p" -6.162114864078461e-06
"VSS:p" 1.911606302596730e-05
"vdd" 1.200000000000000e+00
"vss" 0.000000000000000e+00
"time" 1.598651791133762e-11
"in" 1.200000000000000e+00
"out" 2.279435678102716e-02
"V0:p" -6.499574514590305e-06
"VDD:p" -3.819054622413042e-06
"VSS:p" 1.031862913700285e-05
"vdd" 1.200000000000000e+00
"vss" 0.000000000000000e+00
"time" 1.730933321020204e-11
"in" 1.200000000000000e+00
"out" 1.065843918247278e-02
"V0:p" -3.075494398639177e-06
"VDD:p" -1.055960339421693e-06
"VSS:p" 4.131454738061684e-06
"vdd" 1.200000000000000e+00
"vss" 0.000000000000000e+00
"time" 1.884631603001459e-11
"in" 1.200000000000000e+00
"out" 4.287791543809901e-03
"V0:p" -1.256610638373257e-06
"VDD:p" -1.143182225402284e-06
"VSS:p" 2.399792863774563e-06
"vdd" 1.200000000000000e+00
"vss" 0.000000000000000e+00
"time" 2.068962918764400e-11
"in" 1.200000000000000e+00
"out" 1.373415827348421e-03
"V0:p" -3.968295899281095e-07
"VDD:p" 3.038117556295368e-07
"VSS:p" 9.301783429938623e-08
"vdd" 1.200000000000000e+00
"vss" 0.000000000000000e+00
"time" 2.268962918764400e-11
"in" 1.200000000000000e+00
"out" 3.879934898651724e-04
"V0:p" -1.186134653801861e-07
"VDD:p" -5.666501875841866e-07
"VSS:p" 6.852636529639141e-07
"vdd" 1.200000000000000e+00
"vss" 0.000000000000000e+00
"time" 2.468962918764400e-11
"in" 1.200000000000000e+00
"out" 1.110305311687707e-04
"V0:p" -2.634300627262540e-08
"VDD:p" 4.913899365555401e-07
"VSS:p" -4.650469302824003e-07
"vdd" 1.200000000000000e+00
"vss" 0.000000000000000e+00
"time" 2.668962918764400e-11
"in" 1.200000000000000e+00
"out" 3.294485180107859e-05
"V0:p" -1.455931254881227e-08
"VDD:p" -5.140335265300160e-07
"VSS:p" 5.285928390782594e-07
"vdd" 1.200000000000000e+00
"vss" 0.000000000000000e+00
"time" 2.868962918764400e-11
"in" 1.200000000000000e+00
"out" 1.078610514731505e-05
"V0:p" 2.934769568598317e-09
"VDD:p" 5.061735985001480e-07
"VSS:p" -5.091083680686111e-07
"vdd" 1.200000000000000e+00
"vss" 0.000000000000000e+00
"time" 3.068962918764400e-11
"in" 1.200000000000000e+00
"out" 4.478453215924642e-06
"V0:p" -6.259156435036830e-09
"VDD:p" -5.098451239238788e-07
"VSS:p" 5.161042803588064e-07
"vdd" 1.200000000000000e+00
"vss" 0.000000000000000e+00
"time" 3.268962918764400e-11
"in" 1.200000000000000e+00
"out" 2.681386550908290e-06
"V0:p" 5.296827054137951e-09
"VDD:p" 5.073653183292995e-07
"VSS:p" -5.126621453835729e-07
"vdd" 1.200000000000000e+00
"vss" 0.000000000000000e+00
"time" 3.468962918764400e-11
"in" 1.200000000000000e+00
"out" 2.169277119827077e-06
"V0:p" -5.586250098353616e-09
"VDD:p" -5.095056418812933e-07
"VSS:p" 5.150918919798357e-07
"vdd" 1.200000000000000e+00
"vss" 0.000000000000000e+00
"time" 3.668962918764400e-11
"in" 1.200000000000000e+00
"out" 2.023331896296171e-06
"V0:p" 5.488580942169870e-09
"VDD:p" 5.074620570516098e-07
"VSS:p" -5.129506379936980e-07
"vdd" 1.200000000000000e+00
"vss" 0.000000000000000e+00
"time" 3.868962918764400e-11
"in" 1.200000000000000e+00
"out" 1.981738432322436e-06
"V0:p" -5.531602795653026e-09
"VDD:p" -5.094780727424341e-07
"VSS:p" 5.150096755381143e-07
"vdd" 1.200000000000000e+00
"vss" 0.000000000000000e+00
"time" 4.068962918764400e-11
"in" 1.200000000000000e+00
"out" 1.969884495836973e-06
"V0:p" 5.504155051197015e-09
"VDD:p" 5.074699140593174e-07
"VSS:p" -5.129740691105686e-07
"vdd" 1.200000000000000e+00
"vss" 0.000000000000000e+00
"time" 4.268962918764400e-11
"in" 1.200000000000000e+00
"out" 1.966506176294905e-06
"V0:p" -5.527164251734043e-09
"VDD:p" -5.094758335349528e-07
"VSS:p" 5.150029977869579e-07
"vdd" 1.200000000000000e+00
"vss" 0.000000000000000e+00
"time" 4.468962918764400e-11
"in" 1.200000000000000e+00
"out" 1.965543369673056e-06
"V0:p" 5.505420016287316e-09
"VDD:p" 5.074705522236067e-07
"VSS:p" -5.129759722398946e-07
"vdd" 1.200000000000000e+00
"vss" 0.000000000000000e+00
"time" 4.668962918764400e-11
"in" 1.200000000000000e+00
"out" 1.965268973673016e-06
"V0:p" -5.526803742184046e-09
"VDD:p" -5.094756516611891e-07
"VSS:p" 5.150024554031011e-07
"vdd" 1.200000000000000e+00
"vss" 0.000000000000000e+00
"time" 4.868962918764400e-11
"in" 1.200000000000000e+00
"out" 1.965190772408002e-06
"V0:p" 5.505522760569858e-09
"VDD:p" 5.074706040570751e-07
"VSS:p" -5.129761268168587e-07
"vdd" 1.200000000000000e+00
"vss" 0.000000000000000e+00
"time" 5.068962918764400e-11
"in" 1.200000000000000e+00
"out" 1.965168484941208e-06
"V0:p" -5.526774461233932e-09
"VDD:p" -5.094756368887460e-07
"VSS:p" 5.150024113493567e-07
"vdd" 1.200000000000000e+00
"vss" 0.000000000000000e+00
"time" 5.268962918764400e-11
"in" 1.200000000000000e+00
"out" 1.965162133296798e-06
"V0:p" 5.505531105853061e-09
"VDD:p" 5.074706082668030e-07
"VSS:p" -5.129761393720609e-07
"vdd" 1.200000000000000e+00
"vss" 0.000000000000000e+00
"time" 5.468962918764400e-11
"in" 1.200000000000000e+00
"out" 1.965160323429303e-06
"V0:p" -5.526772082748668e-09
"VDD:p" -5.094756356889192e-07
"VSS:p" 5.150024077713426e-07
"vdd" 1.200000000000000e+00
"vss" 0.000000000000000e+00
"time" 5.668962918764400e-11
"in" 1.200000000000000e+00
"out" 1.965159807042587e-06
"V0:p" 5.505531783283047e-09
"VDD:p" 5.074706086091775e-07
"VSS:p" -5.129761403919457e-07
"vdd" 1.200000000000000e+00
"vss" 0.000000000000000e+00
"time" 5.868962918764400e-11
"in" 1.200000000000000e+00
"out" 1.965159660417223e-06
"V0:p" -5.526771889212796e-09
"VDD:p" -5.094756355917658e-07
"VSS:p" 5.150024074807353e-07
"vdd" 1.200000000000000e+00
"vss" 0.000000000000000e+00
"time" 6.068962918764401e-11
"in" 1.200000000000000e+00
"out" 1.965159618131047e-06
"V0:p" 5.505531838108333e-09
"VDD:p" 5.074706086370051e-07
"VSS:p" -5.129761404747876e-07
"vdd" 1.200000000000000e+00
"vss" 0.000000000000000e+00
"time" 6.268962918764401e-11
"in" 1.200000000000000e+00
"out" 1.965159606222170e-06
"V0:p" -5.526771873552494e-09
"VDD:p" -5.094756355835606e-07
"VSS:p" 5.150024074569231e-07
"vdd" 1.200000000000000e+00
"vss" 0.000000000000000e+00
"time" 6.468962918764402e-11
"in" 1.200000000000000e+00
"out" 1.965159602665777e-06
"V0:p" 5.505531842406251e-09
"VDD:p" 5.074706086390778e-07
"VSS:p" -5.129761404815381e-07
"vdd" 1.200000000000000e+00
"vss" 0.000000000000000e+00
"time" 6.668962918764403e-11
"in" 1.200000000000000e+00
"out" 1.965159601708513e-06
"V0:p" -5.526771871985152e-09
"VDD:p" -5.094756355829956e-07
"VSS:p" 5.150024074549533e-07
"vdd" 1.200000000000000e+00
"vss" 0.000000000000000e+00
"time" 6.868962918764403e-11
"in" 1.200000000000000e+00
"out" 1.965159601783840e-06
"V0:p" 5.505531842711580e-09
"VDD:p" 5.074706086390609e-07
"VSS:p" -5.129761404818824e-07
"vdd" 1.200000000000000e+00
"vss" 0.000000000000000e+00
"time" 7.068962918764404e-11
"in" 1.200000000000000e+00
"out" 1.965159601484322e-06
"V0:p" -5.526771872094505e-09
"VDD:p" -5.094756355828228e-07
"VSS:p" 5.150024074548360e-07
"vdd" 1.200000000000000e+00
"vss" 0.000000000000000e+00
"time" 7.268962918764404e-11
"in" 1.200000000000000e+00
"out" 1.965159601364971e-06
"V0:p" 5.505531843063661e-09
"VDD:p" 5.074706086391879e-07
"VSS:p" -5.129761404821158e-07
"vdd" 1.200000000000000e+00
"vss" 0.000000000000000e+00
"time" 7.468962918764405e-11
"in" 1.200000000000000e+00
"out" 1.965159601329401e-06
"V0:p" -5.526771872275294e-09
"VDD:p" -5.094756355829100e-07
"VSS:p" 5.150024074547509e-07
"vdd" 1.200000000000000e+00
"vss" 0.000000000000000e+00
"time" 7.668962918764406e-11
"in" 1.200000000000000e+00
"out" 1.965159601432068e-06
"V0:p" 5.505531843126785e-09
"VDD:p" 5.074706086391642e-07
"VSS:p" -5.129761404819663e-07
"vdd" 1.200000000000000e+00
"vss" 0.000000000000000e+00
"time" 7.868962918764406e-11
"in" 1.200000000000000e+00
"out" 1.965159601457263e-06
"V0:p" -5.526771872120942e-09
"VDD:p" -5.094756355828330e-07
"VSS:p" 5.150024074547649e-07
"vdd" 1.200000000000000e+00
"vss" 0.000000000000000e+00
"time" 8.068962918764407e-11
"in" 1.200000000000000e+00
"out" 1.965159601459444e-06
"V0:p" 5.505531843018364e-09
"VDD:p" 5.074706086391642e-07
"VSS:p" -5.129761404819658e-07
"vdd" 1.200000000000000e+00
"vss" 0.000000000000000e+00
"time" 8.268962918764407e-11
"in" 1.200000000000000e+00
"out" 1.965159601453291e-06
"V0:p" -5.526771872108706e-09
"VDD:p" -5.094756355828804e-07
"VSS:p" 5.150024074547992e-07
"vdd" 1.200000000000000e+00
"vss" 0.000000000000000e+00
"time" 8.468962918764408e-11
"in" 1.200000000000000e+00
"out" 1.965159601453485e-06
"V0:p" 5.505531842997539e-09
"VDD:p" 5.074706086391540e-07
"VSS:p" -5.129761404819620e-07
"vdd" 1.200000000000000e+00
"vss" 0.000000000000000e+00
"time" 8.668962918764409e-11
"in" 1.200000000000000e+00
"out" 1.965159601474709e-06
"V0:p" -5.526771872108706e-09
"VDD:p" -5.094756355828804e-07
"VSS:p" 5.150024074547996e-07
"vdd" 1.200000000000000e+00
"vss" 0.000000000000000e+00
"time" 8.868962918764409e-11
"in" 1.200000000000000e+00
"out" 1.965159601531641e-06
"V0:p" 5.505531842997539e-09
"VDD:p" 5.074706086391540e-07
"VSS:p" -5.129761404819616e-07
"vdd" 1.200000000000000e+00
"vss" 0.000000000000000e+00
"time" 9.068962918764410e-11
"in" 1.200000000000000e+00
"out" 1.965159601448348e-06
"V0:p" -5.526771871991690e-09
"VDD:p" -5.094756355828228e-07
"VSS:p" 5.150024074547323e-07
"vdd" 1.200000000000000e+00
"vss" 0.000000000000000e+00
"time" 9.268962918764410e-11
"in" 1.200000000000000e+00
"out" 1.965159601469899e-06
"V0:p" 5.505531843009768e-09
"VDD:p" 5.074706086391057e-07
"VSS:p" -5.129761404819264e-07
"vdd" 1.200000000000000e+00
"vss" 0.000000000000000e+00
"time" 9.468962918764411e-11
"in" 1.200000000000000e+00
"out" 1.965159601571203e-06
"V0:p" -5.526771872129538e-09
"VDD:p" -5.094756355828914e-07
"VSS:p" 5.150024074547767e-07
"vdd" 1.200000000000000e+00
"vss" 0.000000000000000e+00
"time" 9.668962918764412e-11
"in" 1.200000000000000e+00
"out" 1.965159601536550e-06
"V0:p" 5.505531843093724e-09
"VDD:p" 5.074706086392015e-07
"VSS:p" -5.129761404818616e-07
"vdd" 1.200000000000000e+00
"vss" 0.000000000000000e+00
"time" 9.834481459382206e-11
"in" 1.200000000000000e+00
"out" 1.965159601453082e-06
"V0:p" -5.526771872194422e-09
"VDD:p" -5.094756355828694e-07
"VSS:p" 5.150024074546298e-07
"vdd" 1.200000000000000e+00
"vss" 0.000000000000000e+00
"time" 1.000000000000000e-10
"in" 1.200000000000000e+00
"out" 1.965159601536135e-06
"V0:p" 5.505531843235039e-09
"VDD:p" 5.074706086392188e-07
"VSS:p" -5.129761404818578e-07
"vdd" 1.200000000000000e+00
"vss" 0.000000000000000e+00
END
