HEADER
"PSFversion" "1.00"
"simulator" "spectre"
"version" "19.1.0.237.isr3"
"date" "1:46:48 AM, Sat Sep 10, 2022"
"design" "// Generated for: spectre"
"analysis type" "tran"
"analysis name" "sim"
"analysis description" "Transient Analysis `sim': time = (0 s -> 100 ps)"
"xVecSorted" "ascending"
"tolerance.relative" 0.00100000
"start" 0.00000
"outputstart" 0.00000
"stop" 1.00000e-10
"step" 1.00000e-13
"istep" 0.00100000
"maxstep" 2.00000e-12
"ic" "all"
"useprevic" "no"
"skipdc" "no"
"reltol" 0.00100000
"abstol(V)" 1.00000e-06
"abstol(I)" 1.00000e-12
"temp" 27.0000
"tnom" 27.0000
"tempeffects" "all"
"errpreset" "moderate"
"method" "traponly"
"lteratio" 3.50000
"relref" "sigglobal"
"cmin" 0.00000
"gmin" 1.00000e-12
TYPE
"sweep" FLOAT DOUBLE PROP(
"key" "sweep"
)
"LogicV" FLOAT DOUBLE PROP(
"key" "node"
)
"Tau" FLOAT DOUBLE PROP(
"units" "N*m"
"key" "node"
"tolerance" 1.00000e-06
)
"Alpha" FLOAT DOUBLE PROP(
"units" "rads/s^2"
"key" "node"
"tolerance" 1.00000e-06
)
"Omega" FLOAT DOUBLE PROP(
"units" "rads/s"
"key" "node"
"tolerance" 1.00000e-06
)
"Theta" FLOAT DOUBLE PROP(
"units" "rads"
"key" "node"
"tolerance" 1.00000e-06
)
"F" FLOAT DOUBLE PROP(
"units" "N"
"key" "node"
"tolerance" 1.00000e-06
)
"Imp" FLOAT DOUBLE PROP(
"units" "m/s^3"
"key" "node"
"tolerance" 1.00000e-06
)
"Acc" FLOAT DOUBLE PROP(
"units" "m/s^2"
"key" "node"
"tolerance" 1.00000e-06
)
"Vel" FLOAT DOUBLE PROP(
"units" "m/s"
"key" "node"
"tolerance" 1.00000e-06
)
"Pos" FLOAT DOUBLE PROP(
"units" "m"
"key" "node"
"tolerance" 1.00000e-06
)
"Phi" FLOAT DOUBLE PROP(
"units" "Wb"
"key" "node"
"tolerance" 1.00000e-09
)
"V" FLOAT DOUBLE PROP(
"units" "V"
"key" "node"
"tolerance" 1.00000e-06
)
"I" FLOAT DOUBLE PROP(
"units" "A"
"key" "branch"
"tolerance" 1.00000e-12
)
"MMF" FLOAT DOUBLE PROP(
"units" "A*turn"
"key" "node"
"tolerance" 1.00000e-12
)
"Wb" FLOAT DOUBLE PROP(
"units" "Wb"
"key" "node"
"tolerance" 1.00000e-09
)
"Temp" FLOAT DOUBLE PROP(
"units" "C"
"key" "node"
"tolerance" 0.000100000
)
"Pwr" FLOAT DOUBLE PROP(
"units" "W"
"key" "node"
"tolerance" 1.00000e-09
)
"U" FLOAT DOUBLE PROP(
"units" ""
"key" "node"
"tolerance" 1.00000e-06
)
"V/Sec" FLOAT DOUBLE PROP(
"units" "V/s"
"key" "node"
"tolerance" 0.000100000
)
"I/Sec" FLOAT DOUBLE PROP(
"units" "A/s"
"key" "node"
"tolerance" 1.00000e-06
)
"1/Sec" FLOAT DOUBLE PROP(
"units" "1/s"
"key" "node"
"tolerance" 0.000100000
)
"HOD" FLOAT DOUBLE PROP(
"units" ""
"key" "node"
"tolerance" 0.0100000
)
"Q" FLOAT DOUBLE PROP(
"units" "coul"
"key" "node"
"tolerance" 1.00000e-14
)
SWEEP
"time" "sweep" PROP(
"sweep_direction" 0
"units" "s"
"plot" 0
"grid" 1
)
TRACE
"in0" "V"
"in1" "V"
"net13" "V"
"out" "V"
"V0:p" "I"
"V1:p" "I"
"VDD:p" "I"
"VSS:p" "I"
"vdd" "V"
"vss" "V"
VALUE
"time" 0.000000000000000e+00
"in0" 0.000000000000000e+00
"in1" 0.000000000000000e+00
"net13" 2.470546966412399e-02
"out" 1.199999584058010e+00
"V0:p" 2.859123199320163e-11
"V1:p" 3.016613384934715e-11
"VDD:p" -1.148585513731463e-10
"VSS:p" 5.610122483096415e-11
"vdd" 1.200000000000000e+00
"vss" 0.000000000000000e+00
"time" 1.000000000000000e-13
"in0" 0.000000000000000e+00
"in1" 0.000000000000000e+00
"net13" 2.488422810979575e-02
"out" 1.201325381331020e+00
"V0:p" 6.824365673339092e-06
"V1:p" 1.002418180362530e-05
"VDD:p" -1.713738895278763e-05
"VSS:p" 2.888414758217146e-07
"vdd" 1.200000000000000e+00
"vss" 0.000000000000000e+00
"time" 3.000000000000000e-13
"in0" 0.000000000000000e+00
"in1" 0.000000000000000e+00
"net13" 2.593593945198095e-02
"out" 1.209129006806209e+00
"V0:p" 2.012488511906487e-05
"V1:p" 2.954183901217048e-05
"VDD:p" -5.051614308498793e-05
"VSS:p" 8.494189537557401e-07
"vdd" 1.200000000000000e+00
"vss" 0.000000000000000e+00
"time" 6.901008279259856e-13
"in0" 0.000000000000000e+00
"in1" 0.000000000000000e+00
"net13" 2.924654405796042e-02
"out" 1.233752213923889e+00
"V0:p" 4.570956913339035e-05
"V1:p" 6.675902840847924e-05
"VDD:p" -1.143579478356687e-04
"VSS:p" 1.889350293798553e-06
"vdd" 1.200000000000000e+00
"vss" 0.000000000000000e+00
"time" 1.000000000000000e-12
"in0" 0.000000000000000e+00
"in1" 0.000000000000000e+00
"net13" 3.358792839070526e-02
"out" 1.266190491204605e+00
"V0:p" 6.573830845611593e-05
"V1:p" 9.520775750439427e-05
"VDD:p" -1.635686360028314e-04
"VSS:p" 2.622570042325089e-06
"vdd" 1.200000000000000e+00
"vss" 0.000000000000000e+00
"time" 1.528799868954703e-12
"in0" 0.000000000000000e+00
"in1" 0.000000000000000e+00
"net13" 4.149142593255140e-02
"out" 1.325651440941372e+00
"V0:p" 6.166397512409721e-05
"V1:p" 8.879555540616287e-05
"VDD:p" -1.528592883905678e-04
"VSS:p" 2.399757860308079e-06
"vdd" 1.200000000000000e+00
"vss" 0.000000000000000e+00
"time" 1.956305644891773e-12
"in0" 0.000000000000000e+00
"in1" 0.000000000000000e+00
"net13" 4.753254445701669e-02
"out" 1.371453338097849e+00
"V0:p" 5.968007942870325e-05
"V1:p" 8.424396625894182e-05
"VDD:p" -1.460471065153859e-04
"VSS:p" 2.123060827740388e-06
"vdd" 1.200000000000000e+00
"vss" 0.000000000000000e+00
"time" 2.611775222081962e-12
"in0" 0.000000000000000e+00
"in1" 0.000000000000000e+00
"net13" 5.588758065669622e-02
"out" 1.435308354715686e+00
"V0:p" 5.429830968573632e-05
"V1:p" 7.673513218766618e-05
"VDD:p" -1.329761996761787e-04
"VSS:p" 1.942757802775774e-06
"vdd" 1.200000000000000e+00
"vss" 0.000000000000000e+00
"time" 3.787040710698773e-12
"in0" 0.000000000000000e+00
"in1" 0.000000000000000e+00
"net13" 6.859406161179840e-02
"out" 1.533550120106478e+00
"V0:p" 4.810008175503585e-05
"V1:p" 6.598711225673524e-05
"VDD:p" -1.155762027870784e-04
"VSS:p" 1.489008775307577e-06
"vdd" 1.200000000000000e+00
"vss" 0.000000000000000e+00
"time" 4.893520355349387e-12
"in0" 0.000000000000000e+00
"in1" 0.000000000000000e+00
"net13" 7.841229129308085e-02
"out" 1.610397727988587e+00
"V0:p" 4.113172056228736e-05
"V1:p" 5.674416213120889e-05
"VDD:p" -9.918894846633246e-05
"VSS:p" 1.313065772836940e-06
"vdd" 1.200000000000000e+00
"vss" 0.000000000000000e+00
"time" 5.999999999999999e-12
"in0" 0.000000000000000e+00
"in1" 0.000000000000000e+00
"net13" 8.662368419696895e-02
"out" 1.675298309244566e+00
"V0:p" 3.705292298140380e-05
"V1:p" 4.973000552445122e-05
"VDD:p" -8.780383819127760e-05
"VSS:p" 1.020909685421865e-06
"vdd" 1.200000000000000e+00
"vss" 0.000000000000000e+00
"time" 6.588225278248128e-12
"in0" 0.000000000000000e+00
"in1" 0.000000000000000e+00
"net13" 8.940639763657032e-02
"out" 1.697412705084331e+00
"V0:p" 2.555881472983897e-05
"V1:p" 3.462464949492150e-05
"VDD:p" -6.092570935184129e-05
"VSS:p" 7.422451270823792e-07
"vdd" 1.200000000000000e+00
"vss" 0.000000000000000e+00
"time" 7.736343394629935e-12
"in0" 0.000000000000000e+00
"in1" 0.000000000000000e+00
"net13" 9.267607650957238e-02
"out" 1.723490036785752e+00
"V0:p" 5.710253705382980e-06
"V1:p" 7.598502470276186e-06
"VDD:p" -1.345890689492216e-05
"VSS:p" 1.501507192599047e-07
"vdd" 1.200000000000000e+00
"vss" 0.000000000000000e+00
"time" 9.186968949730851e-12
"in0" 0.000000000000000e+00
"in1" 0.000000000000000e+00
"net13" 9.131126343762244e-02
"out" 1.712584447851428e+00
"V0:p" -1.613004134230565e-05
"V1:p" -2.164395305205400e-05
"VDD:p" 3.821852239490102e-05
"VSS:p" -4.445280005385598e-07
"vdd" 1.200000000000000e+00
"vss" 0.000000000000000e+00
"time" 1.009348447486542e-11
"in0" 0.000000000000000e+00
"in1" 0.000000000000000e+00
"net13" 8.769614410993279e-02
"out" 1.683796098130888e+00
"V0:p" -2.736588552977580e-05
"V1:p" -3.716791975296076e-05
"VDD:p" 6.533931735643626e-05
"VSS:p" -8.055120737040612e-07
"vdd" 1.200000000000000e+00
"vss" 0.000000000000000e+00
"time" 1.100000000000000e-11
"in0" 0.000000000000000e+00
"in1" 0.000000000000000e+00
"net13" 8.217740777417663e-02
"out" 1.640064157401740e+00
"V0:p" -3.755872014832407e-05
"V1:p" -5.102351016154935e-05
"VDD:p" 8.968898678898248e-05
"VSS:p" -1.106756479105332e-06
"vdd" 1.200000000000000e+00
"vss" 0.000000000000000e+00
"time" 1.281303105026915e-11
"in0" 0.000000000000000e+00
"in1" 0.000000000000000e+00
"net13" 7.155660960034342e-02
"out" 1.556631189521736e+00
"V0:p" -2.997901126381727e-05
"V1:p" -4.107692201918645e-05
"VDD:p" 7.197932433248960e-05
"VSS:p" -9.233910494853821e-07
"vdd" 1.200000000000000e+00
"vss" 0.000000000000000e+00
"time" 1.390562564389613e-11
"in0" 0.000000000000000e+00
"in1" 0.000000000000000e+00
"net13" 6.540477528543095e-02
"out" 1.508743376601409e+00
"V0:p" -2.515618751498541e-05
"V1:p" -3.519987408812161e-05
"VDD:p" 6.121450802192490e-05
"VSS:p" -8.584464188176150e-07
"vdd" 1.200000000000000e+00
"vss" 0.000000000000000e+00
"time" 1.590562564389613e-11
"in0" 0.000000000000000e+00
"in1" 0.000000000000000e+00
"net13" 5.596429599319577e-02
"out" 1.435871283984278e+00
"V0:p" -1.919488258448553e-05
"V1:p" -2.672803217656733e-05
"VDD:p" 4.656353535065447e-05
"VSS:p" -6.406205896027573e-07
"vdd" 1.200000000000000e+00
"vss" 0.000000000000000e+00
"time" 1.790562564389613e-11
"in0" 0.000000000000000e+00
"in1" 0.000000000000000e+00
"net13" 4.858719455217281e-02
"out" 1.379455611488236e+00
"V0:p" -1.389159621445724e-05
"V1:p" -1.996750876395942e-05
"VDD:p" 3.439451919790936e-05
"VSS:p" -5.354142194907688e-07
"vdd" 1.200000000000000e+00
"vss" 0.000000000000000e+00
"time" 1.990562564389613e-11
"in0" 0.000000000000000e+00
"in1" 0.000000000000000e+00
"net13" 4.288611162052429e-02
"out" 1.336170782263159e+00
"V0:p" -1.076440130142919e-05
"V1:p" -1.513106626963594e-05
"VDD:p" 2.627167086098120e-05
"VSS:p" -3.762032899181408e-07
"vdd" 1.200000000000000e+00
"vss" 0.000000000000000e+00
"time" 2.190562564389613e-11
"in0" 0.000000000000000e+00
"in1" 0.000000000000000e+00
"net13" 3.851253492696477e-02
"out" 1.303150241223376e+00
"V0:p" -7.616154858294774e-06
"V1:p" -1.121646529857698e-05
"VDD:p" 1.915740801564744e-05
"VSS:p" -3.247878587737014e-07
"vdd" 1.200000000000000e+00
"vss" 0.000000000000000e+00
"time" 2.390562564389613e-11
"in0" 0.000000000000000e+00
"in1" 0.000000000000000e+00
"net13" 3.517402900127684e-02
"out" 1.278052720812535e+00
"V0:p" -6.103600018271895e-06
"V1:p" -8.559079788986011e-06
"VDD:p" 1.487394273587075e-05
"VSS:p" -2.112629286151463e-07
"vdd" 1.200000000000000e+00
"vss" 0.000000000000000e+00
"time" 2.590562564389613e-11
"in0" 0.000000000000000e+00
"in1" 0.000000000000000e+00
"net13" 3.263412771933708e-02
"out" 1.259021509159995e+00
"V0:p" -4.154131483633141e-06
"V1:p" -6.290960743874726e-06
"VDD:p" 1.064220063043811e-05
"VSS:p" -1.971084029286880e-07
"vdd" 1.200000000000000e+00
"vss" 0.000000000000000e+00
"time" 2.790562564389612e-11
"in0" 0.000000000000000e+00
"in1" 0.000000000000000e+00
"net13" 3.070612420914618e-02
"out" 1.244611355902443e+00
"V0:p" -3.528297035102052e-06
"V1:p" -4.868852204691134e-06
"VDD:p" 8.510337258872034e-06
"VSS:p" -1.131880190810821e-07
"vdd" 1.200000000000000e+00
"vss" 0.000000000000000e+00
"time" 2.990562564389613e-11
"in0" 0.000000000000000e+00
"in1" 0.000000000000000e+00
"net13" 2.924482037114133e-02
"out" 1.233710167884627e+00
"V0:p" -2.234517938114433e-06
"V1:p" -3.524673202475861e-06
"VDD:p" 5.881354141023312e-06
"VSS:p" -1.221630004311082e-07
"vdd" 1.200000000000000e+00
"vss" 0.000000000000000e+00
"time" 3.190562564389613e-11
"in0" 0.000000000000000e+00
"in1" 0.000000000000000e+00
"net13" 2.813839178256197e-02
"out" 1.225468237236205e+00
"V0:p" -2.094315754325437e-06
"V1:p" -2.793183406706336e-06
"VDD:p" 4.943616600355723e-06
"VSS:p" -5.611743932548287e-08
"vdd" 1.200000000000000e+00
"vss" 0.000000000000000e+00
"time" 3.390562564389613e-11
"in0" 0.000000000000000e+00
"in1" 0.000000000000000e+00
"net13" 2.730125780251525e-02
"out" 1.219239142772044e+00
"V0:p" -1.161117141253852e-06
"V1:p" -1.965545750763551e-06
"VDD:p" 3.205470669542975e-06
"VSS:p" -7.880777752409559e-08
"vdd" 1.200000000000000e+00
"vss" 0.000000000000000e+00
"time" 3.590562564389613e-11
"in0" 0.000000000000000e+00
"in1" 0.000000000000000e+00
"net13" 2.666819276139999e-02
"out" 1.214532424219050e+00
"V0:p" -1.289380456465788e-06
"V1:p" -1.620863404883999e-06
"VDD:p" 2.933479747026018e-06
"VSS:p" -2.323588567757193e-08
"vdd" 1.200000000000000e+00
"vss" 0.000000000000000e+00
"time" 3.790562564389613e-11
"in0" 0.000000000000000e+00
"in1" 0.000000000000000e+00
"net13" 2.618962131141658e-02
"out" 1.210976567155984e+00
"V0:p" -5.565893075556258e-07
"V1:p" -1.083280593486661e-06
"VDD:p" 1.693768478266587e-06
"VSS:p" -5.389857722354128e-08
"vdd" 1.200000000000000e+00
"vss" 0.000000000000000e+00
"time" 3.990562564389613e-11
"in0" 0.000000000000000e+00
"in1" 0.000000000000000e+00
"net13" 2.582793337810323e-02
"out" 1.208290446307369e+00
"V0:p" -8.348036252119657e-07
"V1:p" -9.563887528425017e-07
"VDD:p" 1.795573986591216e-06
"VSS:p" -4.381608537181969e-09
"vdd" 1.200000000000000e+00
"vss" 0.000000000000000e+00
"time" 4.190562564389612e-11
"in0" 0.000000000000000e+00
"in1" 0.000000000000000e+00
"net13" 2.555463276895270e-02
"out" 1.206261472629841e+00
"V0:p" -2.144314077452248e-07
"V1:p" -5.825275009267042e-07
"VDD:p" 8.365947308160513e-07
"VSS:p" -3.963582214364786e-08
"vdd" 1.200000000000000e+00
"vss" 0.000000000000000e+00
"time" 4.390562564389612e-11
"in0" 0.000000000000000e+00
"in1" 0.000000000000000e+00
"net13" 2.534814791626133e-02
"out" 1.204728952029676e+00
"V0:p" -5.770627915197457e-07
"V1:p" -5.788329982193384e-07
"VDD:p" 1.149492627550714e-06
"VSS:p" 6.403162188058347e-09
"vdd" 1.200000000000000e+00
"vss" 0.000000000000000e+00
"time" 4.590562564389612e-11
"in0" 0.000000000000000e+00
"in1" 0.000000000000000e+00
"net13" 2.519215949405220e-02
"out" 1.203571450569689e+00
"V0:p" -2.016271733489523e-08
"V1:p" -2.977501429873841e-07
"VDD:p" 3.493963410984758e-07
"VSS:p" -3.148348077558666e-08
"vdd" 1.200000000000000e+00
"vss" 0.000000000000000e+00
"time" 4.790562564389612e-11
"in0" 0.000000000000000e+00
"in1" 0.000000000000000e+00
"net13" 2.507432718917006e-02
"out" 1.202697219286249e+00
"V0:p" -4.305668215301344e-07
"V1:p" -3.639709523959141e-07
"VDD:p" 7.819735776713588e-07
"VSS:p" 1.256419625444513e-08
"vdd" 1.200000000000000e+00
"vss" 0.000000000000000e+00
"time" 4.990562564389612e-11
"in0" 0.000000000000000e+00
"in1" 0.000000000000000e+00
"net13" 2.498532258705893e-02
"out" 1.202036946134887e+00
"V0:p" 9.034809940895989e-08
"V1:p" -1.356011476116378e-07
"VDD:p" 7.208119683707194e-08
"VSS:p" -2.682814863412263e-08
"vdd" 1.200000000000000e+00
"vss" 0.000000000000000e+00
"time" 5.190562564389612e-11
"in0" 0.000000000000000e+00
"in1" 0.000000000000000e+00
"net13" 2.491809574577628e-02
"out" 1.201538273561180e+00
"V0:p" -3.471788387479415e-07
"V1:p" -2.415809782822375e-07
"VDD:p" 5.726784573705817e-07
"VSS:p" 1.608135965925837e-08
"vdd" 1.200000000000000e+00
"vss" 0.000000000000000e+00
"time" 5.390562564389612e-11
"in0" 0.000000000000000e+00
"in1" 0.000000000000000e+00
"net13" 2.486731961560312e-02
"out" 1.201161653598209e+00
"V0:p" 1.532832606609766e-07
"V1:p" -4.320873142043865e-08
"VDD:p" -8.590339081933636e-08
"VSS:p" -2.417113842110638e-08
"vdd" 1.200000000000000e+00
"vss" 0.000000000000000e+00
"time" 5.590562564389612e-11
"in0" 0.000000000000000e+00
"in1" 0.000000000000000e+00
"net13" 2.482896951663781e-02
"out" 1.200877215186611e+00
"V0:p" -2.996723836402510e-07
"V1:p" -1.718265620864145e-07
"VDD:p" 4.534105135421859e-07
"VSS:p" 1.808843218414060e-08
"vdd" 1.200000000000000e+00
"vss" 0.000000000000000e+00
"time" 5.790562564389612e-11
"in0" 0.000000000000000e+00
"in1" 0.000000000000000e+00
"net13" 2.480000502704661e-02
"out" 1.200662397037938e+00
"V0:p" 1.891477461490102e-07
"V1:p" 9.458591326785633e-09
"VDD:p" -1.759512359740594e-07
"VSS:p" -2.265510150107233e-08
"vdd" 1.200000000000000e+00
"vss" 0.000000000000000e+00
"time" 5.990562564389612e-11
"in0" 0.000000000000000e+00
"in1" 0.000000000000000e+00
"net13" 2.477812944336731e-02
"out" 1.200500159230648e+00
"V0:p" -2.725943852851058e-07
"V1:p" -1.320582915530132e-07
"VDD:p" 3.854191559986742e-07
"VSS:p" 1.923352083829266e-08
"vdd" 1.200000000000000e+00
"vss" 0.000000000000000e+00
"time" 6.190562564389613e-11
"in0" 0.000000000000000e+00
"in1" 0.000000000000000e+00
"net13" 2.476160795328170e-02
"out" 1.200377632187943e+00
"V0:p" 2.095932960356424e-07
"V1:p" 3.948834892964988e-08
"VDD:p" -2.272914225032883e-07
"VSS:p" -2.179022246067594e-08
"vdd" 1.200000000000000e+00
"vss" 0.000000000000000e+00
"time" 6.390562564389613e-11
"in0" 0.000000000000000e+00
"in1" 0.000000000000000e+00
"net13" 2.474913022150129e-02
"out" 1.200285096144815e+00
"V0:p" -2.571559258550058e-07
"V1:p" -1.093814878308231e-07
"VDD:p" 3.466506693616535e-07
"VSS:p" 1.988674432257661e-08
"vdd" 1.200000000000000e+00
"vss" 0.000000000000000e+00
"time" 6.590562564389614e-11
"in0" 0.000000000000000e+00
"in1" 0.000000000000000e+00
"net13" 2.473970655814245e-02
"out" 1.200215210300675e+00
"V0:p" 2.212513610574745e-07
"V1:p" 5.661305508420507e-08
"VDD:p" -2.565675501056513e-07
"VSS:p" -2.129686603419835e-08
"vdd" 1.200000000000000e+00
"vss" 0.000000000000000e+00
"time" 6.790562564389615e-11
"in0" 0.000000000000000e+00
"in1" 0.000000000000000e+00
"net13" 2.473258947238999e-02
"out" 1.200162430591580e+00
"V0:p" -2.483522893111849e-07
"V1:p" -9.644927203168290e-08
"VDD:p" 3.245422072830847e-07
"VSS:p" 2.025935405784529e-08
"vdd" 1.200000000000000e+00
"vss" 0.000000000000000e+00
"time" 6.990562564389615e-11
"in0" 0.000000000000000e+00
"in1" 0.000000000000000e+00
"net13" 2.472721441076341e-02
"out" 1.200122569940999e+00
"V0:p" 2.278996158260068e-07
"V1:p" 6.637933588060193e-08
"VDD:p" -2.732634981726460e-07
"VSS:p" -2.101545353209205e-08
"vdd" 1.200000000000000e+00
"vss" 0.000000000000000e+00
"time" 7.190562564389616e-11
"in0" 0.000000000000000e+00
"in1" 0.000000000000000e+00
"net13" 2.472315499145689e-02
"out" 1.200092466129757e+00
"V0:p" -2.433316306136718e-07
"V1:p" -8.907379108191902e-08
"VDD:p" 3.119335331574710e-07
"VSS:p" 2.047188853706292e-08
"vdd" 1.200000000000000e+00
"vss" 0.000000000000000e+00
"time" 7.390562564389616e-11
"in0" 0.000000000000000e+00
"in1" 0.000000000000000e+00
"net13" 2.472008919066460e-02
"out" 1.200069730951568e+00
"V0:p" 2.316911887154369e-07
"V1:p" 7.194933554274380e-08
"VDD:p" -2.827855847558230e-07
"VSS:p" -2.085493950113820e-08
"vdd" 1.200000000000000e+00
"vss" 0.000000000000000e+00
"time" 7.590562564389617e-11
"in0" 0.000000000000000e+00
"in1" 0.000000000000000e+00
"net13" 2.471777380250250e-02
"out" 1.200052560762508e+00
"V0:p" -2.404682281168082e-07
"V1:p" -8.486727284339197e-08
"VDD:p" 3.047423866954696e-07
"VSS:p" 2.059311426329370e-08
"vdd" 1.200000000000000e+00
"vss" 0.000000000000000e+00
"time" 7.790562564389618e-11
"in0" 0.000000000000000e+00
"in1" 0.000000000000000e+00
"net13" 2.471602514871209e-02
"out" 1.200039593399542e+00
"V0:p" 2.338536514052958e-07
"V1:p" 7.512615465771074e-08
"VDD:p" -2.882164201164402e-07
"VSS:p" -2.076338594466877e-08
"vdd" 1.200000000000000e+00
"vss" 0.000000000000000e+00
"time" 7.990562564389618e-11
"in0" 0.000000000000000e+00
"in1" 0.000000000000000e+00
"net13" 2.471470450912779e-02
"out" 1.200029800119733e+00
"V0:p" -2.388351111565479e-07
"V1:p" -8.246808756817511e-08
"VDD:p" 3.006409404422651e-07
"VSS:p" 2.066225828094009e-08
"vdd" 1.200000000000000e+00
"vss" 0.000000000000000e+00
"time" 8.190562564389619e-11
"in0" 0.000000000000000e+00
"in1" 0.000000000000000e+00
"net13" 2.471370711782245e-02
"out" 1.200022403988848e+00
"V0:p" 2.350870055577480e-07
"V1:p" 7.693806326372388e-08
"VDD:p" -2.913139024375424e-07
"VSS:p" -2.071116638294007e-08
"vdd" 1.200000000000000e+00
"vss" 0.000000000000000e+00
"time" 8.390562564389619e-11
"in0" 0.000000000000000e+00
"in1" 0.000000000000000e+00
"net13" 2.471295385239031e-02
"out" 1.200016818245728e+00
"V0:p" -2.379036608166749e-07
"V1:p" -8.109969818795759e-08
"VDD:p" 2.983016630524470e-07
"VSS:p" 2.070169595072169e-08
"vdd" 1.200000000000000e+00
"vss" 0.000000000000000e+00
"time" 8.590562564389620e-11
"in0" 0.000000000000000e+00
"in1" 0.000000000000000e+00
"net13" 2.471238495730009e-02
"out" 1.200012599753144e+00
"V0:p" 2.357904546330348e-07
"V1:p" 7.797149974306546e-08
"VDD:p" -2.930805723889737e-07
"VSS:p" -2.068138198522929e-08
"vdd" 1.200000000000000e+00
"vss" 0.000000000000000e+00
"time" 8.790562564389621e-11
