HEADER
"PSFversion" "1.00"
"simulator" "spectre"
"version" "19.1.0.237.isr3"
"date" "4:09:58 PM, Tue Aug 30, 2022"
"design" "// Generated for: spectre"
"analysis type" "tran"
"analysis name" "sim"
"analysis description" "Transient Analysis `sim': time = (0 s -> 100 ps)"
"xVecSorted" "ascending"
"tolerance.relative" 0.00100000
"start" 0.00000
"outputstart" 0.00000
"stop" 1.00000e-10
"step" 1.00000e-13
"istep" 0.00100000
"maxstep" 2.00000e-12
"ic" "all"
"useprevic" "no"
"skipdc" "no"
"reltol" 0.00100000
"abstol(V)" 1.00000e-06
"abstol(I)" 1.00000e-12
"temp" 27.0000
"tnom" 27.0000
"tempeffects" "all"
"errpreset" "moderate"
"method" "traponly"
"lteratio" 3.50000
"relref" "sigglobal"
"cmin" 0.00000
"gmin" 1.00000e-12
TYPE
"sweep" FLOAT DOUBLE PROP(
"key" "sweep"
)
"LogicV" FLOAT DOUBLE PROP(
"key" "node"
)
"Tau" FLOAT DOUBLE PROP(
"units" "N*m"
"key" "node"
"tolerance" 1.00000e-06
)
"Alpha" FLOAT DOUBLE PROP(
"units" "rads/s^2"
"key" "node"
"tolerance" 1.00000e-06
)
"Omega" FLOAT DOUBLE PROP(
"units" "rads/s"
"key" "node"
"tolerance" 1.00000e-06
)
"Theta" FLOAT DOUBLE PROP(
"units" "rads"
"key" "node"
"tolerance" 1.00000e-06
)
"F" FLOAT DOUBLE PROP(
"units" "N"
"key" "node"
"tolerance" 1.00000e-06
)
"Imp" FLOAT DOUBLE PROP(
"units" "m/s^3"
"key" "node"
"tolerance" 1.00000e-06
)
"Acc" FLOAT DOUBLE PROP(
"units" "m/s^2"
"key" "node"
"tolerance" 1.00000e-06
)
"Vel" FLOAT DOUBLE PROP(
"units" "m/s"
"key" "node"
"tolerance" 1.00000e-06
)
"Pos" FLOAT DOUBLE PROP(
"units" "m"
"key" "node"
"tolerance" 1.00000e-06
)
"Phi" FLOAT DOUBLE PROP(
"units" "Wb"
"key" "node"
"tolerance" 1.00000e-09
)
"V" FLOAT DOUBLE PROP(
"units" "V"
"key" "node"
"tolerance" 1.00000e-06
)
"I" FLOAT DOUBLE PROP(
"units" "A"
"key" "branch"
"tolerance" 1.00000e-12
)
"MMF" FLOAT DOUBLE PROP(
"units" "A*turn"
"key" "node"
"tolerance" 1.00000e-12
)
"Wb" FLOAT DOUBLE PROP(
"units" "Wb"
"key" "node"
"tolerance" 1.00000e-09
)
"Temp" FLOAT DOUBLE PROP(
"units" "C"
"key" "node"
"tolerance" 0.000100000
)
"Pwr" FLOAT DOUBLE PROP(
"units" "W"
"key" "node"
"tolerance" 1.00000e-09
)
"U" FLOAT DOUBLE PROP(
"units" ""
"key" "node"
"tolerance" 1.00000e-06
)
"V/Sec" FLOAT DOUBLE PROP(
"units" "V/s"
"key" "node"
"tolerance" 0.000100000
)
"I/Sec" FLOAT DOUBLE PROP(
"units" "A/s"
"key" "node"
"tolerance" 1.00000e-06
)
"1/Sec" FLOAT DOUBLE PROP(
"units" "1/s"
"key" "node"
"tolerance" 0.000100000
)
"HOD" FLOAT DOUBLE PROP(
"units" ""
"key" "node"
"tolerance" 0.0100000
)
"Q" FLOAT DOUBLE PROP(
"units" "coul"
"key" "node"
"tolerance" 1.00000e-14
)
SWEEP
"time" "sweep" PROP(
"sweep_direction" 0
"units" "s"
"plot" 0
"grid" 1
)
TRACE
"GND:p" "I"
"in0" "V"
"in1" "V"
"net13" "V"
"out" "V"
"V0:p" "I"
"V1:p" "I"
"VDD:p" "I"
"vdd" "V"
"vss" "V"
VALUE
"time" 0.000000000000000e+00
"GND:p" 1.271602942602738e-10
"in0" 1.200000000000000e+00
"in1" 0.000000000000000e+00
"net13" 1.175255987389764e+00
"out" 1.199998622265821e+00
"V0:p" -2.885339490148764e-16
"V1:p" 2.999488749051789e-11
"VDD:p" -1.571690853367175e-10
"vdd" 1.200000000000000e+00
"vss" 0.000000000000000e+00
"time" 1.000000000000000e-13
"GND:p" 7.578276779191391e-07
"in0" 1.200000000000000e+00
"in1" 0.000000000000000e+00
"net13" 1.175920013070968e+00
"out" 1.199725200758645e+00
"V0:p" 8.594405076780337e-07
"V1:p" 1.360610158326183e-07
"VDD:p" -1.753329201426755e-06
"vdd" 1.200000000000000e+00
"vss" 0.000000000000000e+00
"time" 3.000000000000000e-13
"GND:p" 2.271671546138293e-06
"in0" 1.200000000000000e+00
"in1" 0.000000000000000e+00
"net13" 1.179903348617433e+00
"out" 1.198092172616771e+00
"V0:p" 2.632640872435980e-06
"V1:p" 4.283397249032235e-07
"VDD:p" -5.332652143475980e-06
"vdd" 1.200000000000000e+00
"vss" 0.000000000000000e+00
"time" 7.000000000000000e-13
"GND:p" 5.267960577384309e-06
"in0" 1.200000000000000e+00
"in1" 0.000000000000000e+00
"net13" 1.193144792717606e+00
"out" 1.192632805536148e+00
"V0:p" 6.426031641561523e-06
"V1:p" 9.437985766040127e-07
"VDD:p" -1.263779079555158e-05
"vdd" 1.200000000000000e+00
"vss" 0.000000000000000e+00
"time" 1.149154045614334e-12
"GND:p" 8.656445395147213e-06
"in0" 1.200000000000000e+00
"in1" 0.000000000000000e+00
"net13" 1.220724004612004e+00
"out" 1.181264805262829e+00
"V0:p" 1.064597677197475e-05
"V1:p" 1.743124972235878e-06
"VDD:p" -2.104554713935741e-05
"vdd" 1.200000000000000e+00
"vss" 0.000000000000000e+00
"time" 1.796441411552106e-12
"GND:p" 1.360010404583093e-05
"in0" 1.200000000000000e+00
"in1" 0.000000000000000e+00
"net13" 1.284845341499095e+00
"out" 1.155422681529998e+00
"V0:p" 1.568079767610777e-05
"V1:p" 3.982848045344895e-06
"VDD:p" -3.326374976728305e-05
"vdd" 1.200000000000000e+00
"vss" 0.000000000000000e+00
"time" 3.091016143427649e-12
"GND:p" 2.321335317225340e-05
"in0" 1.200000000000000e+00
"in1" 0.000000000000000e+00
"net13" 1.502787848894016e+00
"out" 1.073024254989779e+00
"V0:p" 2.144326608819915e-05
"V1:p" 1.247962824292463e-05
"VDD:p" -5.713624750337788e-05
"vdd" 1.200000000000000e+00
"vss" 0.000000000000000e+00
"time" 4.045508071713824e-12
"GND:p" 2.877377634060566e-05
"in0" 1.200000000000000e+00
"in1" 0.000000000000000e+00
"net13" 1.739145595465561e+00
"out" 9.890281821940132e-01
"V0:p" 1.796153585427030e-05
"V1:p" 2.410607294983181e-05
"VDD:p" -7.084138514470661e-05
"vdd" 1.200000000000000e+00
"vss" 0.000000000000000e+00
"time" 4.284131053785368e-12
"GND:p" 2.490690802219136e-05
"in0" 1.200000000000000e+00
"in1" 0.000000000000000e+00
"net13" 1.801712362439409e+00
"out" 9.677374913989771e-01
"V0:p" 1.449723483427532e-05
"V1:p" 2.373454428152649e-05
"VDD:p" -6.313868713799203e-05
"vdd" 1.200000000000000e+00
"vss" 0.000000000000000e+00
"time" 4.373614672062197e-12
"GND:p" 1.754386256075493e-05
"in0" 1.200000000000000e+00
"in1" 0.000000000000000e+00
"net13" 1.820388531425899e+00
"out" 9.617229973919629e-01
"V0:p" 1.257597146323317e-05
"V1:p" 1.864023085200167e-05
"VDD:p" -4.876006487599210e-05
"vdd" 1.200000000000000e+00
"vss" 0.000000000000000e+00
"time" 4.552581908615856e-12
"GND:p" 2.540575518972816e-06
"in0" 1.200000000000000e+00
"in1" 0.000000000000000e+00
"net13" 1.838112083608252e+00
"out" 9.573774568264132e-01
"V0:p" 8.768512458853557e-06
"V1:p" 7.574765166515713e-06
"VDD:p" -1.888385314434235e-05
"vdd" 1.200000000000000e+00
"vss" 0.000000000000000e+00
"time" 4.604812508315218e-12
"GND:p" 2.021515676780803e-06
"in0" 1.200000000000000e+00
"in1" 0.000000000000000e+00
"net13" 1.839288624069765e+00
"out" 9.576618044346649e-01
"V0:p" 9.273084954818726e-06
"V1:p" 6.834335602132222e-06
"VDD:p" -1.812893623373344e-05
"vdd" 1.200000000000000e+00
"vss" 0.000000000000000e+00
"time" 4.709273707713941e-12
"GND:p" 1.495056363346348e-06
"in0" 1.200000000000000e+00
"in1" 0.000000000000000e+00
"net13" 1.841102908845786e+00
"out" 9.584360464153311e-01
"V0:p" 8.509752538120536e-06
"V1:p" 6.753599343639967e-06
"VDD:p" -1.675840824511413e-05
"vdd" 1.200000000000000e+00
"vss" 0.000000000000000e+00
"time" 4.880064513395605e-12
"GND:p" 1.524092237584034e-06
"in0" 1.200000000000000e+00
"in1" 0.000000000000000e+00
"net13" 1.843650390896066e+00
"out" 9.598542465786507e-01
"V0:p" 9.090666304453265e-06
"V1:p" 6.420184913240444e-06
"VDD:p" -1.703494345526915e-05
"vdd" 1.200000000000000e+00
"vss" 0.000000000000000e+00
"time" 5.000000000000000e-12
"GND:p" 1.355891540023915e-06
"in0" 1.200000000000000e+00
"in1" 0.000000000000000e+00
"net13" 1.845357493440107e+00
"out" 9.608743516465419e-01
"V0:p" 8.390649793612597e-06
"V1:p" 6.614979564304197e-06
"VDD:p" -1.636152089795072e-05
"vdd" 1.200000000000000e+00
"vss" 0.000000000000000e+00
"time" 5.239870973208788e-12
"GND:p" 1.103962474236191e-06
"in0" 1.200000000000000e+00
"in1" 0.000000000000000e+00
"net13" 1.847975730364468e+00
"out" 9.631881415194162e-01
"V0:p" 8.570858747207686e-06
"V1:p" 6.216537500122097e-06
"VDD:p" -1.589135872156658e-05
"vdd" 1.200000000000000e+00
"vss" 0.000000000000000e+00
"time" 5.619935486604394e-12
"GND:p" 9.729691938911924e-07
"in0" 1.200000000000000e+00
"in1" 0.000000000000000e+00
"net13" 1.851879833369111e+00
"out" 9.669106866002108e-01
"V0:p" 8.383086977828847e-06
"V1:p" 6.080850139717455e-06
"VDD:p" -1.543690631143617e-05
"vdd" 1.200000000000000e+00
"vss" 0.000000000000000e+00
"time" 5.999999999999999e-12
"GND:p" 9.417955082318287e-07
"in0" 1.200000000000000e+00
"in1" 0.000000000000000e+00
"net13" 1.855481451680668e+00
"out" 9.706763241129333e-01
"V0:p" 8.249977732059617e-06
"V1:p" 5.996328413600884e-06
"VDD:p" -1.518810165389338e-05
"vdd" 1.200000000000000e+00
"vss" 0.000000000000000e+00
"time" 6.760129026791211e-12
"GND:p" 5.470888490226975e-07
"in0" 1.200000000000000e+00
"in1" 0.000000000000000e+00
"net13" 1.859599547539530e+00
"out" 9.790007786906009e-01
"V0:p" 7.857036985362844e-06
"V1:p" 5.572328150794475e-06
"VDD:p" -1.397645398518069e-05
"vdd" 1.200000000000000e+00
"vss" 0.000000000000000e+00
"time" 8.153107143363124e-12
"GND:p" 1.582287145620296e-07
"in0" 1.200000000000000e+00
"in1" 0.000000000000000e+00
"net13" 1.864466841424054e+00
"out" 9.946790799857741e-01
"V0:p" 7.065997186938828e-06
"V1:p" 5.120682664010024e-06
"VDD:p" -1.234490856551042e-05
"vdd" 1.200000000000000e+00
"vss" 0.000000000000000e+00
"time" 9.773588094636757e-12
"GND:p" -3.846828286981474e-07
"in0" 1.200000000000000e+00
"in1" 0.000000000000000e+00
"net13" 1.862643965290851e+00
"out" 1.014229484832652e+00
"V0:p" 6.195999428547672e-06
"V1:p" 4.400881477380819e-06
"VDD:p" -1.021219807722994e-05
"vdd" 1.200000000000000e+00
"vss" 0.000000000000000e+00
"time" 1.100000000000000e-11
"GND:p" -2.446265121047455e-06
"in0" 1.200000000000000e+00
"in1" 0.000000000000000e+00
"net13" 1.845454625958607e+00
"out" 1.033733449524573e+00
"V0:p" 4.456590793447480e-06
"V1:p" 2.832128144237254e-06
"VDD:p" -4.842453816638125e-06
"vdd" 1.200000000000000e+00
"vss" 0.000000000000000e+00
"time" 1.285081812705586e-11
"GND:p" -6.377447348268144e-07
"in0" 1.200000000000000e+00
"in1" 0.000000000000000e+00
"net13" 1.833790054782764e+00
"out" 1.054532704773148e+00
"V0:p" 4.613162307307749e-06
"V1:p" 3.498349070249698e-06
"VDD:p" -7.473766642730322e-06
"vdd" 1.200000000000000e+00
"vss" 0.000000000000000e+00
"time" 1.429162315737696e-11
"GND:p" -2.733863400723723e-07
"in0" 1.200000000000000e+00
"in1" 0.000000000000000e+00
"net13" 1.827312598400413e+00
"out" 1.069054833586056e+00
"V0:p" 4.171818425466275e-06
"V1:p" 3.487727049255332e-06
"VDD:p" -7.386159134649559e-06
"vdd" 1.200000000000000e+00
"vss" 0.000000000000000e+00
"time" 1.629162315737696e-11
"GND:p" -7.191358280225332e-08
"in0" 1.200000000000000e+00
"in1" 0.000000000000000e+00
"net13" 1.823905652380050e+00
"out" 1.085277538752863e+00
"V0:p" 3.875684310162287e-06
"V1:p" 3.124867379980465e-06
"VDD:p" -6.928638107339765e-06
"vdd" 1.200000000000000e+00
"vss" 0.000000000000000e+00
"time" 1.829162315737696e-11
"GND:p" -3.753316924583302e-08
"in0" 1.200000000000000e+00
"in1" 0.000000000000000e+00
"net13" 1.822822562808819e+00
"out" 1.098850358200523e+00
"V0:p" 3.315170386416326e-06
"V1:p" 2.901521985941178e-06
"VDD:p" -6.179159203112864e-06
"vdd" 1.200000000000000e+00
"vss" 0.000000000000000e+00
"time" 2.029162315737696e-11
"GND:p" 1.518689238370457e-08
"in0" 1.200000000000000e+00
"in1" 0.000000000000000e+00
"net13" 1.822598870871546e+00
"out" 1.110584937987942e+00
"V0:p" 3.089361141584208e-06
"V1:p" 2.535939289336033e-06
"VDD:p" -5.640487323302375e-06
"vdd" 1.200000000000000e+00
"vss" 0.000000000000000e+00
"time" 2.229162315737695e-11
"GND:p" 2.097399874172399e-09
"in0" 1.200000000000000e+00
"in1" 0.000000000000000e+00
"net13" 1.822765753211269e+00
"out" 1.120849223250902e+00
"V0:p" 2.612680071841447e-06
"V1:p" 2.349827862523244e-06
"VDD:p" -4.964605334240218e-06
"vdd" 1.200000000000000e+00
"vss" 0.000000000000000e+00
"time" 2.429162315737695e-11
"GND:p" 3.302731480667942e-08
"in0" 1.200000000000000e+00
"in1" 0.000000000000000e+00
"net13" 1.823108417476597e+00
"out" 1.129881225646579e+00
"V0:p" 2.462511444384249e-06
"V1:p" 2.028893484013627e-06
"VDD:p" -4.524432243203037e-06
"vdd" 1.200000000000000e+00
"vss" 0.000000000000000e+00
"time" 2.629162315737695e-11
"GND:p" 9.227526421945091e-09
"in0" 1.200000000000000e+00
"in1" 0.000000000000000e+00
"net13" 1.823521353847293e+00
"out" 1.137854726835091e+00
"V0:p" 2.053708499842359e-06
"V1:p" 1.888102115615326e-06
"VDD:p" -3.951038141880714e-06
"vdd" 1.200000000000000e+00
"vss" 0.000000000000000e+00
"time" 2.829162315737695e-11
"GND:p" 3.465051696128008e-08
"in0" 1.200000000000000e+00
"in1" 0.000000000000000e+00
"net13" 1.823950311382243e+00
"out" 1.144906797344453e+00
"V0:p" 1.964291432383036e-06
"V1:p" 1.610710494430616e-06
"VDD:p" -3.609652443773632e-06
"vdd" 1.200000000000000e+00
"vss" 0.000000000000000e+00
"time" 3.029162315737695e-11
"GND:p" 7.975629453840249e-09
"in0" 1.200000000000000e+00
"in1" 0.000000000000000e+00
"net13" 1.824366961210073e+00
"out" 1.151150661455238e+00
"V0:p" 1.609807277743424e-06
"V1:p" 1.510751882429733e-06
"VDD:p" -3.128534789628136e-06
"vdd" 1.200000000000000e+00
"vss" 0.000000000000000e+00
"time" 3.229162315737695e-11
"GND:p" 3.193157457241626e-08
"in0" 1.200000000000000e+00
"in1" 0.000000000000000e+00
"net13" 1.824756843420854e+00
"out" 1.156682458823227e+00
"V0:p" 1.568941391222815e-06
"V1:p" 1.271148616699854e-06
"VDD:p" -2.872021582493838e-06
"vdd" 1.200000000000000e+00
"vss" 0.000000000000000e+00
"time" 3.429162315737695e-11
"GND:p" 4.570361969851328e-09
"in0" 1.200000000000000e+00
"in1" 0.000000000000000e+00
"net13" 1.825113189106388e+00
"out" 1.161585207589346e+00
"V0:p" 1.257836830744338e-06
"V1:p" 1.205870856193753e-06
"VDD:p" -2.468278048909080e-06
"vdd" 1.200000000000000e+00
"vss" 0.000000000000000e+00
"time" 3.629162315737695e-11
"GND:p" 2.828115950400400e-08
"in0" 1.200000000000000e+00
"in1" 0.000000000000000e+00
"net13" 1.825433576487040e+00
"out" 1.165931351484936e+00
"V0:p" 1.255707442285617e-06
"V1:p" 9.979123731909569e-07
"VDD:p" -2.281900974979331e-06
"vdd" 1.200000000000000e+00
"vss" 0.000000000000000e+00
"time" 3.829162315737695e-11
"GND:p" 9.247052156853647e-10
"in0" 1.200000000000000e+00
"in1" 0.000000000000000e+00
"net13" 1.825718047025221e+00
"out" 1.169784528446016e+00
"V0:p" 9.791669820615890e-07
"V1:p" 9.613839453734292e-07
"VDD:p" -1.941475632652384e-06
"vdd" 1.200000000000000e+00
"vss" 0.000000000000000e+00
"time" 4.029162315737695e-11
"GND:p" 2.477924928475369e-08
"in0" 1.200000000000000e+00
"in1" 0.000000000000000e+00
"net13" 1.825968012766163e+00
"out" 1.173200878452196e+00
"V0:p" 1.007851680366880e-06
"V1:p" 7.794545696605736e-07
"VDD:p" -1.812085499310798e-06
"vdd" 1.200000000000000e+00
"vss" 0.000000000000000e+00
"time" 4.229162315737695e-11
"GND:p" -2.360079277423498e-09
"in0" 1.200000000000000e+00
"in1" 0.000000000000000e+00
"net13" 1.826185609859516e+00
"out" 1.176230059642566e+00
"V0:p" 7.587569174459553e-07
"V1:p" 7.664252586447656e-07
"VDD:p" -1.522822096814978e-06
"vdd" 1.200000000000000e+00
"vss" 0.000000000000000e+00
"time" 4.429162315737695e-11
"GND:p" 2.174572303296872e-08
"in0" 1.200000000000000e+00
"in1" 0.000000000000000e+00
"net13" 1.826373311723693e+00
"out" 1.178916068142282e+00
"V0:p" 8.118654295832231e-07
"V1:p" 6.056587529333211e-07
"VDD:p" -1.439269905547778e-06
"vdd" 1.200000000000000e+00
"vss" 0.000000000000000e+00
"time" 4.629162315737695e-11
"GND:p" -5.131736495222343e-09
"in0" 1.200000000000000e+00
"in1" 0.000000000000000e+00
"net13" 1.826533697115504e+00
"out" 1.181297918604548e+00
"V0:p" 5.844880763994980e-07
"V1:p" 6.116465518264353e-07
"VDD:p" -1.191002891732608e-06
"vdd" 1.200000000000000e+00
"vss" 0.000000000000000e+00
"time" 4.829162315737695e-11
"GND:p" 1.923258861261066e-08
"in0" 1.200000000000000e+00
"in1" 0.000000000000000e+00
"net13" 1.826669312443618e+00
"out" 1.183410221419304e+00
"V0:p" 6.568949748328375e-07
"V1:p" 4.679347641240221e-07
"VDD:p" -1.144062327567519e-06
"vdd" 1.200000000000000e+00
"vss" 0.000000000000000e+00
"time" 5.029162315737695e-11
"GND:p" -7.397746974666164e-09
"in0" 1.200000000000000e+00
"in1" 0.000000000000000e+00
"net13" 1.826782592276785e+00
"out" 1.185283680415385e+00
"V0:p" 4.466583844507749e-07
"V1:p" 4.891890765859533e-07
"VDD:p" -9.284497140641218e-07
"vdd" 1.200000000000000e+00
"vss" 0.000000000000000e+00
"time" 5.229162315737695e-11
"GND:p" 1.719793253581631e-08
"in0" 1.200000000000000e+00
"in1" 0.000000000000000e+00
"net13" 1.826875816154026e+00
"out" 1.186945527507509e+00
"V0:p" 5.342854591085876e-07
"V1:p" 3.591196287708398e-07
"VDD:p" -9.106030204136176e-07
"vdd" 1.200000000000000e+00
"vss" 0.000000000000000e+00
"time" 5.429162315737695e-11
"GND:p" -9.218881895379593e-09
"in0" 1.200000000000000e+00
"in1" 0.000000000000000e+00
"net13" 1.826951088149373e+00
"out" 1.188419905992069e+00
"V0:p" 3.375625044135151e-07
"V1:p" 3.925456240299954e-07
"VDD:p" -7.208892465496490e-07
"vdd" 1.200000000000000e+00
"vss" 0.000000000000000e+00
"time" 5.629162315737695e-11
"GND:p" 1.557186393266834e-08
"in0" 1.200000000000000e+00
"in1" 0.000000000000000e+00
"net13" 1.827010330667429e+00
"out" 1.189728210987206e+00
"V0:p" 4.371890433676281e-07
"V1:p" 2.733201706936155e-07
"VDD:p" -7.260810779919063e-07
"vdd" 1.200000000000000e+00
"vss" 0.000000000000000e+00
"time" 5.829162315737695e-11
"GND:p" -1.066807054332128e-08
"in0" 1.200000000000000e+00
"in1" 0.000000000000000e+00
"net13" 1.827055287027326e+00
"out" 1.190889393277065e+00
"V0:p" 2.511234431566442e-07
"V1:p" 3.163950151962161e-07
"VDD:p" -5.568503878111110e-07
"vdd" 1.200000000000000e+00
"vss" 0.000000000000000e+00
"time" 6.029162315737696e-11
"GND:p" 1.428217066073062e-08
"in0" 1.200000000000000e+00
"in1" 0.000000000000000e+00
"net13" 1.827087529316623e+00
"out" 1.191920231251119e+00
"V0:p" 3.602184501227055e-07
"V1:p" 2.057455816121831e-07
"VDD:p" -5.802462023937762e-07
"vdd" 1.200000000000000e+00
"vss" 0.000000000000000e+00
"time" 6.229162315737697e-11
"GND:p" -1.181455053682547e-08
"in0" 1.200000000000000e+00
"in1" 0.000000000000000e+00
"net13" 1.827108469220264e+00
"out" 1.192835574543122e+00
"V0:p" 1.825683771706242e-07
"V1:p" 2.564359543252256e-07
"VDD:p" -4.271897809610302e-07
"vdd" 1.200000000000000e+00
"vss" 0.000000000000000e+00
"time" 6.429162315737697e-11
"GND:p" 1.326387284009739e-08
"in0" 1.200000000000000e+00
"in1" 0.000000000000000e+00
"net13" 1.827119370322447e+00
"out" 1.193648562242883e+00
"V0:p" 2.991462491701290e-07
"V1:p" 1.525442201121146e-07
"VDD:p" -4.649543421204979e-07
"vdd" 1.200000000000000e+00
"vss" 0.000000000000000e+00
"time" 6.629162315737698e-11
"GND:p" -1.271839692653922e-08
"in0" 1.200000000000000e+00
"in1" 0.000000000000000e+00
"net13" 1.827121360902408e+00
"out" 1.194370818077424e+00
"V0:p" 1.281525963392219e-07
"V1:p" 2.092278153277466e-07
"VDD:p" -3.246620147427060e-07
"vdd" 1.200000000000000e+00
"vss" 0.000000000000000e+00
"time" 6.829162315737698e-11
"GND:p" 1.246203330351419e-08
"in0" 1.200000000000000e+00
"in1" 0.000000000000000e+00
"net13" 1.827115446595944e+00
"out" 1.195012624654728e+00
"V0:p" 2.506541492297269e-07
"V1:p" 1.106492993591691e-07
"VDD:p" -3.737654818898624e-07
"vdd" 1.200000000000000e+00
"vss" 0.000000000000000e+00
"time" 7.029162315737699e-11
"GND:p" -1.342944168059889e-08
"in0" 1.200000000000000e+00
"in1" 0.000000000000000e+00
"net13" 1.827102522532470e+00
"out" 1.195583078668499e+00
"V0:p" 8.493408463003581e-08
"V1:p" 1.720421966894175e-07
"VDD:p" -2.435468396414566e-07
"vdd" 1.200000000000000e+00
"vss" 0.000000000000000e+00
"time" 7.229162315737700e-11
"GND:p" 1.183172709285871e-08
"in0" 1.200000000000000e+00
"in1" 0.000000000000000e+00
"net13" 1.827083384719678e+00
"out" 1.196090228828239e+00
"V0:p" 2.121320497910618e-07
"V1:p" 7.763731753034703e-08
"VDD:p" -3.016010944117196e-07
"vdd" 1.200000000000000e+00
"vss" 0.000000000000000e+00
"time" 7.429162315737700e-11
"GND:p" -1.398799827688534e-08
"in0" 1.200000000000000e+00
"in1" 0.000000000000000e+00
"net13" 1.827058740558223e+00
"out" 1.196541198173002e+00
"V0:p" 5.059560194190468e-08
"V1:p" 1.427291829738130e-07
"VDD:p" -1.793367866414888e-07
"vdd" 1.200000000000000e+00
"vss" 0.000000000000000e+00
"time" 7.629162315737701e-11
"GND:p" 1.133690562416749e-08
