HEADER
"PSFversion" "1.00"
"simulator" "spectre"
"version" "19.1.0.237.isr3"
"date" "1:46:45 AM, Sat Sep 10, 2022"
"design" "// Generated for: spectre"
"analysis type" "tran"
"analysis name" "sim"
"analysis description" "Transient Analysis `sim': time = (0 s -> 100 ps)"
"xVecSorted" "ascending"
"tolerance.relative" 0.00100000
"start" 0.00000
"outputstart" 0.00000
"stop" 1.00000e-10
"step" 1.00000e-13
"istep" 0.00100000
"maxstep" 2.00000e-12
"ic" "all"
"useprevic" "no"
"skipdc" "no"
"reltol" 0.00100000
"abstol(V)" 1.00000e-06
"abstol(I)" 1.00000e-12
"temp" 27.0000
"tnom" 27.0000
"tempeffects" "all"
"errpreset" "moderate"
"method" "traponly"
"lteratio" 3.50000
"relref" "sigglobal"
"cmin" 0.00000
"gmin" 1.00000e-12
TYPE
"sweep" FLOAT DOUBLE PROP(
"key" "sweep"
)
"LogicV" FLOAT DOUBLE PROP(
"key" "node"
)
"Tau" FLOAT DOUBLE PROP(
"units" "N*m"
"key" "node"
"tolerance" 1.00000e-06
)
"Alpha" FLOAT DOUBLE PROP(
"units" "rads/s^2"
"key" "node"
"tolerance" 1.00000e-06
)
"Omega" FLOAT DOUBLE PROP(
"units" "rads/s"
"key" "node"
"tolerance" 1.00000e-06
)
"Theta" FLOAT DOUBLE PROP(
"units" "rads"
"key" "node"
"tolerance" 1.00000e-06
)
"F" FLOAT DOUBLE PROP(
"units" "N"
"key" "node"
"tolerance" 1.00000e-06
)
"Imp" FLOAT DOUBLE PROP(
"units" "m/s^3"
"key" "node"
"tolerance" 1.00000e-06
)
"Acc" FLOAT DOUBLE PROP(
"units" "m/s^2"
"key" "node"
"tolerance" 1.00000e-06
)
"Vel" FLOAT DOUBLE PROP(
"units" "m/s"
"key" "node"
"tolerance" 1.00000e-06
)
"Pos" FLOAT DOUBLE PROP(
"units" "m"
"key" "node"
"tolerance" 1.00000e-06
)
"Phi" FLOAT DOUBLE PROP(
"units" "Wb"
"key" "node"
"tolerance" 1.00000e-09
)
"V" FLOAT DOUBLE PROP(
"units" "V"
"key" "node"
"tolerance" 1.00000e-06
)
"I" FLOAT DOUBLE PROP(
"units" "A"
"key" "branch"
"tolerance" 1.00000e-12
)
"MMF" FLOAT DOUBLE PROP(
"units" "A*turn"
"key" "node"
"tolerance" 1.00000e-12
)
"Wb" FLOAT DOUBLE PROP(
"units" "Wb"
"key" "node"
"tolerance" 1.00000e-09
)
"Temp" FLOAT DOUBLE PROP(
"units" "C"
"key" "node"
"tolerance" 0.000100000
)
"Pwr" FLOAT DOUBLE PROP(
"units" "W"
"key" "node"
"tolerance" 1.00000e-09
)
"U" FLOAT DOUBLE PROP(
"units" ""
"key" "node"
"tolerance" 1.00000e-06
)
"V/Sec" FLOAT DOUBLE PROP(
"units" "V/s"
"key" "node"
"tolerance" 0.000100000
)
"I/Sec" FLOAT DOUBLE PROP(
"units" "A/s"
"key" "node"
"tolerance" 1.00000e-06
)
"1/Sec" FLOAT DOUBLE PROP(
"units" "1/s"
"key" "node"
"tolerance" 0.000100000
)
"HOD" FLOAT DOUBLE PROP(
"units" ""
"key" "node"
"tolerance" 0.0100000
)
"Q" FLOAT DOUBLE PROP(
"units" "coul"
"key" "node"
"tolerance" 1.00000e-14
)
SWEEP
"time" "sweep" PROP(
"sweep_direction" 0
"units" "s"
"plot" 0
"grid" 1
)
TRACE
"in0" "V"
"in1" "V"
"net13" "V"
"out" "V"
"V0:p" "I"
"V1:p" "I"
"VDD:p" "I"
"VSS:p" "I"
"vdd" "V"
"vss" "V"
VALUE
"time" 0.000000000000000e+00
"in0" 0.000000000000000e+00
"in1" 0.000000000000000e+00
"net13" 2.470546966412399e-02
"out" 1.199999584058010e+00
"V0:p" 2.859123199320163e-11
"V1:p" 3.016613384934715e-11
"VDD:p" -1.148585513731463e-10
"VSS:p" 5.610122483096415e-11
"vdd" 1.200000000000000e+00
"vss" 0.000000000000000e+00
"time" 1.000000000000000e-13
"in0" 0.000000000000000e+00
"in1" 0.000000000000000e+00
"net13" 2.695732309149563e-02
"out" 1.199173522173290e+00
"V0:p" 1.093094683100711e-06
"V1:p" 1.592007982711888e-06
"VDD:p" -6.321191160212633e-06
"VSS:p" 3.636088494402421e-06
"vdd" 1.200000000000000e+00
"vss" 0.000000000000000e+00
"time" 2.912773305043290e-13
"in0" 0.000000000000000e+00
"in1" 0.000000000000000e+00
"net13" 3.950709460873164e-02
"out" 1.194623884315758e+00
"V0:p" 3.336478066410592e-06
"V1:p" 4.904881957545272e-06
"VDD:p" -1.879739670048256e-05
"VSS:p" 1.055603667652648e-05
"vdd" 1.200000000000000e+00
"vss" 0.000000000000000e+00
"time" 6.084903612607047e-13
"in0" 0.000000000000000e+00
"in1" 0.000000000000000e+00
"net13" 7.162544353920657e-02
"out" 1.183029641816800e+00
"V0:p" 7.215881880657082e-06
"V1:p" 1.105090380498693e-05
"VDD:p" -3.994905012856029e-05
"VSS:p" 2.168226444292071e-05
"vdd" 1.200000000000000e+00
"vss" 0.000000000000000e+00
"time" 8.042451806303523e-13
"in0" 0.000000000000000e+00
"in1" 0.000000000000000e+00
"net13" 1.026888086192137e-01
"out" 1.171848632151287e+00
"V0:p" 9.722487212942194e-06
"V1:p" 1.559798549999073e-05
"VDD:p" -5.344543625362981e-05
"VSS:p" 2.812496354070080e-05
"vdd" 1.200000000000000e+00
"vss" 0.000000000000000e+00
"time" 1.000000000000000e-12
"in0" 0.000000000000000e+00
"in1" 0.000000000000000e+00
"net13" 1.422394406765302e-01
"out" 1.157623414416645e+00
"V0:p" 1.228336613774339e-05
"V1:p" 2.068167521242108e-05
"VDD:p" -6.727669351512869e-05
"VSS:p" 3.431165216495791e-05
"vdd" 1.200000000000000e+00
"vss" 0.000000000000000e+00
"time" 1.391509638739295e-12
"in0" 0.000000000000000e+00
"in1" 0.000000000000000e+00
"net13" 2.293157899884339e-01
"out" 1.127062027702955e+00
"V0:p" 1.349001654439954e-05
"V1:p" 2.397652189490520e-05
"VDD:p" -7.095370199618117e-05
"VSS:p" 3.348716355687644e-05
"vdd" 1.200000000000000e+00
"vss" 0.000000000000000e+00
"time" 1.701150677651395e-12
"in0" 0.000000000000000e+00
"in1" 0.000000000000000e+00
"net13" 2.971365647207991e-01
"out" 1.102924759606232e+00
"V0:p" 1.333722888643970e-05
"V1:p" 2.971276576724001e-05
"VDD:p" -7.358344282606258e-05
"VSS:p" 3.053344817239088e-05
"vdd" 1.200000000000000e+00
"vss" 0.000000000000000e+00
"time" 2.104172180533596e-12
"in0" 0.000000000000000e+00
"in1" 0.000000000000000e+00
"net13" 3.834368714083707e-01
"out" 1.072029802406741e+00
"V0:p" 1.405768219722553e-05
"V1:p" 3.285249648447085e-05
"VDD:p" -7.725802869707314e-05
"VSS:p" 3.034785001536994e-05
"vdd" 1.200000000000000e+00
"vss" 0.000000000000000e+00
"time" 2.910215186297998e-12
"in0" 0.000000000000000e+00
"in1" 0.000000000000000e+00
"net13" 5.456063926353928e-01
"out" 1.011324588616400e+00
"V0:p" 1.189244385214948e-05
"V1:p" 4.737736752603030e-05
"VDD:p" -8.385327132881709e-05
"VSS:p" 2.458345995064518e-05
"vdd" 1.200000000000000e+00
"vss" 0.000000000000000e+00
"time" 3.955732414888154e-12
"in0" 0.000000000000000e+00
"in1" 0.000000000000000e+00
"net13" 7.254304621491481e-01
"out" 9.324732584723768e-01
"V0:p" 6.985650621060099e-06
"V1:p" 6.542886086541935e-05
"VDD:p" -9.249031204505530e-05
"VSS:p" 2.007580055856782e-05
"vdd" 1.200000000000000e+00
"vss" 0.000000000000000e+00
"time" 5.042483943406272e-12
"in0" 0.000000000000000e+00
"in1" 0.000000000000000e+00
"net13" 8.806318435412921e-01
"out" 8.476383956528243e-01
"V0:p" 6.069587835168611e-06
"V1:p" 7.730600949710931e-05
"VDD:p" -9.877533706002780e-05
"VSS:p" 1.539973972775886e-05
"vdd" 1.200000000000000e+00
"vss" 0.000000000000000e+00
"time" 5.999999999999999e-12
"in0" 0.000000000000000e+00
"in1" 0.000000000000000e+00
"net13" 1.033400318672729e+00
"out" 7.736266896333820e-01
"V0:p" 2.424067241962134e-05
"V1:p" 5.145005002479838e-05
"VDD:p" -9.848502522722065e-05
"VSS:p" 2.279430278279211e-05
"vdd" 1.200000000000000e+00
"vss" 0.000000000000000e+00
"time" 6.741290905334035e-12
"in0" 0.000000000000000e+00
"in1" 0.000000000000000e+00
"net13" 1.150346356871538e+00
"out" 7.342178455606332e-01
"V0:p" 2.292699939978328e-05
"V1:p" 5.084307708974798e-05
"VDD:p" -9.209369931670663e-05
"VSS:p" 1.832362282717438e-05
"vdd" 1.200000000000000e+00
"vss" 0.000000000000000e+00
"time" 7.575617030849385e-12
"in0" 0.000000000000000e+00
"in1" 0.000000000000000e+00
"net13" 1.278030319520635e+00
"out" 7.007483531807723e-01
"V0:p" 2.822588911105188e-05
"V1:p" 3.673267442945567e-05
"VDD:p" -8.128909319070101e-05
"VSS:p" 1.633052965019389e-05
"vdd" 1.200000000000000e+00
"vss" 0.000000000000000e+00
"time" 8.647855440020098e-12
"in0" 0.000000000000000e+00
"in1" 0.000000000000000e+00
"net13" 1.403056472783097e+00
"out" 6.856493608503800e-01
"V0:p" 1.846430487700856e-05
"V1:p" 4.577202471487642e-05
"VDD:p" -7.366035694669550e-05
"VSS:p" 9.424027354809779e-06
"vdd" 1.200000000000000e+00
"vss" 0.000000000000000e+00
"time" 9.469133076498574e-12
"in0" 0.000000000000000e+00
"in1" 0.000000000000000e+00
"net13" 1.461904465148062e+00
"out" 6.937810764327232e-01
"V0:p" 1.846511909429896e-05
"V1:p" 3.756627378263474e-05
"VDD:p" -6.216177482895384e-05
"VSS:p" 6.130381952019478e-06
"vdd" 1.200000000000000e+00
"vss" 0.000000000000000e+00
"time" 1.023456653824929e-11
"in0" 0.000000000000000e+00
"in1" 0.000000000000000e+00
"net13" 1.486340902613381e+00
"out" 7.151401056962603e-01
"V0:p" 8.595147518514187e-06
"V1:p" 4.696239882454751e-05
"VDD:p" -5.630424807067143e-05
"VSS:p" 7.467017276091878e-07
"vdd" 1.200000000000000e+00
"vss" 0.000000000000000e+00
"time" 1.100000000000000e-11
"in0" 0.000000000000000e+00
"in1" 0.000000000000000e+00
"net13" 1.484906358138926e+00
"out" 7.470056081035786e-01
"V0:p" 9.945409988728216e-06
"V1:p" 3.645346850241197e-05
"VDD:p" -4.524991402264750e-05
"VSS:p" -1.148964468492574e-06
"vdd" 1.200000000000000e+00
"vss" 0.000000000000000e+00
"time" 1.197652823875792e-11
"in0" 0.000000000000000e+00
"in1" 0.000000000000000e+00
"net13" 1.470977159511875e+00
"out" 7.890931418634186e-01
"V0:p" 7.456155389647600e-06
"V1:p" 3.783844506717746e-05
"VDD:p" -4.376101896955336e-05
"VSS:p" -1.533581487270889e-06
"vdd" 1.200000000000000e+00
"vss" 0.000000000000000e+00
"time" 1.281916698926468e-11
"in0" 0.000000000000000e+00
"in1" 0.000000000000000e+00
"net13" 1.460191749976371e+00
"out" 8.228809989832950e-01
"V0:p" 8.323731876715470e-06
"V1:p" 3.338671261413397e-05
"VDD:p" -4.048643258203850e-05
"VSS:p" -1.224011908813436e-06
"vdd" 1.200000000000000e+00
"vss" 0.000000000000000e+00
"time" 1.387161627369982e-11
"in0" 0.000000000000000e+00
"in1" 0.000000000000000e+00
"net13" 1.448787913401397e+00
"out" 8.604931692471517e-01
"V0:p" 7.797887805836768e-06
"V1:p" 3.104754449729354e-05
"VDD:p" -3.772736612318435e-05
"VSS:p" -1.118066179943456e-06
"vdd" 1.200000000000000e+00
"vss" 0.000000000000000e+00
"time" 1.587161627369982e-11
"in0" 0.000000000000000e+00
"in1" 0.000000000000000e+00
"net13" 1.431904171865916e+00
"out" 9.203750835763689e-01
"V0:p" 8.289905769924443e-06
"V1:p" 2.416708736657564e-05
"VDD:p" -3.174570072759197e-05
"VSS:p" -7.112924089110249e-07
"vdd" 1.200000000000000e+00
"vss" 0.000000000000000e+00
"time" 1.787161627369982e-11
"in0" 0.000000000000000e+00
"in1" 0.000000000000000e+00
"net13" 1.419623731621451e+00
"out" 9.685747495917751e-01
"V0:p" 6.979471120589303e-06
"V1:p" 2.125237030617319e-05
"VDD:p" -2.760904341986053e-05
"VSS:p" -6.227980068993109e-07
"vdd" 1.200000000000000e+00
"vss" 0.000000000000000e+00
"time" 1.987161627369982e-11
"in0" 0.000000000000000e+00
"in1" 0.000000000000000e+00
"net13" 1.410568501234742e+00
"out" 1.008039947858498e+00
"V0:p" 6.961103885659675e-06
"V1:p" 1.639241500153272e-05
"VDD:p" -2.299071974751298e-05
"VSS:p" -3.627991396823302e-07
"vdd" 1.200000000000000e+00
"vss" 0.000000000000000e+00
"time" 2.187161627369982e-11
"in0" 0.000000000000000e+00
"in1" 0.000000000000000e+00
"net13" 1.403834997921289e+00
"out" 1.040660733944160e+00
"V0:p" 5.457456946024822e-06
"V1:p" 1.490500619105790e-05
"VDD:p" -1.999135449840357e-05
"VSS:p" -3.711086386758511e-07
"vdd" 1.200000000000000e+00
"vss" 0.000000000000000e+00
"time" 2.387161627369982e-11
"in0" 0.000000000000000e+00
"in1" 0.000000000000000e+00
"net13" 1.398798975511414e+00
"out" 1.067744992518203e+00
"V0:p" 5.421764321934222e-06
"V1:p" 1.113395699048220e-05
"VDD:p" -1.637739995587181e-05
"VSS:p" -1.783213565477642e-07
"vdd" 1.200000000000000e+00
"vss" 0.000000000000000e+00
"time" 2.587161627369982e-11
"in0" 0.000000000000000e+00
"in1" 0.000000000000000e+00
"net13" 1.395014807699039e+00
"out" 1.090270939830289e+00
"V0:p" 3.994170463292447e-06
"V1:p" 1.052167498728695e-05
"VDD:p" -1.428104077015356e-05
"VSS:p" -2.348046804226430e-07
"vdd" 1.200000000000000e+00
"vss" 0.000000000000000e+00
"time" 2.787161627369982e-11
"in0" 0.000000000000000e+00
"in1" 0.000000000000000e+00
"net13" 1.392157958053238e+00
"out" 1.109011311770391e+00
"V0:p" 4.080700564715610e-06
"V1:p" 7.473928276789916e-06
"VDD:p" -1.147741785083788e-05
"VSS:p" -7.721099066970600e-08
"vdd" 1.200000000000000e+00
"vss" 0.000000000000000e+00
"time" 2.987161627369982e-11
"in0" 0.000000000000000e+00
"in1" 0.000000000000000e+00
"net13" 1.389990118112441e+00
"out" 1.124596090719667e+00
"V0:p" 2.794501793386292e-06
"V1:p" 7.466493749219850e-06
"VDD:p" -1.010139694261663e-05
"VSS:p" -1.595985999873967e-07
"vdd" 1.200000000000000e+00
"vss" 0.000000000000000e+00
"time" 3.187161627369982e-11
"in0" 0.000000000000000e+00
"in1" 0.000000000000000e+00
"net13" 1.388335795074592e+00
"out" 1.137547449634598e+00
"V0:p" 3.025848126078354e-06
"V1:p" 4.926407319911317e-06
"VDD:p" -7.931140258418214e-06
"VSS:p" -2.111518757438255e-08
"vdd" 1.200000000000000e+00
"vss" 0.000000000000000e+00
"time" 3.387161627369982e-11
"in0" 0.000000000000000e+00
"in1" 0.000000000000000e+00
"net13" 1.387065621223962e+00
"out" 1.148301593939575e+00
"V0:p" 1.878823744557371e-06
"V1:p" 5.345091281354776e-06
"VDD:p" -7.106305843694169e-06
"VSS:p" -1.176091822149426e-07
"vdd" 1.200000000000000e+00
"vss" 0.000000000000000e+00
"time" 3.587161627369982e-11
"in0" 0.000000000000000e+00
"in1" 0.000000000000000e+00
"net13" 1.386084137035384e+00
"out" 1.157224001844365e+00
"V0:p" 2.238790344817073e-06
"V1:p" 3.162170441301645e-06
"VDD:p" -5.411415497800223e-06
"VSS:p" 1.045471167922480e-08
"vdd" 1.200000000000000e+00
"vss" 0.000000000000000e+00
"time" 3.787161627369982e-11
"in0" 0.000000000000000e+00
"in1" 0.000000000000000e+00
"net13" 1.385320779689196e+00
"out" 1.164621022766402e+00
"V0:p" 1.207533980998515e-06
"V1:p" 3.879650895345804e-06
"VDD:p" -4.993437681140824e-06
"VSS:p" -9.374719520034880e-08
"vdd" 1.200000000000000e+00
"vss" 0.000000000000000e+00
"time" 3.987161627369982e-11
"in0" 0.000000000000000e+00
"in1" 0.000000000000000e+00
"net13" 1.384723252368550e+00
"out" 1.170749227068343e+00
"V0:p" 1.669752051997540e-06
"V1:p" 1.946200845341362e-06
"VDD:p" -3.644553625872277e-06
"VSS:p" 2.860072852914818e-08
"vdd" 1.200000000000000e+00
"vss" 0.000000000000000e+00
"time" 4.187161627369982e-11
"in0" 0.000000000000000e+00
"in1" 0.000000000000000e+00
"net13" 1.384252650607754e+00
"out" 1.175823191611363e+00
"V0:p" 7.275490578677266e-07
"V1:p" 2.871587390864230e-06
"VDD:p" -3.519281150679137e-06
"VSS:p" -7.985529804826576e-08
"vdd" 1.200000000000000e+00
"vss" 0.000000000000000e+00
"time" 4.387161627369982e-11
"in0" 0.000000000000000e+00
"in1" 0.000000000000000e+00
"net13" 1.383879832838277e+00
"out" 1.180022081604049e+00
"V0:p" 1.266481806508727e-06
"V1:p" 1.111151471849333e-06
"VDD:p" -2.416938212539411e-06
"VSS:p" 3.930493417690404e-08
"vdd" 1.200000000000000e+00
"vss" 0.000000000000000e+00
"time" 4.587161627369982e-11
"in0" 0.000000000000000e+00
"in1" 0.000000000000000e+00
"net13" 1.383582870428831e+00
"out" 1.183495261101039e+00
"V0:p" 3.898247113394222e-07
"V1:p" 2.180302052975681e-06
"VDD:p" -2.498576316019859e-06
"VSS:p" -7.155044829058298e-08
"vdd" 1.200000000000000e+00
"vss" 0.000000000000000e+00
"time" 4.787161627369982e-11
"in0" 0.000000000000000e+00
"in1" 0.000000000000000e+00
"net13" 1.383345154747156e+00
"out" 1.186367066701805e+00
"V0:p" 9.843929792009377e-07
"V1:p" 5.391853218086372e-07
"VDD:p" -1.569370427974924e-06
"VSS:p" 4.579212696063205e-08
"vdd" 1.200000000000000e+00
"vss" 0.000000000000000e+00
"time" 4.987161627369982e-11
"in0" 0.000000000000000e+00
"in1" 0.000000000000000e+00
"net13" 1.383154016860408e+00
"out" 1.188740864512326e+00
"V0:p" 1.547118098634306e-07
"V1:p" 1.707270390064436e-06
"VDD:p" -1.795532207728768e-06
"VSS:p" -6.644999219416726e-08
"vdd" 1.200000000000000e+00
"vss" 0.000000000000000e+00
"time" 5.187161627369982e-11
"in0" 0.000000000000000e+00
"in1" 0.000000000000000e+00
"net13" 1.382999722003351e+00
"out" 1.190702487692454e+00
"V0:p" 7.887772866985061e-07
"V1:p" 1.481194623218403e-07
"VDD:p" -9.867236181587523e-07
"VSS:p" 4.982686913287653e-08
"vdd" 1.200000000000000e+00
"vss" 0.000000000000000e+00
"time" 5.387161627369981e-11
"in0" 0.000000000000000e+00
"in1" 0.000000000000000e+00
"net13" 1.382874735001049e+00
"out" 1.192323139370223e+00
"V0:p" -7.807619566260961e-09
"V1:p" 1.384066253498453e-06
"VDD:p" -1.313018375931859e-06
"VSS:p" -6.324025799469483e-08
"vdd" 1.200000000000000e+00
"vss" 0.000000000000000e+00
"time" 5.587161627369981e-11
"in0" 0.000000000000000e+00
"in1" 0.000000000000000e+00
"net13" 1.382773181419261e+00
"out" 1.193661836081547e+00
"V0:p" 6.539140926120093e-07
"V1:p" -1.189314939455027e-07
"VDD:p" -5.873759644879305e-07
"VSS:p" 5.239336581605636e-08
"vdd" 1.200000000000000e+00
"vss" 0.000000000000000e+00
"time" 5.787161627369981e-11
"in0" 0.000000000000000e+00
"in1" 0.000000000000000e+00
"net13" 1.382690450203086e+00
"out" 1.194767458333211e+00
"V0:p" -1.196122458619584e-07
"V1:p" 1.163458586681493e-06
"VDD:p" -9.826676406135871e-07
"VSS:p" -6.117870020079738e-08
"vdd" 1.200000000000000e+00
"vss" 0.000000000000000e+00
"time" 5.987161627369982e-11
"in0" 0.000000000000000e+00
"in1" 0.000000000000000e+00
"net13" 1.382622898819223e+00
"out" 1.195680466927249e+00
"V0:p" 5.612995319395219e-07
"V1:p" -3.011414335152300e-07
"VDD:p" -3.142141171383300e-07
"VSS:p" 5.405601870980980e-08
"vdd" 1.200000000000000e+00
"vss" 0.000000000000000e+00
"time" 6.187161627369983e-11
"in0" 0.000000000000000e+00
"in1" 0.000000000000000e+00
"net13" 1.382567632921712e+00
"out" 1.196434336251226e+00
"V0:p" -1.962801147305996e-07
"V1:p" 1.012984549949608e-06
"VDD:p" -7.568714028409683e-07
"VSS:p" -5.983303237381233e-08
"vdd" 1.200000000000000e+00
"vss" 0.000000000000000e+00
"time" 6.387161627369983e-11
"in0" 0.000000000000000e+00
"in1" 0.000000000000000e+00
"net13" 1.382522340456437e+00
"out" 1.197056748876715e+00
"V0:p" 4.978669226760937e-07
"V1:p" -4.253924398010657e-07
"VDD:p" -1.276229453603430e-07
"VSS:p" 5.514846248092402e-08
"vdd" 1.200000000000000e+00
"vss" 0.000000000000000e+00
"time" 6.587161627369984e-11
"in0" 0.000000000000000e+00
"in1" 0.000000000000000e+00
"net13" 1.382485165764089e+00
"out" 1.197570589573813e+00
"V0:p" -2.487389041889747e-07
"V1:p" 9.103966803884769e-07
"VDD:p" -6.027139422540584e-07
"VSS:p" -5.894383394083507e-08
"vdd" 1.200000000000000e+00
"vss" 0.000000000000000e+00
"time" 6.787161627369984e-11
"in0" 0.000000000000000e+00
"in1" 0.000000000000000e+00
"net13" 1.382454613269092e+00
"out" 1.197994771273519e+00
"V0:p" 4.544994085551573e-07
"V1:p" -5.100873337975020e-07
"VDD:p" -2.859245315186758e-10
"VSS:p" 5.587384976968891e-08
"vdd" 1.200000000000000e+00
"vss" 0.000000000000000e+00
"time" 6.987161627369985e-11
"in0" 0.000000000000000e+00
"in1" 0.000000000000000e+00
"net13" 1.382429473214946e+00
"out" 1.198344920591715e+00
"V0:p" -2.845798450572127e-07
"V1:p" 8.404785745867713e-07
"VDD:p" -4.975477744202979e-07
"VSS:p" -5.835095510459831e-08
"vdd" 1.200000000000000e+00
"vss" 0.000000000000000e+00
"time" 7.187161627369986e-11
"in0" 0.000000000000000e+00
"in1" 0.000000000000000e+00
"net13" 1.382408763957996e+00
"out" 1.198633946241309e+00
"V0:p" 4.248861660931901e-07
"V1:p" -5.678036111931417e-07
"VDD:p" 8.655824117999977e-08
"VSS:p" 5.635920391453129e-08
"vdd" 1.200000000000000e+00
"vss" 0.000000000000000e+00
"time" 7.387161627369986e-11
"in0" 0.000000000000000e+00
"in1" 0.000000000000000e+00
"net13" 1.382391686799936e+00
"out" 1.198872509958570e+00
"V0:p" -3.090424790264710e-07
"V1:p" 7.928368633924404e-07
"VDD:p" -4.258412962385644e-07
"VSS:p" -5.795308812182022e-08
"vdd" 1.200000000000000e+00
"vss" 0.000000000000000e+00
"time" 7.587161627369987e-11
"in0" 0.000000000000000e+00
"in1" 0.000000000000000e+00
"net13" 1.382377590394001e+00
"out" 1.199069416400934e+00
"V0:p" 4.046817257491547e-07
"V1:p" -6.071278386571714e-07
"VDD:p" 1.457603896759883e-07
"VSS:p" 5.668572322611990e-08
"vdd" 1.200000000000000e+00
"vss" 0.000000000000000e+00
"time" 7.787161627369987e-11
"in0" 0.000000000000000e+00
"in1" 0.000000000000000e+00
"net13" 1.382365942520845e+00
"out" 1.199231935778285e+00
"V0:p" -3.257276127684583e-07
"V1:p" 7.603790183906273e-07
"VDD:p" -3.769665375309728e-07
"VSS:p" -5.768486808479959e-08
"vdd" 1.200000000000000e+00
"vss" 0.000000000000000e+00
"time" 7.987161627369988e-11
"in0" 0.000000000000000e+00
