HEADER
"PSFversion" "1.00"
"simulator" "spectre"
"version" "19.1.0.237.isr3"
"date" "9:22:06 PM, Fri Sep 9, 2022"
"design" "// Generated for: spectre"
"analysis type" "tran"
"analysis name" "sim"
"analysis description" "Transient Analysis `sim': time = (0 s -> 100 ps)"
"xVecSorted" "ascending"
"tolerance.relative" 0.00100000
"start" 0.00000
"outputstart" 0.00000
"stop" 1.00000e-10
"step" 1.00000e-13
"istep" 0.00100000
"maxstep" 2.00000e-12
"ic" "all"
"useprevic" "no"
"skipdc" "no"
"reltol" 0.00100000
"abstol(V)" 1.00000e-06
"abstol(I)" 1.00000e-12
"temp" 27.0000
"tnom" 27.0000
"tempeffects" "all"
"errpreset" "moderate"
"method" "traponly"
"lteratio" 3.50000
"relref" "sigglobal"
"cmin" 0.00000
"gmin" 1.00000e-12
TYPE
"sweep" FLOAT DOUBLE PROP(
"key" "sweep"
)
"LogicV" FLOAT DOUBLE PROP(
"key" "node"
)
"Tau" FLOAT DOUBLE PROP(
"units" "N*m"
"key" "node"
"tolerance" 1.00000e-06
)
"Alpha" FLOAT DOUBLE PROP(
"units" "rads/s^2"
"key" "node"
"tolerance" 1.00000e-06
)
"Omega" FLOAT DOUBLE PROP(
"units" "rads/s"
"key" "node"
"tolerance" 1.00000e-06
)
"Theta" FLOAT DOUBLE PROP(
"units" "rads"
"key" "node"
"tolerance" 1.00000e-06
)
"F" FLOAT DOUBLE PROP(
"units" "N"
"key" "node"
"tolerance" 1.00000e-06
)
"Imp" FLOAT DOUBLE PROP(
"units" "m/s^3"
"key" "node"
"tolerance" 1.00000e-06
)
"Acc" FLOAT DOUBLE PROP(
"units" "m/s^2"
"key" "node"
"tolerance" 1.00000e-06
)
"Vel" FLOAT DOUBLE PROP(
"units" "m/s"
"key" "node"
"tolerance" 1.00000e-06
)
"Pos" FLOAT DOUBLE PROP(
"units" "m"
"key" "node"
"tolerance" 1.00000e-06
)
"Phi" FLOAT DOUBLE PROP(
"units" "Wb"
"key" "node"
"tolerance" 1.00000e-09
)
"V" FLOAT DOUBLE PROP(
"units" "V"
"key" "node"
"tolerance" 1.00000e-06
)
"I" FLOAT DOUBLE PROP(
"units" "A"
"key" "branch"
"tolerance" 1.00000e-12
)
"MMF" FLOAT DOUBLE PROP(
"units" "A*turn"
"key" "node"
"tolerance" 1.00000e-12
)
"Wb" FLOAT DOUBLE PROP(
"units" "Wb"
"key" "node"
"tolerance" 1.00000e-09
)
"Temp" FLOAT DOUBLE PROP(
"units" "C"
"key" "node"
"tolerance" 0.000100000
)
"Pwr" FLOAT DOUBLE PROP(
"units" "W"
"key" "node"
"tolerance" 1.00000e-09
)
"U" FLOAT DOUBLE PROP(
"units" ""
"key" "node"
"tolerance" 1.00000e-06
)
"V/Sec" FLOAT DOUBLE PROP(
"units" "V/s"
"key" "node"
"tolerance" 0.000100000
)
"I/Sec" FLOAT DOUBLE PROP(
"units" "A/s"
"key" "node"
"tolerance" 1.00000e-06
)
"1/Sec" FLOAT DOUBLE PROP(
"units" "1/s"
"key" "node"
"tolerance" 0.000100000
)
"HOD" FLOAT DOUBLE PROP(
"units" ""
"key" "node"
"tolerance" 0.0100000
)
"Q" FLOAT DOUBLE PROP(
"units" "coul"
"key" "node"
"tolerance" 1.00000e-14
)
SWEEP
"time" "sweep" PROP(
"sweep_direction" 0
"units" "s"
"plot" 0
"grid" 1
)
TRACE
"in" "V"
"out" "V"
"V0:p" "I"
"VDD:p" "I"
"VSS:p" "I"
"vdd" "V"
"vss" "V"
VALUE
"time" 0.000000000000000e+00
"in" 0.000000000000000e+00
"out" 1.199998775758550e+00
"V0:p" 7.482181368423812e-12
"VDD:p" -4.278806570680755e-10
"VSS:p" 4.203984796185504e-10
"vdd" 1.200000000000000e+00
"vss" 0.000000000000000e+00
"time" 1.000000000000000e-13
"in" 0.000000000000000e+00
"out" 1.204005919575557e+00
"V0:p" 2.662321813111328e-05
"VDD:p" -2.920122056507258e-05
"VSS:p" 2.578002433957799e-06
"vdd" 1.200000000000000e+00
"vss" 0.000000000000000e+00
"time" 2.436280232207161e-13
"in" 0.000000000000000e+00
"out" 1.213143901875354e+00
"V0:p" 4.237351640032513e-05
"VDD:p" -4.646156388797317e-05
"VSS:p" 4.088047487646957e-06
"vdd" 1.200000000000000e+00
"vss" 0.000000000000000e+00
"time" 4.466244833733439e-13
"in" 0.000000000000000e+00
"out" 1.228207115937197e+00
"V0:p" 5.695366267209001e-05
"VDD:p" -6.237859364611135e-05
"VSS:p" 5.424930974018082e-06
"vdd" 1.200000000000000e+00
"vss" 0.000000000000000e+00
"time" 7.177462976734854e-13
"in" 0.000000000000000e+00
"out" 1.253600876457795e+00
"V0:p" 6.949689923539001e-05
"VDD:p" -7.602956300005815e-05
"VSS:p" 6.532663764667536e-06
"vdd" 1.200000000000000e+00
"vss" 0.000000000000000e+00
"time" 1.000000000000000e-12
"in" 0.000000000000000e+00
"out" 1.285444832258682e+00
"V0:p" 8.462814185206069e-05
"VDD:p" -9.241824694051281e-05
"VSS:p" 7.790105088447772e-06
"vdd" 1.200000000000000e+00
"vss" 0.000000000000000e+00
"time" 1.275659758729608e-12
"in" 0.000000000000000e+00
"out" 1.307661681359838e+00
"V0:p" 5.563211643566364e-05
"VDD:p" -6.072311811981739e-05
"VSS:p" 5.091001684151271e-06
"vdd" 1.200000000000000e+00
"vss" 0.000000000000000e+00
"time" 1.580030446799871e-12
"in" 0.000000000000000e+00
"out" 1.329978328160087e+00
"V0:p" 4.655801828448161e-05
"VDD:p" -5.069005094527696e-05
"VSS:p" 4.132032660791299e-06
"vdd" 1.200000000000000e+00
"vss" 0.000000000000000e+00
"time" 1.920011337878238e-12
"in" 0.000000000000000e+00
"out" 1.353291636829850e+00
"V0:p" 5.000263330152726e-05
"VDD:p" -5.445692154106933e-05
"VSS:p" 4.454288239543124e-06
"vdd" 1.200000000000000e+00
"vss" 0.000000000000000e+00
"time" 2.599973120034971e-12
"in" 0.000000000000000e+00
"out" 1.399217364382302e+00
"V0:p" 4.652229185786052e-05
"VDD:p" -5.047098829759726e-05
"VSS:p" 3.948696439729740e-06
"vdd" 1.200000000000000e+00
"vss" 0.000000000000000e+00
"time" 3.459162007430783e-12
"in" 0.000000000000000e+00
"out" 1.454068503048866e+00
"V0:p" 4.671190745833711e-05
"VDD:p" -5.063233443230320e-05
"VSS:p" 3.920426973968049e-06
"vdd" 1.200000000000000e+00
"vss" 0.000000000000000e+00
"time" 4.729581003715391e-12
"in" 0.000000000000000e+00
"out" 1.530109604743352e+00
"V0:p" 4.306607519216606e-05
"VDD:p" -4.643749724811671e-05
"VSS:p" 3.371422055943954e-06
"vdd" 1.200000000000000e+00
"vss" 0.000000000000000e+00
"time" 5.999999999999999e-12
"in" 0.000000000000000e+00
"out" 1.600044487042986e+00
"V0:p" 4.161300314940954e-05
"VDD:p" -4.486306622256337e-05
"VSS:p" 3.250063073155727e-06
"vdd" 1.200000000000000e+00
"vss" 0.000000000000000e+00
"time" 6.693994490272794e-12
"in" 0.000000000000000e+00
"out" 1.623673668893841e+00
"V0:p" 2.649580969038728e-05
"VDD:p" -2.852904419968699e-05
"VSS:p" 2.033234509296881e-06
"vdd" 1.200000000000000e+00
"vss" 0.000000000000000e+00
"time" 7.821698249355922e-12
"in" 0.000000000000000e+00
"out" 1.651854148914554e+00
"V0:p" 1.262744119700230e-05
"VDD:p" -1.356516416718500e-05
"VSS:p" 9.377229701782975e-07
"vdd" 1.200000000000000e+00
"vss" 0.000000000000000e+00
"time" 9.111585537658427e-12
"in" 0.000000000000000e+00
"out" 1.663854383123357e+00
"V0:p" 1.995721759711127e-06
"VDD:p" -2.161039353937950e-06
"VSS:p" 1.653175942295154e-07
"vdd" 1.200000000000000e+00
"vss" 0.000000000000000e+00
"time" 1.100000000000000e-11
"in" 0.000000000000000e+00
"out" 1.647056543719875e+00
"V0:p" -1.597514536917096e-05
"VDD:p" 1.719233117975062e-05
"VSS:p" -1.217185810586502e-06
"vdd" 1.200000000000000e+00
"vss" 0.000000000000000e+00
"time" 1.300000000000000e-11
"in" 0.000000000000000e+00
"out" 1.628591616214154e+00
"V0:p" -7.230688853008882e-06
"VDD:p" 7.778286920294214e-06
"VSS:p" -5.475980672879107e-07
"vdd" 1.200000000000000e+00
"vss" 0.000000000000000e+00
"time" 1.454258050503062e-11
"in" 0.000000000000000e+00
"out" 1.614820157917441e+00
"V0:p" -6.707289796781426e-06
"VDD:p" 7.221554613653106e-06
"VSS:p" -5.142648168743882e-07
"vdd" 1.200000000000000e+00
"vss" 0.000000000000000e+00
"time" 1.654258050503062e-11
"in" 0.000000000000000e+00
"out" 1.597340398152405e+00
"V0:p" -6.889254531793535e-06
"VDD:p" 7.417290414180580e-06
"VSS:p" -5.280358823878519e-07
"vdd" 1.200000000000000e+00
"vss" 0.000000000000000e+00
"time" 1.854258050503062e-11
"in" 0.000000000000000e+00
"out" 1.580295901797062e+00
"V0:p" -6.311423724841550e-06
"VDD:p" 6.802724941225074e-06
"VSS:p" -4.913012163863021e-07
"vdd" 1.200000000000000e+00
"vss" 0.000000000000000e+00
"time" 2.054258050503062e-11
"in" 0.000000000000000e+00
"out" 1.563818731360981e+00
"V0:p" -6.390927315681226e-06
"VDD:p" 6.887855458135128e-06
"VSS:p" -4.969281424553098e-07
"vdd" 1.200000000000000e+00
"vss" 0.000000000000000e+00
"time" 2.254258050503062e-11
"in" 0.000000000000000e+00
"out" 1.547812485983877e+00
"V0:p" -5.888301171010515e-06
"VDD:p" 6.354043278871589e-06
"VSS:p" -4.657421078637060e-07
"vdd" 1.200000000000000e+00
"vss" 0.000000000000000e+00
"time" 2.454258050503062e-11
"in" 0.000000000000000e+00
"out" 1.532375177436445e+00
"V0:p" -5.894449594351000e-06
"VDD:p" 6.359678649814850e-06
"VSS:p" -4.652290554638529e-07
"vdd" 1.200000000000000e+00
"vss" 0.000000000000000e+00
"time" 2.654258050503062e-11
"in" 0.000000000000000e+00
"out" 1.517427842323228e+00
"V0:p" -5.454909036475632e-06
"VDD:p" 5.893483091386685e-06
"VSS:p" -4.385740549141863e-07
"vdd" 1.200000000000000e+00
"vss" 0.000000000000000e+00
"time" 2.854258050503062e-11
"in" 0.000000000000000e+00
"out" 1.503042117702722e+00
"V0:p" -5.410221444101933e-06
"VDD:p" 5.843714012587560e-06
"VSS:p" -4.334925684860578e-07
"vdd" 1.200000000000000e+00
"vss" 0.000000000000000e+00
"time" 3.054258050503062e-11
"in" 0.000000000000000e+00
"out" 1.489152161056289e+00
"V0:p" -5.024653154484111e-06
"VDD:p" 5.435260533417380e-06
"VSS:p" -4.106073789362426e-07
"vdd" 1.200000000000000e+00
"vss" 0.000000000000000e+00
"time" 3.254258050503062e-11
"in" 0.000000000000000e+00
"out" 1.475809219165235e+00
"V0:p" -4.946129206414077e-06
"VDD:p" 5.348317884967557e-06
"VSS:p" -4.021886785532935e-07
"vdd" 1.200000000000000e+00
"vss" 0.000000000000000e+00
"time" 3.454258050503062e-11
"in" 0.000000000000000e+00
"out" 1.462957475151913e+00
"V0:p" -4.607275129981478e-06
"VDD:p" 4.989771586183657e-06
"VSS:p" -3.824964562057570e-07
"vdd" 1.200000000000000e+00
"vss" 0.000000000000000e+00
"time" 3.654258050503062e-11
"in" 0.000000000000000e+00
"out" 1.450632487293441e+00
"V0:p" -4.507435548305490e-06
"VDD:p" 4.879136871289336e-06
"VSS:p" -3.717013229849067e-07
"vdd" 1.200000000000000e+00
"vss" 0.000000000000000e+00
"time" 3.854258050503062e-11
"in" 0.000000000000000e+00
"out" 1.438786250868889e+00
"V0:p" -4.209254380752679e-06
"VDD:p" 4.564011392509526e-06
"VSS:p" -3.547570117594751e-07
"vdd" 1.200000000000000e+00
"vss" 0.000000000000000e+00
"time" 4.054258050503062e-11
"in" 0.000000000000000e+00
"out" 1.427442333041904e+00
"V0:p" -4.097136992996718e-06
"VDD:p" 4.439467855302767e-06
"VSS:p" -3.423308623077107e-07
"vdd" 1.200000000000000e+00
"vss" 0.000000000000000e+00
"time" 4.254258050503062e-11
"in" 0.000000000000000e+00
"out" 1.416558953152444e+00
"V0:p" -3.834479152368722e-06
"VDD:p" 4.162262634187507e-06
"VSS:p" -3.277834818214999e-07
"vdd" 1.200000000000000e+00
"vss" 0.000000000000000e+00
"time" 4.454258050503062e-11
"in" 0.000000000000000e+00
"out" 1.406150593300385e+00
"V0:p" -3.716501749614872e-06
"VDD:p" 4.030801899365788e-06
"VSS:p" -3.143001497526305e-07
"vdd" 1.200000000000000e+00
"vss" 0.000000000000000e+00
"time" 4.654258050503062e-11
"in" 0.000000000000000e+00
"out" 1.396180547509924e+00
"V0:p" -3.484934019491713e-06
"VDD:p" 3.786800136355669e-06
"VSS:p" -3.018661168660258e-07
"vdd" 1.200000000000000e+00
"vss" 0.000000000000000e+00
"time" 4.854258050503062e-11
"in" 0.000000000000000e+00
"out" 1.386656491667585e+00
"V0:p" -3.365583136080821e-06
"VDD:p" 3.653346086182533e-06
"VSS:p" -2.877629501036753e-07
"vdd" 1.200000000000000e+00
"vss" 0.000000000000000e+00
"time" 5.054258050503062e-11
"in" 0.000000000000000e+00
"out" 1.377545949716413e+00
"V0:p" -3.161274880057054e-06
"VDD:p" 3.438482347357612e-06
"VSS:p" -2.772074673027165e-07
"vdd" 1.200000000000000e+00
"vss" 0.000000000000000e+00
"time" 5.254258050503062e-11
"in" 0.000000000000000e+00
"out" 1.368851571309291e+00
"V0:p" -3.043628273256818e-06
"VDD:p" 3.306441892387829e-06
"VSS:p" -2.628136191328845e-07
"vdd" 1.200000000000000e+00
"vss" 0.000000000000000e+00
"time" 5.454258050503062e-11
"in" 0.000000000000000e+00
"out" 1.360544475700204e+00
"V0:p" -2.863263136611782e-06
"VDD:p" 3.117200972945634e-06
"VSS:p" -2.539378363357339e-07
"vdd" 1.200000000000000e+00
"vss" 0.000000000000000e+00
"time" 5.654258050503061e-11
"in" 0.000000000000000e+00
"out" 1.352623669239962e+00
"V0:p" -2.749375969012938e-06
"VDD:p" 2.988873083852641e-06
"VSS:p" -2.394971148425153e-07
"vdd" 1.200000000000000e+00
"vss" 0.000000000000000e+00
"time" 5.854258050503061e-11
"in" 0.000000000000000e+00
"out" 1.345063376782298e+00
"V0:p" -2.590077403312571e-06
"VDD:p" 2.822206739479838e-06
"VSS:p" -2.321293361681636e-07
"vdd" 1.200000000000000e+00
"vss" 0.000000000000000e+00
"time" 6.054258050503062e-11
"in" 0.000000000000000e+00
"out" 1.337860028863486e+00
"V0:p" -2.481264907202264e-06
"VDD:p" 2.699083547219152e-06
"VSS:p" -2.178186400198020e-07
"vdd" 1.200000000000000e+00
"vss" 0.000000000000000e+00
"time" 6.254258050503063e-11
"in" 0.000000000000000e+00
"out" 1.330990566813803e+00
"V0:p" -2.340532317734432e-06
"VDD:p" 2.552340624924726e-06
"VSS:p" -2.118083071917785e-07
"vdd" 1.200000000000000e+00
"vss" 0.000000000000000e+00
"time" 6.454258050503063e-11
"in" 0.000000000000000e+00
"out" 1.324449663084329e+00
"V0:p" -2.237576464353639e-06
"VDD:p" 2.435328919412692e-06
"VSS:p" -1.977524550611152e-07
"vdd" 1.200000000000000e+00
"vss" 0.000000000000000e+00
"time" 6.654258050503064e-11
"in" 0.000000000000000e+00
"out" 1.318216657244915e+00
"V0:p" -2.113230828475553e-06
"VDD:p" 2.306196833321625e-06
"VSS:p" -1.929660048474534e-07
"vdd" 1.200000000000000e+00
"vss" 0.000000000000000e+00
"time" 6.854258050503064e-11
"in" 0.000000000000000e+00
"out" 1.312285084531321e+00
"V0:p" -2.016531790224123e-06
"VDD:p" 2.195781401536958e-06
"VSS:p" -1.792496113163685e-07
"vdd" 1.200000000000000e+00
"vss" 0.000000000000000e+00
"time" 7.054258050503065e-11
"in" 0.000000000000000e+00
"out" 1.306636415668512e+00
"V0:p" -1.906669729316364e-06
"VDD:p" 2.082237308635427e-06
"VSS:p" -1.755675793193576e-07
"vdd" 1.200000000000000e+00
"vss" 0.000000000000000e+00
"time" 7.254258050503066e-11
"in" 0.000000000000000e+00
"out" 1.301263515181782e+00
"V0:p" -1.816357191799221e-06
"VDD:p" 1.978601707800494e-06
"VSS:p" -1.622445160053607e-07
"vdd" 1.200000000000000e+00
"vss" 0.000000000000000e+00
"time" 7.454258050503066e-11
"in" 0.000000000000000e+00
"out" 1.296149755948106e+00
"V0:p" -1.719312347012085e-06
"VDD:p" 1.878871807181845e-06
"VSS:p" -1.595594601708231e-07
"vdd" 1.200000000000000e+00
"vss" 0.000000000000000e+00
"time" 7.654258050503067e-11
"in" 0.000000000000000e+00
"out" 1.291287677920604e+00
"V0:p" -1.635327446748175e-06
"VDD:p" 1.781987796913622e-06
"VSS:p" -1.466603501681294e-07
"vdd" 1.200000000000000e+00
"vss" 0.000000000000000e+00
"time" 7.854258050503067e-11
"in" 0.000000000000000e+00
"out" 1.286662356514360e+00
"V0:p" -1.549637989678591e-06
"VDD:p" 1.694513299375778e-06
"VSS:p" -1.448753096990382e-07
"vdd" 1.200000000000000e+00
"vss" 0.000000000000000e+00
"time" 8.054258050503068e-11
"in" 0.000000000000000e+00
"out" 1.282266259951266e+00
"V0:p" -1.471793612816039e-06
"VDD:p" 1.604207041175108e-06
"VSS:p" -1.324134283615888e-07
"vdd" 1.200000000000000e+00
"vss" 0.000000000000000e+00
"time" 8.254258050503069e-11
"in" 0.000000000000000e+00
"out" 1.278085990104628e+00
"V0:p" -1.396174825053025e-06
"VDD:p" 1.527615557099579e-06
"VSS:p" -1.314407320485879e-07
"vdd" 1.200000000000000e+00
"vss" 0.000000000000000e+00
"time" 8.454258050503069e-11
"in" 0.000000000000000e+00
"out" 1.274114124449693e+00
"V0:p" -1.324199871290939e-06
"VDD:p" 1.443616494872958e-06
"VSS:p" -1.194166235842420e-07
"vdd" 1.200000000000000e+00
"vss" 0.000000000000000e+00
"time" 8.654258050503070e-11
"in" 0.000000000000000e+00
"out" 1.270338634733990e+00
"V0:p" -1.257520886606580e-06
"VDD:p" 1.376697814615854e-06
"VSS:p" -1.191769280113873e-07
"vdd" 1.200000000000000e+00
"vss" 0.000000000000000e+00
"time" 8.854258050503070e-11
"in" 0.000000000000000e+00
"out" 1.266752333708818e+00
"V0:p" -1.191092601762895e-06
"VDD:p" 1.298674594922014e-06
"VSS:p" -1.075819931613246e-07
"vdd" 1.200000000000000e+00
"vss" 0.000000000000000e+00
"time" 9.054258050503071e-11
"in" 0.000000000000000e+00
"out" 1.263344423024881e+00
"V0:p" -1.132356571348295e-06
"VDD:p" 1.240360046577363e-06
"VSS:p" -1.080034752307464e-07
"vdd" 1.200000000000000e+00
"vss" 0.000000000000000e+00
"time" 9.254258050503072e-11
"in" 0.000000000000000e+00
"out" 1.260108035014155e+00
"V0:p" -1.071123981795663e-06
"VDD:p" 1.167946720996696e-06
"VSS:p" -9.682273920330685e-08
"vdd" 1.200000000000000e+00
"vss" 0.000000000000000e+00
"time" 9.454258050503072e-11
"in" 0.000000000000000e+00
"out" 1.257033475722678e+00
"V0:p" -1.019451070913292e-06
"VDD:p" 1.117291466863638e-06
"VSS:p" -9.784039595228065e-08
"vdd" 1.200000000000000e+00
"vss" 0.000000000000000e+00
"time" 9.654258050503073e-11
"in" 0.000000000000000e+00
"out" 1.254114249979504e+00
"V0:p" -9.630517788388258e-07
"VDD:p" 1.050106405672483e-06
"VSS:p" -8.705462683558698e-08
"vdd" 1.200000000000000e+00
"vss" 0.000000000000000e+00
"time" 9.854258050503073e-11
"in" 0.000000000000000e+00
"out" 1.251341655500499e+00
"V0:p" -9.176645243287865e-07
"VDD:p" 1.006274177973563e-06
"VSS:p" -8.860965364685222e-08
"vdd" 1.200000000000000e+00
"vss" 0.000000000000000e+00
"time" 1.000000000000000e-10
"in" 0.000000000000000e+00
"out" 1.249410474446588e+00
"V0:p" -8.782466803987573e-07
"VDD:p" 9.575836751032128e-07
"VSS:p" -7.933699470681438e-08
"vdd" 1.200000000000000e+00
"vss" 0.000000000000000e+00
END
