HEADER
"PSFversion" "1.00"
"simulator" "spectre"
"version" "19.1.0.237.isr3"
"date" "1:51:20 PM, Sat Sep 10, 2022"
"design" "// Generated for: spectre"
"analysis type" "tran"
"analysis name" "sim"
"analysis description" "Transient Analysis `sim': time = (0 s -> 100 ps)"
"xVecSorted" "ascending"
"tolerance.relative" 0.00100000
"start" 0.00000
"outputstart" 0.00000
"stop" 1.00000e-10
"step" 1.00000e-13
"istep" 0.00100000
"maxstep" 2.00000e-12
"ic" "all"
"useprevic" "no"
"skipdc" "no"
"reltol" 0.00100000
"abstol(V)" 1.00000e-06
"abstol(I)" 1.00000e-12
"temp" 27.0000
"tnom" 27.0000
"tempeffects" "all"
"errpreset" "moderate"
"method" "traponly"
"lteratio" 3.50000
"relref" "sigglobal"
"cmin" 0.00000
"gmin" 1.00000e-12
TYPE
"sweep" FLOAT DOUBLE PROP(
"key" "sweep"
)
"LogicV" FLOAT DOUBLE PROP(
"key" "node"
)
"Tau" FLOAT DOUBLE PROP(
"units" "N*m"
"key" "node"
"tolerance" 1.00000e-06
)
"Alpha" FLOAT DOUBLE PROP(
"units" "rads/s^2"
"key" "node"
"tolerance" 1.00000e-06
)
"Omega" FLOAT DOUBLE PROP(
"units" "rads/s"
"key" "node"
"tolerance" 1.00000e-06
)
"Theta" FLOAT DOUBLE PROP(
"units" "rads"
"key" "node"
"tolerance" 1.00000e-06
)
"F" FLOAT DOUBLE PROP(
"units" "N"
"key" "node"
"tolerance" 1.00000e-06
)
"Imp" FLOAT DOUBLE PROP(
"units" "m/s^3"
"key" "node"
"tolerance" 1.00000e-06
)
"Acc" FLOAT DOUBLE PROP(
"units" "m/s^2"
"key" "node"
"tolerance" 1.00000e-06
)
"Vel" FLOAT DOUBLE PROP(
"units" "m/s"
"key" "node"
"tolerance" 1.00000e-06
)
"Pos" FLOAT DOUBLE PROP(
"units" "m"
"key" "node"
"tolerance" 1.00000e-06
)
"Phi" FLOAT DOUBLE PROP(
"units" "Wb"
"key" "node"
"tolerance" 1.00000e-09
)
"V" FLOAT DOUBLE PROP(
"units" "V"
"key" "node"
"tolerance" 1.00000e-06
)
"I" FLOAT DOUBLE PROP(
"units" "A"
"key" "branch"
"tolerance" 1.00000e-12
)
"MMF" FLOAT DOUBLE PROP(
"units" "A*turn"
"key" "node"
"tolerance" 1.00000e-12
)
"Wb" FLOAT DOUBLE PROP(
"units" "Wb"
"key" "node"
"tolerance" 1.00000e-09
)
"Temp" FLOAT DOUBLE PROP(
"units" "C"
"key" "node"
"tolerance" 0.000100000
)
"Pwr" FLOAT DOUBLE PROP(
"units" "W"
"key" "node"
"tolerance" 1.00000e-09
)
"U" FLOAT DOUBLE PROP(
"units" ""
"key" "node"
"tolerance" 1.00000e-06
)
"V/Sec" FLOAT DOUBLE PROP(
"units" "V/s"
"key" "node"
"tolerance" 0.000100000
)
"I/Sec" FLOAT DOUBLE PROP(
"units" "A/s"
"key" "node"
"tolerance" 1.00000e-06
)
"1/Sec" FLOAT DOUBLE PROP(
"units" "1/s"
"key" "node"
"tolerance" 0.000100000
)
"HOD" FLOAT DOUBLE PROP(
"units" ""
"key" "node"
"tolerance" 0.0100000
)
"Q" FLOAT DOUBLE PROP(
"units" "coul"
"key" "node"
"tolerance" 1.00000e-14
)
SWEEP
"time" "sweep" PROP(
"sweep_direction" 0
"units" "s"
"plot" 0
"grid" 1
)
TRACE
"in0" "V"
"in1" "V"
"net13" "V"
"out" "V"
"V0:p" "I"
"V1:p" "I"
"VDD:p" "I"
"VSS:p" "I"
"vdd" "V"
"vss" "V"
VALUE
"time" 0.000000000000000e+00
"in0" 1.200000000000000e+00
"in1" 1.200000000000000e+00
"net13" 3.706476565175914e-07
"out" 6.999538919529706e-07
"V0:p" -7.657574584620934e-11
"V1:p" -7.657574485775169e-11
"VDD:p" -6.388557615303578e-11
"VSS:p" 2.170367324928983e-10
"vdd" 1.200000000000000e+00
"vss" 0.000000000000000e+00
"time" 1.000000000000000e-13
"in0" 1.200000000000000e+00
"in1" 1.200000000000000e+00
"net13" 1.267713742326848e-03
"out" -1.542423999260185e-03
"V0:p" 4.877635620728974e-06
"V1:p" -4.887885366314145e-06
"VDD:p" -4.724177181498832e-06
"VSS:p" 4.734426927083138e-06
"vdd" 1.200000000000000e+00
"vss" 0.000000000000000e+00
"time" 3.000000000000000e-13
"in0" 1.200000000000000e+00
"in1" 1.200000000000000e+00
"net13" 7.857605605360998e-03
"out" -9.887116665825247e-03
"V0:p" 1.231741327911110e-05
"V1:p" -1.435002784326525e-05
"VDD:p" -1.275777257897817e-05
"VSS:p" 1.479038714313187e-05
"vdd" 1.200000000000000e+00
"vss" 0.000000000000000e+00
"time" 7.000000000000000e-13
"in0" 1.200000000000000e+00
"in1" 1.200000000000000e+00
"net13" 2.768271823048744e-02
"out" -3.532083070823274e-02
"V0:p" 2.378751152760987e-05
"V1:p" -3.359760531967950e-05
"VDD:p" -2.596704600260923e-05
"VSS:p" 3.577713979467798e-05
"vdd" 1.200000000000000e+00
"vss" 0.000000000000000e+00
"time" 1.000000000000000e-12
"in0" 1.200000000000000e+00
"in1" 1.200000000000000e+00
"net13" 5.014313926811666e-02
"out" -6.434576744943332e-02
"V0:p" 2.883527671610108e-05
"V1:p" -4.872046066756462e-05
"VDD:p" -3.257086303431365e-05
"VSS:p" 5.245604698577545e-05
"vdd" 1.200000000000000e+00
"vss" 0.000000000000000e+00
"time" 1.365522048179440e-12
"in0" 1.200000000000000e+00
"in1" 1.200000000000000e+00
"net13" 7.113604854055364e-02
"out" -9.584670153257432e-02
"V0:p" 1.724041619224875e-05
"V1:p" -4.601381601790959e-05
"VDD:p" -2.588476431536614e-05
"VSS:p" 5.465816414102832e-05
"vdd" 1.200000000000000e+00
"vss" 0.000000000000000e+00
"time" 1.730378690117943e-12
"in0" 1.200000000000000e+00
"in1" 1.200000000000000e+00
"net13" 8.840513377221987e-02
"out" -1.234467225692403e-01
"V0:p" 8.252795225926363e-06
"V1:p" -4.525508817505141e-05
"VDD:p" -1.923861112375318e-05
"VSS:p" 5.624090407287736e-05
"vdd" 1.200000000000000e+00
"vss" 0.000000000000000e+00
"time" 2.352033842521638e-12
"in0" 1.200000000000000e+00
"in1" 1.200000000000000e+00
"net13" 1.039077196025471e-01
"out" -1.590903840943778e-01
"V0:p" -1.945657208552651e-06
"V1:p" -3.960191758742427e-05
"VDD:p" -1.471306626540788e-05
"VSS:p" 5.626064106138650e-05
"vdd" 1.200000000000000e+00
"vss" 0.000000000000000e+00
"time" 3.112382327676524e-12
"in0" 1.200000000000000e+00
"in1" 1.200000000000000e+00
"net13" 1.082085783359280e-01
"out" -1.909597321846141e-01
"V0:p" -7.527850300359206e-06
"V1:p" -3.633617695004709e-05
"VDD:p" -9.919345097428142e-06
"VSS:p" 5.378337234783335e-05
"vdd" 1.200000000000000e+00
"vss" 0.000000000000000e+00
"time" 3.944323649903737e-12
"in0" 1.200000000000000e+00
"in1" 1.200000000000000e+00
"net13" 1.036275656836577e-01
"out" -2.173642297992507e-01
"V0:p" -1.044083435236683e-05
"V1:p" -3.043875959625890e-05
"VDD:p" -8.609287480477356e-06
"VSS:p" 4.948888142910440e-05
"vdd" 1.200000000000000e+00
"vss" 0.000000000000000e+00
"time" 4.916829957494411e-12
"in0" 1.200000000000000e+00
"in1" 1.200000000000000e+00
"net13" 9.337137260316120e-02
"out" -2.415881347437419e-01
"V0:p" -1.066628183604190e-05
"V1:p" -2.742344596369644e-05
"VDD:p" -5.848896966430808e-06
"VSS:p" 4.393862476616805e-05
"vdd" 1.200000000000000e+00
"vss" 0.000000000000000e+00
"time" 5.999999999999999e-12
"in0" 1.200000000000000e+00
"in1" 1.200000000000000e+00
"net13" 8.043874020460853e-02
"out" -2.631504658467596e-01
"V0:p" -1.032904689286742e-05
"V1:p" -2.180133544996953e-05
"VDD:p" -5.646733451178233e-06
"VSS:p" 3.777711579401540e-05
"vdd" 1.200000000000000e+00
"vss" 0.000000000000000e+00
"time" 6.609244269462051e-12
"in0" 1.200000000000000e+00
"in1" 1.200000000000000e+00
"net13" 6.667262339772254e-02
"out" -2.655237353803335e-01
"V0:p" -1.370047571388651e-05
"V1:p" -1.308100841312878e-05
"VDD:p" -1.126727087912860e-06
"VSS:p" 2.790821121492794e-05
"vdd" 1.200000000000000e+00
"vss" 0.000000000000000e+00
"time" 7.639495876200103e-12
"in0" 1.200000000000000e+00
"in1" 1.200000000000000e+00
"net13" 3.858961004263473e-02
"out" -2.594834505565081e-01
"V0:p" -1.611671510690844e-05
"V1:p" 9.299134330084501e-07
"VDD:p" 4.502322269667846e-06
"VSS:p" 1.068447940423240e-05
"vdd" 1.200000000000000e+00
"vss" 0.000000000000000e+00
"time" 8.947473539231347e-12
"in0" 1.200000000000000e+00
"in1" 1.200000000000000e+00
"net13" -2.195310260492447e-03
"out" -2.290019354802146e-01
"V0:p" -1.298463592184474e-05
"V1:p" 1.360890858321678e-05
"VDD:p" 8.977610485541919e-06
"VSS:p" -9.601883146913987e-06
"vdd" 1.200000000000000e+00
"vss" 0.000000000000000e+00
"time" 9.973736769615673e-12
"in0" 1.200000000000000e+00
"in1" 1.200000000000000e+00
"net13" -3.645823188284978e-02
"out" -1.942578858831374e-01
"V0:p" -1.711021262735666e-05
"V1:p" 1.333107139457712e-05
"VDD:p" 1.074663158652234e-05
"VSS:p" -6.967490353741711e-06
"vdd" 1.200000000000000e+00
"vss" 0.000000000000000e+00
"time" 1.100000000000000e-11
"in0" 1.200000000000000e+00
"in1" 1.200000000000000e+00
"net13" -6.086573857373323e-02
"out" -1.535635631071870e-01
"V0:p" 9.129055187317552e-07
"V1:p" 2.993447324272508e-05
"VDD:p" 1.255676228683744e-05
"VSS:p" -4.340414104829687e-05
"vdd" 1.200000000000000e+00
"vss" 0.000000000000000e+00
"time" 1.163894835986627e-11
"in0" 1.200000000000000e+00
"in1" 1.200000000000000e+00
"net13" -6.458140559087672e-02
"out" -1.334009138454772e-01
"V0:p" 2.145840875401788e-06
"V1:p" 2.383670725245306e-05
"VDD:p" 9.336293536042331e-06
"VSS:p" -3.531884166389696e-05
"vdd" 1.200000000000000e+00
"vss" 0.000000000000000e+00
"time" 1.264214403098042e-11
"in0" 1.200000000000000e+00
"in1" 1.200000000000000e+00
"net13" -6.376029054994369e-02
"out" -1.074800757381458e-01
"V0:p" 8.752285786215675e-06
"V1:p" 2.106390965633965e-05
"VDD:p" 6.036966028103268e-06
"VSS:p" -3.585316147066057e-05
"vdd" 1.200000000000000e+00
"vss" 0.000000000000000e+00
"time" 1.368675669931062e-11
"in0" 1.200000000000000e+00
"in1" 1.200000000000000e+00
"net13" -5.529870359383132e-02
"out" -8.912443236890806e-02
"V0:p" 8.599593652615793e-06
"V1:p" 1.820223370602227e-05
"VDD:p" 4.472323696514058e-06
"VSS:p" -3.127415105515082e-05
"vdd" 1.200000000000000e+00
"vss" 0.000000000000000e+00
"time" 1.568675669931062e-11
"in0" 1.200000000000000e+00
"in1" 1.200000000000000e+00
"net13" -3.969604115508396e-02
"out" -6.338132432299740e-02
"V0:p" 6.489703971643975e-06
"V1:p" 1.274169191929750e-05
"VDD:p" 3.266165603012315e-06
"VSS:p" -2.249756149395542e-05
"vdd" 1.200000000000000e+00
"vss" 0.000000000000000e+00
"time" 1.715950262711064e-11
"in0" 1.200000000000000e+00
"in1" 1.200000000000000e+00
"net13" -3.084430894435604e-02
"out" -4.954993565334883e-02
"V0:p" 4.870061311553793e-06
"V1:p" 1.019801519244696e-05
"VDD:p" 2.406437833305669e-06
"VSS:p" -1.747451433730501e-05
"vdd" 1.200000000000000e+00
"vss" 0.000000000000000e+00
"time" 1.915950262711064e-11
"in0" 1.200000000000000e+00
"in1" 1.200000000000000e+00
"net13" -2.193417593726832e-02
"out" -3.538262012667850e-02
"V0:p" 3.557036342629907e-06
"V1:p" 6.986026914313587e-06
"VDD:p" 1.886640390183674e-06
"VSS:p" -1.242970364712814e-05
"vdd" 1.200000000000000e+00
"vss" 0.000000000000000e+00
"time" 2.115950262711064e-11
"in0" 1.200000000000000e+00
"in1" 1.200000000000000e+00
"net13" -1.561655604006955e-02
"out" -2.526195002891740e-02
"V0:p" 2.409199592938352e-06
"V1:p" 5.248277124659384e-06
"VDD:p" 1.189256922326698e-06
"VSS:p" -8.846733639923351e-06
"vdd" 1.200000000000000e+00
"vss" 0.000000000000000e+00
"time" 2.315950262711064e-11
"in0" 1.200000000000000e+00
"in1" 1.200000000000000e+00
"net13" -1.112616044440484e-02
"out" -1.803556318932188e-02
"V0:p" 1.825779397552849e-06
"V1:p" 3.468472526345892e-06
"VDD:p" 1.011589313144650e-06
"VSS:p" -6.305841237044366e-06
"vdd" 1.200000000000000e+00
"vss" 0.000000000000000e+00
"time" 2.515950262711064e-11
"in0" 1.200000000000000e+00
"in1" 1.200000000000000e+00
"net13" -7.931310800711735e-03
"out" -1.287579793715229e-02
"V0:p" 1.184742679367068e-06
"V1:p" 2.745158935503323e-06
"VDD:p" 5.621983198976053e-07
"VSS:p" -4.492099934766369e-06
"vdd" 1.200000000000000e+00
"vss" 0.000000000000000e+00
"time" 2.715950262711064e-11
"in0" 1.200000000000000e+00
"in1" 1.200000000000000e+00
"net13" -5.656049420082564e-03
"out" -9.191925103275411e-03
"V0:p" 9.579031770457571e-07
"V1:p" 1.685874016068741e-06
"VDD:p" 5.626074876606364e-07
"VSS:p" -3.206384680776870e-06
"vdd" 1.200000000000000e+00
"vss" 0.000000000000000e+00
"time" 2.915950262711064e-11
"in0" 1.200000000000000e+00
"in1" 1.200000000000000e+00
"net13" -4.034623571341887e-03
"out" -6.561879523482228e-03
"V0:p" 5.683296872136449e-07
"V1:p" 1.474857461067594e-06
"VDD:p" 2.410170156769859e-07
"VSS:p" -2.284204163956924e-06
"vdd" 1.200000000000000e+00
"vss" 0.000000000000000e+00
"time" 3.115950262711064e-11
"in0" 1.200000000000000e+00
"in1" 1.200000000000000e+00
"net13" -2.878579561946018e-03
"out" -4.684250419578561e-03
"V0:p" 5.194772501106658e-07
"V1:p" 7.802111275254124e-07
"VDD:p" 3.329841182706531e-07
"VSS:p" -1.632672495908466e-06
"vdd" 1.200000000000000e+00
"vss" 0.000000000000000e+00
"time" 3.315950262711064e-11
"in0" 1.200000000000000e+00
"in1" 1.200000000000000e+00
"net13" -2.054053769396464e-03
"out" -3.343807694016962e-03
"V0:p" 2.561738389280762e-07
"V1:p" 8.289348731466347e-07
"VDD:p" 7.692206988665722e-08
"VSS:p" -1.162030781959092e-06
"vdd" 1.200000000000000e+00
"vss" 0.000000000000000e+00
"time" 3.515950262711064e-11
"in0" 1.200000000000000e+00
"in1" 1.200000000000000e+00
"net13" -1.465827554826382e-03
"out" -2.386875686198808e-03
"V0:p" 2.970589691289110e-07
"V1:p" 3.194167124723106e-07
"VDD:p" 2.157531331952488e-07
"VSS:p" -8.322288147976630e-07
"vdd" 1.200000000000000e+00
"vss" 0.000000000000000e+00
"time" 3.715950262711064e-11
"in0" 1.200000000000000e+00
"in1" 1.200000000000000e+00
"net13" -1.046103561002611e-03
"out" -1.703735267462770e-03
"V0:p" 9.761056262359107e-08
"V1:p" 5.001467882984957e-07
"VDD:p" -6.810713535357842e-09
"VSS:p" -5.909466373854282e-07
"vdd" 1.200000000000000e+00
"vss" 0.000000000000000e+00
"time" 3.915950262711064e-11
"in0" 1.200000000000000e+00
"in1" 1.200000000000000e+00
"net13" -7.465736895768026e-04
"out" -1.216053932694551e-03
"V0:p" 1.839747596908814e-07
"V1:p" 8.478627208324003e-08
"VDD:p" 1.559558243623281e-07
"VSS:p" -4.247168561378592e-07
"vdd" 1.200000000000000e+00
"vss" 0.000000000000000e+00
"time" 4.115950262711064e-11
"in0" 1.200000000000000e+00
"in1" 1.200000000000000e+00
"net13" -5.327985112075012e-04
"out" -8.679087803624382e-04
"V0:p" 1.693887735674486e-08
"V1:p" 3.326928086815343e-07
"VDD:p" -4.950993803087749e-08
"VSS:p" -3.001217480063175e-07
"vdd" 1.200000000000000e+00
"vss" 0.000000000000000e+00
"time" 4.315950262711064e-11
"in0" 1.200000000000000e+00
"in1" 1.200000000000000e+00
"net13" -3.802164004614849e-04
"out" -6.193762712153878e-04
"V0:p" 1.264140652001879e-07
"V1:p" -3.473284570391243e-08
"VDD:p" 1.254681510594301e-07
"VSS:p" -2.171493705564648e-07
"vdd" 1.200000000000000e+00
"vss" 0.000000000000000e+00
"time" 4.515950262711064e-11
"in0" 1.200000000000000e+00
"in1" 1.200000000000000e+00
"net13" -2.713056254296698e-04
"out" -4.419552442218652e-04
"V0:p" -2.413750849124747e-08
"V1:p" 2.473825277779551e-07
"VDD:p" -7.127722429623583e-08
"VSS:p" -1.519677949893876e-07
"vdd" 1.200000000000000e+00
"vss" 0.000000000000000e+00
"time" 4.715950262711064e-11
"in0" 1.200000000000000e+00
"in1" 1.200000000000000e+00
"net13" -1.935641081989854e-04
"out" -3.152990931067532e-04
"V0:p" 9.709823230314582e-08
"V1:p" -9.562778313269181e-08
"VDD:p" 1.099275801546568e-07
"VSS:p" -1.113980293257612e-07
"vdd" 1.200000000000000e+00
"vss" 0.000000000000000e+00
"time" 4.915950262711064e-11
"in0" 1.200000000000000e+00
"in1" 1.200000000000000e+00
"net13" -1.380701315274647e-04
"out" -2.248827379999116e-04
"V0:p" -4.506145265150093e-08
"V1:p" 2.039142604249807e-07
"VDD:p" -8.237196833263630e-08
"VSS:p" -7.648083944040980e-08
"vdd" 1.200000000000000e+00
"vss" 0.000000000000000e+00
"time" 5.115950262711064e-11
"in0" 1.200000000000000e+00
"in1" 1.200000000000000e+00
"net13" -9.845634965873639e-05
"out" -1.603370317100132e-04
"V0:p" 8.216316358342415e-08
"V1:p" -1.266570539103473e-07
"VDD:p" 1.020069673543063e-07
"VSS:p" -5.751307702803362e-08
"vdd" 1.200000000000000e+00
"vss" 0.000000000000000e+00
"time" 5.315950262711064e-11
"in0" 1.200000000000000e+00
"in1" 1.200000000000000e+00
"net13" -7.017812050852326e-05
"out" -1.142596840766679e-04
"V0:p" -5.572218071034136e-08
"V1:p" 1.817641141808097e-07
"VDD:p" -8.802646540410324e-08
"VSS:p" -3.801546806560634e-08
"vdd" 1.200000000000000e+00
"vss" 0.000000000000000e+00
"time" 5.515950262711064e-11
"in0" 1.200000000000000e+00
"in1" 1.200000000000000e+00
"net13" -4.999157517144729e-05
"out" -8.136638683782935e-05
"V0:p" 7.455328186186114e-08
"V1:p" -1.424690159479487e-07
"VDD:p" 9.797028394234918e-08
"VSS:p" -3.005454985691204e-08
"vdd" 1.200000000000000e+00
"vss" 0.000000000000000e+00
"time" 5.715950262711063e-11
"in0" 1.200000000000000e+00
"in1" 1.200000000000000e+00
"net13" -3.558122380956584e-05
"out" -5.788481193320726e-05
"V0:p" -6.115439744286472e-08
"V1:p" 1.704766110769428e-07
"VDD:p" -9.090818811576273e-08
"VSS:p" -1.841402551690587e-08
"vdd" 1.200000000000000e+00
"vss" 0.000000000000000e+00
"time" 5.915950262711063e-11
"in0" 1.200000000000000e+00
"in1" 1.200000000000000e+00
"net13" -2.529421477232619e-05
"out" -4.112199724548679e-05
"V0:p" 7.067551152878384e-08
"V1:p" -1.505267348519854e-07
"VDD:p" 9.591307975761148e-08
"VSS:p" -1.606185643560262e-08
"vdd" 1.200000000000000e+00
"vss" 0.000000000000000e+00
"time" 6.115950262711064e-11
"in0" 1.200000000000000e+00
"in1" 1.200000000000000e+00
"net13" -1.795068114432304e-05
"out" -2.915551220452620e-05
"V0:p" -6.392255769172037e-08
"V1:p" 1.647244922391881e-07
"VDD:p" -9.237677949578765e-08
"VSS:p" -8.425155050379070e-09
"vdd" 1.200000000000000e+00
"vss" 0.000000000000000e+00
"time" 6.315950262711065e-11
"in0" 1.200000000000000e+00
"in1" 1.200000000000000e+00
"net13" -1.270837879576176e-05
"out" -2.061298806149529e-05
"V0:p" 6.869943693521749e-08
"V1:p" -1.546329780079494e-07
"VDD:p" 9.486468851745058e-08
"VSS:p" -8.931147445694362e-09
"vdd" 1.200000000000000e+00
"vss" 0.000000000000000e+00
"time" 6.515950262711065e-11
"in0" 1.200000000000000e+00
"in1" 1.200000000000000e+00
"net13" -8.966068764475010e-06
"out" -1.451473005144630e-05
"V0:p" -6.533320211545873e-08
"V1:p" 1.617931788985128e-07
"VDD:p" -9.312519876402026e-08
"VSS:p" -3.334778018383105e-09
"vdd" 1.200000000000000e+00
"vss" 0.000000000000000e+00
"time" 6.715950262711066e-11
"in0" 1.200000000000000e+00
"in1" 1.200000000000000e+00
"net13" -6.294551547305102e-06
"out" -1.016136234092910e-05
"V0:p" 6.769242808410292e-08
"V1:p" -1.567255498369920e-07
"VDD:p" 9.433041217825404e-08
"VSS:p" -5.297290426232423e-09
"vdd" 1.200000000000000e+00
"vss" 0.000000000000000e+00
"time" 6.915950262711066e-11
"in0" 1.200000000000000e+00
"in1" 1.200000000000000e+00
"net13" -4.387437966761553e-06
"out" -7.053620808007082e-06
"V0:p" -6.605207168069334e-08
"V1:p" 1.602993567445025e-07
"VDD:p" -9.350660386714104e-08
"VSS:p" -7.406811956925901e-10
"vdd" 1.200000000000000e+00
"vss" 0.000000000000000e+00
"time" 7.115950262711067e-11
"in0" 1.200000000000000e+00
"in1" 1.200000000000000e+00
"net13" -3.026007696149702e-06
"out" -4.835095332344935e-06
"V0:p" 6.717925050180400e-08
"V1:p" -1.577919438477236e-07
"VDD:p" 9.405813781372110e-08
"VSS:p" -3.445444468777287e-09
"vdd" 1.200000000000000e+00
"vss" 0.000000000000000e+00
"time" 7.315950262711068e-11
"in0" 1.200000000000000e+00
"in1" 1.200000000000000e+00
"net13" -2.054123692988241e-06
"out" -3.251355134007327e-06
"V0:p" -6.641841291494952e-08
"V1:p" 1.595380902809164e-07
"VDD:p" -9.370097277410667e-08
"VSS:p" 5.812954086819821e-10
"vdd" 1.200000000000000e+00
"vss" 0.000000000000000e+00
"time" 7.515950262711068e-11
"in0" 1.200000000000000e+00
"in1" 1.200000000000000e+00
"net13" -1.360324805901001e-06
"out" -2.120769523066688e-06
"V0:p" 6.691773085220333e-08
"V1:p" -1.583353891523774e-07
"VDD:p" 9.391938344198631e-08
"VSS:p" -2.501725142462713e-09
"vdd" 1.200000000000000e+00
"vss" 0.000000000000000e+00
"time" 7.715950262711069e-11
"in0" 1.200000000000000e+00
"in1" 1.200000000000000e+00
"net13" -8.650424471363101e-07
"out" -1.313677670186588e-06
"V0:p" -6.660510380400929e-08
"V1:p" 1.591501408791290e-07
"VDD:p" -9.380002550440478e-08
"VSS:p" 1.254988429393615e-09
"vdd" 1.200000000000000e+00
"vss" 0.000000000000000e+00
"time" 7.915950262711069e-11
"in0" 1.200000000000000e+00
"in1" 1.200000000000000e+00
"net13" -5.114750691446275e-07
"out" -7.375185116601962e-07
"V0:p" 6.678445786685456e-08
"V1:p" -1.586123347097424e-07
"VDD:p" 9.384867257828603e-08
"VSS:p" -2.020795735072939e-09
"vdd" 1.200000000000000e+00
"vss" 0.000000000000000e+00
"time" 8.115950262711070e-11
"in0" 1.200000000000000e+00
"in1" 1.200000000000000e+00
"net13" -2.590737818755548e-07
"out" -3.262154198679206e-07
"V0:p" -6.670024339248274e-08
"V1:p" 1.589524376453282e-07
"VDD:p" -9.385050392827440e-08
"VSS:p" 1.598309675428944e-09
