HEADER
"PSFversion" "1.00"
"simulator" "spectre"
"version" "19.1.0.237.isr3"
"date" "4:10:11 PM, Tue Aug 30, 2022"
"design" "// Generated for: spectre"
"analysis type" "tran"
"analysis name" "sim"
"analysis description" "Transient Analysis `sim': time = (0 s -> 100 ps)"
"xVecSorted" "ascending"
"tolerance.relative" 0.00100000
"start" 0.00000
"outputstart" 0.00000
"stop" 1.00000e-10
"step" 1.00000e-13
"istep" 0.00100000
"maxstep" 2.00000e-12
"ic" "all"
"useprevic" "no"
"skipdc" "no"
"reltol" 0.00100000
"abstol(V)" 1.00000e-06
"abstol(I)" 1.00000e-12
"temp" 27.0000
"tnom" 27.0000
"tempeffects" "all"
"errpreset" "moderate"
"method" "traponly"
"lteratio" 3.50000
"relref" "sigglobal"
"cmin" 0.00000
"gmin" 1.00000e-12
TYPE
"sweep" FLOAT DOUBLE PROP(
"key" "sweep"
)
"LogicV" FLOAT DOUBLE PROP(
"key" "node"
)
"Tau" FLOAT DOUBLE PROP(
"units" "N*m"
"key" "node"
"tolerance" 1.00000e-06
)
"Alpha" FLOAT DOUBLE PROP(
"units" "rads/s^2"
"key" "node"
"tolerance" 1.00000e-06
)
"Omega" FLOAT DOUBLE PROP(
"units" "rads/s"
"key" "node"
"tolerance" 1.00000e-06
)
"Theta" FLOAT DOUBLE PROP(
"units" "rads"
"key" "node"
"tolerance" 1.00000e-06
)
"F" FLOAT DOUBLE PROP(
"units" "N"
"key" "node"
"tolerance" 1.00000e-06
)
"Imp" FLOAT DOUBLE PROP(
"units" "m/s^3"
"key" "node"
"tolerance" 1.00000e-06
)
"Acc" FLOAT DOUBLE PROP(
"units" "m/s^2"
"key" "node"
"tolerance" 1.00000e-06
)
"Vel" FLOAT DOUBLE PROP(
"units" "m/s"
"key" "node"
"tolerance" 1.00000e-06
)
"Pos" FLOAT DOUBLE PROP(
"units" "m"
"key" "node"
"tolerance" 1.00000e-06
)
"Phi" FLOAT DOUBLE PROP(
"units" "Wb"
"key" "node"
"tolerance" 1.00000e-09
)
"V" FLOAT DOUBLE PROP(
"units" "V"
"key" "node"
"tolerance" 1.00000e-06
)
"I" FLOAT DOUBLE PROP(
"units" "A"
"key" "branch"
"tolerance" 1.00000e-12
)
"MMF" FLOAT DOUBLE PROP(
"units" "A*turn"
"key" "node"
"tolerance" 1.00000e-12
)
"Wb" FLOAT DOUBLE PROP(
"units" "Wb"
"key" "node"
"tolerance" 1.00000e-09
)
"Temp" FLOAT DOUBLE PROP(
"units" "C"
"key" "node"
"tolerance" 0.000100000
)
"Pwr" FLOAT DOUBLE PROP(
"units" "W"
"key" "node"
"tolerance" 1.00000e-09
)
"U" FLOAT DOUBLE PROP(
"units" ""
"key" "node"
"tolerance" 1.00000e-06
)
"V/Sec" FLOAT DOUBLE PROP(
"units" "V/s"
"key" "node"
"tolerance" 0.000100000
)
"I/Sec" FLOAT DOUBLE PROP(
"units" "A/s"
"key" "node"
"tolerance" 1.00000e-06
)
"1/Sec" FLOAT DOUBLE PROP(
"units" "1/s"
"key" "node"
"tolerance" 0.000100000
)
"HOD" FLOAT DOUBLE PROP(
"units" ""
"key" "node"
"tolerance" 0.0100000
)
"Q" FLOAT DOUBLE PROP(
"units" "coul"
"key" "node"
"tolerance" 1.00000e-14
)
SWEEP
"time" "sweep" PROP(
"sweep_direction" 0
"units" "s"
"plot" 0
"grid" 1
)
TRACE
"GND:p" "I"
"in0" "V"
"in1" "V"
"net13" "V"
"out" "V"
"V0:p" "I"
"V1:p" "I"
"VDD:p" "I"
"vdd" "V"
"vss" "V"
VALUE
"time" 0.000000000000000e+00
"GND:p" 2.170367324928983e-10
"in0" 1.200000000000000e+00
"in1" 1.200000000000000e+00
"net13" 3.706476565175914e-07
"out" 6.999538919529706e-07
"V0:p" -7.657574485775169e-11
"V1:p" -7.657574584620934e-11
"VDD:p" -6.388557615303578e-11
"vdd" 1.200000000000000e+00
"vss" 0.000000000000000e+00
"time" 1.000000000000000e-13
"GND:p" 6.061560467286142e-06
"in0" 1.200000000000000e+00
"in1" 1.200000000000000e+00
"net13" -3.908964532658495e-04
"out" -8.491023206534516e-05
"V0:p" -3.163739307507224e-06
"V1:p" -2.635623797601344e-06
"VDD:p" -2.621973621801757e-07
"vdd" 1.200000000000000e+00
"vss" 0.000000000000000e+00
"time" 3.000000000000000e-13
"GND:p" 1.735463826906390e-05
"in0" 1.200000000000000e+00
"in1" 1.200000000000000e+00
"net13" -2.568477396729528e-03
"out" -6.352307787059761e-04
"V0:p" -9.103402857065926e-06
"V1:p" -7.408685306436520e-06
"VDD:p" -8.425501055610235e-07
"vdd" 1.200000000000000e+00
"vss" 0.000000000000000e+00
"time" 7.000000000000000e-13
"GND:p" 3.845914621432340e-05
"in0" 1.200000000000000e+00
"in1" 1.200000000000000e+00
"net13" -9.409544115590212e-03
"out" -2.546423235682490e-03
"V0:p" -2.026512963496912e-05
"V1:p" -1.611147657819782e-05
"VDD:p" -2.082540001157763e-06
"vdd" 1.200000000000000e+00
"vss" 0.000000000000000e+00
"time" 1.238966178694204e-12
"GND:p" 6.288329478580778e-05
"in0" 1.200000000000000e+00
"in1" 1.200000000000000e+00
"net13" -2.540578256269835e-02
"out" -7.839684778054530e-03
"V0:p" -3.331927643902239e-05
"V1:p" -2.563952875216528e-05
"VDD:p" -3.924489594614477e-06
"vdd" 1.200000000000000e+00
"vss" 0.000000000000000e+00
"time" 2.265475539196859e-12
"GND:p" 1.007059882815947e-04
"in0" 1.200000000000000e+00
"in1" 1.200000000000000e+00
"net13" -7.077133534599617e-02
"out" -2.719933539370390e-02
"V0:p" -5.368187965768347e-05
"V1:p" -3.944822111896077e-05
"VDD:p" -7.575887504955858e-06
"vdd" 1.200000000000000e+00
"vss" 0.000000000000000e+00
"time" 3.377396600943607e-12
"GND:p" 1.332884244959518e-04
"in0" 1.200000000000000e+00
"in1" 1.200000000000000e+00
"net13" -1.348786040313669e-01
"out" -6.186965446522312e-02
"V0:p" -7.097941432603373e-05
"V1:p" -5.099548717440270e-05
"VDD:p" -1.131352299551063e-05
"vdd" 1.200000000000000e+00
"vss" 0.000000000000000e+00
"time" 4.188698300471803e-12
"GND:p" 1.536435184490867e-04
"in0" 1.200000000000000e+00
"in1" 1.200000000000000e+00
"net13" -1.882462185666869e-01
"out" -9.579803587783364e-02
"V0:p" -8.162174930312536e-05
"V1:p" -5.820758059874257e-05
"VDD:p" -1.381418854722399e-05
"vdd" 1.200000000000000e+00
"vss" 0.000000000000000e+00
"time" 5.000000000000000e-12
"GND:p" 1.721009689228454e-04
"in0" 1.200000000000000e+00
"in1" 1.200000000000000e+00
"net13" -2.457742125598660e-01
"out" -1.364420498047200e-01
"V0:p" -9.105385874769063e-05
"V1:p" -6.502299657567108e-05
"VDD:p" -1.602411359947936e-05
"vdd" 1.200000000000000e+00
"vss" 0.000000000000000e+00
"time" 5.500000000000000e-12
"GND:p" 1.548876112086505e-04
"in0" 1.200000000000000e+00
"in1" 1.200000000000000e+00
"net13" -2.762574582712937e-01
"out" -1.634409852754722e-01
"V0:p" -8.269732756915522e-05
"V1:p" -5.623507695753021e-05
"VDD:p" -1.595520668196590e-05
"vdd" 1.200000000000000e+00
"vss" 0.000000000000000e+00
"time" 5.999999999999999e-12
"GND:p" 1.395333855780435e-04
"in0" 1.200000000000000e+00
"in1" 1.200000000000000e+00
"net13" -3.039973272200054e-01
"out" -1.902335444302628e-01
"V0:p" -7.478375089838620e-05
"V1:p" -4.923302441840111e-05
"VDD:p" -1.551661026125355e-05
"vdd" 1.200000000000000e+00
"vss" 0.000000000000000e+00
"time" 6.386833306104830e-12
"GND:p" 1.079898854905817e-04
"in0" 1.200000000000000e+00
"in1" 1.200000000000000e+00
"net13" -3.166642784303098e-01
"out" -2.089316296816825e-01
"V0:p" -5.935097287409174e-05
"V1:p" -3.451727239294681e-05
"VDD:p" -1.412164022354437e-05
"vdd" 1.200000000000000e+00
"vss" 0.000000000000000e+00
"time" 6.970148335638130e-12
"GND:p" 6.441523597707581e-05
"in0" 1.200000000000000e+00
"in1" 1.200000000000000e+00
"net13" -3.291170646241555e-01
"out" -2.345943335156518e-01
"V0:p" -3.752984196015553e-05
"V1:p" -1.542897822866648e-05
"VDD:p" -1.145641578825291e-05
"vdd" 1.200000000000000e+00
"vss" 0.000000000000000e+00
"time" 7.643464874453195e-12
"GND:p" 2.198082849251892e-05
"in0" 1.200000000000000e+00
"in1" 1.200000000000000e+00
"net13" -3.294967380884914e-01
"out" -2.572432680060372e-01
"V0:p" -1.587269276667292e-05
"V1:p" 1.888211081199701e-06
"VDD:p" -7.996346807044829e-06
"vdd" 1.200000000000000e+00
"vss" 0.000000000000000e+00
"time" 8.639760273136650e-12
"GND:p" -2.976209641946818e-05
"in0" 1.200000000000000e+00
"in1" 1.200000000000000e+00
"net13" -3.107234935081632e-01
"out" -2.754718484195998e-01
"V0:p" 1.159147006233907e-05
"V1:p" 2.070713159282093e-05
"VDD:p" -2.536505235694634e-06
"vdd" 1.200000000000000e+00
"vss" 0.000000000000000e+00
"time" 9.737127347504139e-12
"GND:p" -7.542996535486943e-05
"in0" 1.200000000000000e+00
"in1" 1.200000000000000e+00
"net13" -2.697580369463854e-01
"out" -2.755023540496929e-01
"V0:p" 3.623404090598671e-05
"V1:p" 3.667561410316928e-05
"VDD:p" 2.520310345717145e-06
"vdd" 1.200000000000000e+00
"vss" 0.000000000000000e+00
"time" 1.100000000000000e-11
"GND:p" -1.144734025298709e-04
"in0" 1.200000000000000e+00
"in1" 1.200000000000000e+00
"net13" -1.982961699232079e-01
"out" -2.578343221739856e-01
"V0:p" 5.622718042510827e-05
"V1:p" 5.271700069520340e-05
"VDD:p" 5.529221409555546e-06
"vdd" 1.200000000000000e+00
"vss" 0.000000000000000e+00
"time" 1.170404117493939e-11
"GND:p" -9.644022701097780e-05
"in0" 1.200000000000000e+00
"in1" 1.200000000000000e+00
"net13" -1.690761002468425e-01
"out" -2.357672079169081e-01
"V0:p" 5.155364403175376e-05
"V1:p" 3.583278749534135e-05
"VDD:p" 9.053795483881611e-06
"vdd" 1.200000000000000e+00
"vss" 0.000000000000000e+00
"time" 1.252746019045975e-11
"GND:p" -7.952161069765248e-05
"in0" 1.200000000000000e+00
"in1" 1.200000000000000e+00
"net13" -1.402791708446089e-01
"out" -2.095013516326619e-01
"V0:p" 4.441211362397715e-05
"V1:p" 2.563075447088968e-05
"VDD:p" 9.478742602788271e-06
"vdd" 1.200000000000000e+00
"vss" 0.000000000000000e+00
"time" 1.351091562622035e-11
"GND:p" -6.580478682878020e-05
"in0" 1.200000000000000e+00
"in1" 1.200000000000000e+00
"net13" -1.161891972577259e-01
"out" -1.791439488000015e-01
"V0:p" 3.720154500292182e-05
"V1:p" 2.002486705727858e-05
"VDD:p" 8.578374768578302e-06
"vdd" 1.200000000000000e+00
"vss" 0.000000000000000e+00
"time" 1.519246218229032e-11
"GND:p" -4.880842066290385e-05
"in0" 1.200000000000000e+00
"in1" 1.200000000000000e+00
"net13" -8.627801232142118e-02
"out" -1.355596602285025e-01
"V0:p" 2.803813205591801e-05
"V1:p" 1.405935525610556e-05
"VDD:p" 6.710933350881486e-06
"vdd" 1.200000000000000e+00
"vss" 0.000000000000000e+00
"time" 1.664509637372198e-11
"GND:p" -3.807566772256212e-05
"in0" 1.200000000000000e+00
"in1" 1.200000000000000e+00
"net13" -6.717772990571429e-02
"out" -1.063206807585089e-01
"V0:p" 2.165242186259698e-05
"V1:p" 1.115940153789897e-05
"VDD:p" 5.263844322065083e-06
"vdd" 1.200000000000000e+00
"vss" 0.000000000000000e+00
"time" 1.864509637372198e-11
"GND:p" -2.693632532377224e-05
"in0" 1.200000000000000e+00
"in1" 1.200000000000000e+00
"net13" -4.760456839548931e-02
"out" -7.595164846508724e-02
"V0:p" 1.559834635144218e-05
"V1:p" 7.505110947506340e-06
"VDD:p" 3.832868024825234e-06
"vdd" 1.200000000000000e+00
"vss" 0.000000000000000e+00
"time" 2.064509637372198e-11
"GND:p" -1.918228641250233e-05
"in0" 1.200000000000000e+00
"in1" 1.200000000000000e+00
"net13" -3.380119962245492e-02
"out" -5.424057118834277e-02
"V0:p" 1.087006284420028e-05
"V1:p" 5.601568807582498e-06
"VDD:p" 2.710654760718682e-06
"vdd" 1.200000000000000e+00
"vss" 0.000000000000000e+00
"time" 2.264509637372198e-11
"GND:p" -1.358596394139216e-05
"in0" 1.200000000000000e+00
"in1" 1.200000000000000e+00
"net13" -2.403321077373557e-02
"out" -3.873070725140889e-02
"V0:p" 7.955778021570513e-06
"V1:p" 3.645469191740587e-06
"VDD:p" 1.984716728082036e-06
"vdd" 1.200000000000000e+00
"vss" 0.000000000000000e+00
"time" 2.464509637372198e-11
"GND:p" -9.723879846296075e-06
"in0" 1.200000000000000e+00
"in1" 1.200000000000000e+00
"net13" -1.710625142584975e-02
"out" -2.765333756952658e-02
"V0:p" 5.445638557092254e-06
"V1:p" 2.898675161847952e-06
"VDD:p" 1.379566127355328e-06
"vdd" 1.200000000000000e+00
"vss" 0.000000000000000e+00
"time" 2.664509637372198e-11
"GND:p" -6.873014722612366e-06
"in0" 1.200000000000000e+00
"in1" 1.200000000000000e+00
"net13" -1.218550107237203e-02
"out" -1.974304346668043e-02
"V0:p" 4.101014806597801e-06
"V1:p" 1.743624526309107e-06
"VDD:p" 1.028375389705676e-06
"vdd" 1.200000000000000e+00
"vss" 0.000000000000000e+00
"time" 2.864509637372198e-11
"GND:p" -4.952416811128208e-06
"in0" 1.200000000000000e+00
"in1" 1.200000000000000e+00
"net13" -8.685332764437181e-03
"out" -1.409492512520424e-02
"V0:p" 2.703381730548481e-06
"V1:p" 1.555274537844862e-06
"VDD:p" 6.937605427347564e-07
"vdd" 1.200000000000000e+00
"vss" 0.000000000000000e+00
"time" 3.064509637372198e-11
"GND:p" -3.477660313546041e-06
"in0" 1.200000000000000e+00
"in1" 1.200000000000000e+00
"net13" -6.193193460495805e-03
"out" -1.006232007254556e-02
"V0:p" 2.148483736724704e-06
"V1:p" 7.919555730328336e-07
"VDD:p" 5.372210037885044e-07
"vdd" 1.200000000000000e+00
"vss" 0.000000000000000e+00
"time" 3.264509637372198e-11
"GND:p" -2.534212246877690e-06
"in0" 1.200000000000000e+00
"in1" 1.200000000000000e+00
"net13" -4.417492567531505e-03
"out" -7.183277076134848e-03
"V0:p" 1.312200666238722e-06
"V1:p" 8.796747253940680e-07
"VDD:p" 3.423368552443586e-07
"vdd" 1.200000000000000e+00
"vss" 0.000000000000000e+00
"time" 3.464509637372198e-11
"GND:p" -1.754288633887081e-06
"in0" 1.200000000000000e+00
"in1" 1.200000000000000e+00
"net13" -3.151600012921287e-03
"out" -5.127871754077596e-03
"V0:p" 1.156753142033880e-06
"V1:p" 3.115942995712251e-07
"VDD:p" 2.859411922825186e-07
"vdd" 1.200000000000000e+00
"vss" 0.000000000000000e+00
"time" 3.664509637372198e-11
"GND:p" -1.305447080245641e-06
"in0" 1.200000000000000e+00
"in1" 1.200000000000000e+00
"net13" -2.248802229190377e-03
"out" -3.660507897480962e-03
"V0:p" 6.049542198095437e-07
"V1:p" 5.377453984239490e-07
"VDD:p" 1.627474620121481e-07
"vdd" 1.200000000000000e+00
"vss" 0.000000000000000e+00
"time" 3.864509637372198e-11
"GND:p" -8.778785789679448e-07
"in0" 1.200000000000000e+00
"in1" 1.200000000000000e+00
"net13" -1.604774632059379e-03
"out" -2.612964669976933e-03
"V0:p" 6.522421643280674e-07
"V1:p" 6.800478882205885e-08
"VDD:p" 1.576316258182524e-07
"vdd" 1.200000000000000e+00
"vss" 0.000000000000000e+00
"time" 4.064509637372198e-11
"GND:p" -6.801976432530184e-07
"in0" 1.200000000000000e+00
"in1" 1.200000000000000e+00
"net13" -1.145253890553882e-03
"out" -1.865136583089219e-03
"V0:p" 2.449894784236725e-07
"V1:p" 3.641111019235217e-07
"VDD:p" 7.109706290517358e-08
"vdd" 1.200000000000000e+00
"vss" 0.000000000000000e+00
"time" 4.264509637372198e-11
"GND:p" -4.317328308266217e-07
"in0" 1.200000000000000e+00
"in1" 1.200000000000000e+00
"net13" -8.173338262787046e-04
"out" -1.331275122932316e-03
"V0:p" 3.953717127143104e-07
"V1:p" -5.581649274038733e-08
"VDD:p" 9.217761085313239e-08
"vdd" 1.200000000000000e+00
"vss" 0.000000000000000e+00
"time" 4.464509637372198e-11
"GND:p" -3.618102166836743e-07
"in0" 1.200000000000000e+00
"in1" 1.200000000000000e+00
"net13" -5.833017003736183e-04
"out" -9.501625792020224e-04
"V0:p" 6.166725498947444e-08
"V1:p" 2.757855985399160e-07
"VDD:p" 2.435736315439235e-08
"vdd" 1.200000000000000e+00
"vss" 0.000000000000000e+00
"time" 4.664509637372198e-11
"GND:p" -2.044979396900964e-07
"in0" 1.200000000000000e+00
"in1" 1.200000000000000e+00
"net13" -4.162638421466674e-04
"out" -6.780952352097458e-04
"V0:p" 2.645289421915679e-07
"V1:p" -1.188353823015302e-07
"VDD:p" 5.880437980027554e-08
"vdd" 1.200000000000000e+00
"vss" 0.000000000000000e+00
"time" 4.864509637372198e-11
"GND:p" -1.996207119634256e-07
"in0" 1.200000000000000e+00
"in1" 1.200000000000000e+00
"net13" -2.970361316164781e-04
"out" -4.838731871751797e-04
"V0:p" -3.172449169815701e-08
"V1:p" 2.308156433799913e-07
"VDD:p" 5.295602814829028e-10
"vdd" 1.200000000000000e+00
"vss" 0.000000000000000e+00
"time" 5.064509637372198e-11
"GND:p" -8.872929158492437e-08
"in0" 1.200000000000000e+00
"in1" 1.200000000000000e+00
"net13" -2.119309822405365e-04
"out" -3.452231823975686e-04
"V0:p" 1.978659855050766e-07
"V1:p" -1.509292540055217e-07
"VDD:p" 4.179256008547799e-08
"vdd" 1.200000000000000e+00
"vss" 0.000000000000000e+00
"time" 5.264509637372198e-11
"GND:p" -1.169838487066972e-07
"in0" 1.200000000000000e+00
"in1" 1.200000000000000e+00
"net13" -1.511810005605768e-04
"out" -2.462447176123616e-04
"V0:p" -7.930981619410592e-08
"V1:p" 2.079092861327404e-07
"VDD:p" -1.161562123193741e-08
"vdd" 1.200000000000000e+00
"vss" 0.000000000000000e+00
"time" 5.464509637372198e-11
"GND:p" -2.974081840859890e-08
"in0" 1.200000000000000e+00
"in1" 1.200000000000000e+00
"net13" -1.078154556099075e-04
"out" -1.755867474257972e-04
"V0:p" 1.638979555003770e-07
"V1:p" -1.672791283512804e-07
"VDD:p" 3.312199125852646e-08
"vdd" 1.200000000000000e+00
"vss" 0.000000000000000e+00
"time" 5.664509637372198e-11
"GND:p" -7.487552361527733e-08
"in0" 1.200000000000000e+00
"in1" 1.200000000000000e+00
"net13" -7.685912863512721e-05
"out" -1.251460213020367e-04
"V0:p" -1.035577099705712e-07
"V1:p" 1.962387640057720e-07
"VDD:p" -1.780553041905601e-08
"vdd" 1.200000000000000e+00
"vss" 0.000000000000000e+00
"time" 5.864509637372198e-11
"GND:p" 3.181534953181487e-10
"in0" 1.200000000000000e+00
"in1" 1.200000000000000e+00
"net13" -5.476085746737051e-05
"out" -8.913782982128516e-05
"V0:p" 1.465885477591656e-07
"V1:p" -1.756097734652450e-07
"VDD:p" 2.870307220967709e-08
"vdd" 1.200000000000000e+00
"vss" 0.000000000000000e+00
"time" 6.064509637372199e-11
"GND:p" -5.341777791988672e-08
"in0" 1.200000000000000e+00
"in1" 1.200000000000000e+00
"net13" -3.898582683982754e-05
"out" -6.343262012041888e-05
"V0:p" -1.159141575152366e-07
"V1:p" 1.902920658820103e-07
"VDD:p" -2.096013044634488e-08
"vdd" 1.200000000000000e+00
"vss" 0.000000000000000e+00
"time" 6.264509637372200e-11
"GND:p" 1.563596745647594e-08
"in0" 1.200000000000000e+00
"in1" 1.200000000000000e+00
"net13" -2.772463663536863e-05
"out" -4.508241620501246e-05
"V0:p" 1.377677602270014e-07
"V1:p" -1.798547912491833e-07
"VDD:p" 2.645106356462194e-08
"vdd" 1.200000000000000e+00
"vss" 0.000000000000000e+00
"time" 6.464509637372200e-11
"GND:p" -4.248296309111925e-08
"in0" 1.200000000000000e+00
"in1" 1.200000000000000e+00
"net13" -1.968567555509450e-05
"out" -3.198273978467260e-05
"V0:p" -1.222109987335222e-07
"V1:p" 1.872617515642226e-07
"VDD:p" -2.256778973860555e-08
"vdd" 1.200000000000000e+00
"vss" 0.000000000000000e+00
"time" 6.664509637372201e-11
"GND:p" 2.344194800596796e-08
"in0" 1.200000000000000e+00
"in1" 1.200000000000000e+00
"net13" -1.394693402907329e-05
"out" -2.263126318309840e-05
"V0:p" 1.332726608125115e-07
"V1:p" -1.820180032556749e-07
"VDD:p" 2.530339443600277e-08
"vdd" 1.200000000000000e+00
"vss" 0.000000000000000e+00
"time" 6.864509637372201e-11
"GND:p" -3.691053480014751e-08
"in0" 1.200000000000000e+00
"in1" 1.200000000000000e+00
"net13" -9.850233739045225e-06
"out" -1.595551756617008e-05
"V0:p" -1.254199025601015e-07
"V1:p" 1.857175186434316e-07
"VDD:p" -2.338708128264094e-08
"vdd" 1.200000000000000e+00
"vss" 0.000000000000000e+00
"time" 7.064509637372202e-11
"GND:p" 2.741992456994481e-08
"in0" 1.200000000000000e+00
"in1" 1.200000000000000e+00
"net13" -6.925729302008237e-06
"out" -1.118989831381187e-05
"V0:p" 1.309819266048876e-07
"V1:p" -1.831203752750063e-07
"VDD:p" 2.471852409963192e-08
"vdd" 1.200000000000000e+00
"vss" 0.000000000000000e+00
"time" 7.264509637372203e-11
"GND:p" -3.407078251597924e-08
"in0" 1.200000000000000e+00
"in1" 1.200000000000000e+00
"net13" -4.838016381013813e-06
"out" -7.787862465320070e-06
"V0:p" -1.270551863457306e-07
"V1:p" 1.849305729990011e-07
"VDD:p" -2.380460413653227e-08
"vdd" 1.200000000000000e+00
"vss" 0.000000000000000e+00
"time" 7.464509637372203e-11
"GND:p" 2.944713604437381e-08
"in0" 1.200000000000000e+00
"in1" 1.200000000000000e+00
"net13" -3.347661957618770e-06
"out" -5.359248898443973e-06
"V0:p" 1.298145476343209e-07
"V1:p" -1.836821499195885e-07
"VDD:p" 2.442046624002666e-08
"vdd" 1.200000000000000e+00
"vss" 0.000000000000000e+00
"time" 7.664509637372204e-11
"GND:p" -3.262361797838650e-08
"in0" 1.200000000000000e+00
"in1" 1.200000000000000e+00
"net13" -2.283742999013917e-06
"out" -3.625532972549143e-06
"V0:p" -1.278885428299566e-07
"V1:p" 1.845295399799428e-07
"VDD:p" -2.401737917019049e-08
"vdd" 1.200000000000000e+00
"vss" 0.000000000000000e+00
"time" 7.864509637372204e-11
"GND:p" 3.048022317509649e-08
"in0" 1.200000000000000e+00
"in1" 1.200000000000000e+00
"net13" -1.524243168664957e-06
"out" -2.387884090556517e-06
"V0:p" 1.292196394703855e-07
"V1:p" -1.839684348973758e-07
"VDD:p" 2.426857225048461e-08
"vdd" 1.200000000000000e+00
"vss" 0.000000000000000e+00
"time" 8.064509637372205e-11
"GND:p" -3.188612800092082e-08
"in0" 1.200000000000000e+00
"in1" 1.200000000000000e+00
"net13" -9.820588915620891e-07
"out" -1.504362911729217e-06
"V0:p" -1.283132300081512e-07
"V1:p" 1.843251699098955e-07
"VDD:p" -2.412581189887188e-08
