HEADER
"PSFversion" "1.00"
"simulator" "spectre"
"version" "19.1.0.237.isr3"
"date" "4:10:42 PM, Tue Aug 30, 2022"
"design" "// Generated for: spectre"
"analysis type" "tran"
"analysis name" "sim"
"analysis description" "Transient Analysis `sim': time = (0 s -> 100 ps)"
"xVecSorted" "ascending"
"tolerance.relative" 0.00100000
"start" 0.00000
"outputstart" 0.00000
"stop" 1.00000e-10
"step" 1.00000e-13
"istep" 0.00100000
"maxstep" 2.00000e-12
"ic" "all"
"useprevic" "no"
"skipdc" "no"
"reltol" 0.00100000
"abstol(V)" 1.00000e-06
"abstol(I)" 1.00000e-12
"temp" 27.0000
"tnom" 27.0000
"tempeffects" "all"
"errpreset" "moderate"
"method" "traponly"
"lteratio" 3.50000
"relref" "sigglobal"
"cmin" 0.00000
"gmin" 1.00000e-12
TYPE
"sweep" FLOAT DOUBLE PROP(
"key" "sweep"
)
"LogicV" FLOAT DOUBLE PROP(
"key" "node"
)
"Tau" FLOAT DOUBLE PROP(
"units" "N*m"
"key" "node"
"tolerance" 1.00000e-06
)
"Alpha" FLOAT DOUBLE PROP(
"units" "rads/s^2"
"key" "node"
"tolerance" 1.00000e-06
)
"Omega" FLOAT DOUBLE PROP(
"units" "rads/s"
"key" "node"
"tolerance" 1.00000e-06
)
"Theta" FLOAT DOUBLE PROP(
"units" "rads"
"key" "node"
"tolerance" 1.00000e-06
)
"F" FLOAT DOUBLE PROP(
"units" "N"
"key" "node"
"tolerance" 1.00000e-06
)
"Imp" FLOAT DOUBLE PROP(
"units" "m/s^3"
"key" "node"
"tolerance" 1.00000e-06
)
"Acc" FLOAT DOUBLE PROP(
"units" "m/s^2"
"key" "node"
"tolerance" 1.00000e-06
)
"Vel" FLOAT DOUBLE PROP(
"units" "m/s"
"key" "node"
"tolerance" 1.00000e-06
)
"Pos" FLOAT DOUBLE PROP(
"units" "m"
"key" "node"
"tolerance" 1.00000e-06
)
"Phi" FLOAT DOUBLE PROP(
"units" "Wb"
"key" "node"
"tolerance" 1.00000e-09
)
"V" FLOAT DOUBLE PROP(
"units" "V"
"key" "node"
"tolerance" 1.00000e-06
)
"I" FLOAT DOUBLE PROP(
"units" "A"
"key" "branch"
"tolerance" 1.00000e-12
)
"MMF" FLOAT DOUBLE PROP(
"units" "A*turn"
"key" "node"
"tolerance" 1.00000e-12
)
"Wb" FLOAT DOUBLE PROP(
"units" "Wb"
"key" "node"
"tolerance" 1.00000e-09
)
"Temp" FLOAT DOUBLE PROP(
"units" "C"
"key" "node"
"tolerance" 0.000100000
)
"Pwr" FLOAT DOUBLE PROP(
"units" "W"
"key" "node"
"tolerance" 1.00000e-09
)
"U" FLOAT DOUBLE PROP(
"units" ""
"key" "node"
"tolerance" 1.00000e-06
)
"V/Sec" FLOAT DOUBLE PROP(
"units" "V/s"
"key" "node"
"tolerance" 0.000100000
)
"I/Sec" FLOAT DOUBLE PROP(
"units" "A/s"
"key" "node"
"tolerance" 1.00000e-06
)
"1/Sec" FLOAT DOUBLE PROP(
"units" "1/s"
"key" "node"
"tolerance" 0.000100000
)
"HOD" FLOAT DOUBLE PROP(
"units" ""
"key" "node"
"tolerance" 0.0100000
)
"Q" FLOAT DOUBLE PROP(
"units" "coul"
"key" "node"
"tolerance" 1.00000e-14
)
SWEEP
"time" "sweep" PROP(
"sweep_direction" 0
"units" "s"
"plot" 0
"grid" 1
)
TRACE
"GND:p" "I"
"in0" "V"
"in1" "V"
"net13" "V"
"out" "V"
"V0:p" "I"
"V1:p" "I"
"VDD:p" "I"
"vdd" "V"
"vss" "V"
VALUE
"time" 0.000000000000000e+00
"GND:p" 5.610122483096415e-11
"in0" 0.000000000000000e+00
"in1" 0.000000000000000e+00
"net13" 2.470546966412399e-02
"out" 1.199999584058010e+00
"V0:p" 3.016613384934715e-11
"V1:p" 2.859123199320163e-11
"VDD:p" -1.148585513731463e-10
"vdd" 1.200000000000000e+00
"vss" 0.000000000000000e+00
"time" 1.000000000000000e-13
"GND:p" 1.091517496748065e-06
"in0" 0.000000000000000e+00
"in1" 0.000000000000000e+00
"net13" 2.538105571742726e-02
"out" 1.199751797591169e+00
"V0:p" 4.770219435568085e-07
"V1:p" 3.280257093131127e-07
"VDD:p" -1.896565149617984e-06
"vdd" 1.200000000000000e+00
"vss" 0.000000000000000e+00
"time" 3.000000000000000e-13
"GND:p" 3.273430166955852e-06
"in0" 0.000000000000000e+00
"in1" 0.000000000000000e+00
"net13" 2.943690166205406e-02
"out" 1.198284198214300e+00
"V0:p" 1.509123374867157e-06
"V1:p" 1.035432228268916e-06
"VDD:p" -5.817985770093228e-06
"vdd" 1.200000000000000e+00
"vss" 0.000000000000000e+00
"time" 7.000000000000000e-13
"GND:p" 7.593913042480075e-06
"in0" 0.000000000000000e+00
"in1" 0.000000000000000e+00
"net13" 4.295829749821077e-02
"out" 1.193438430351436e+00
"V0:p" 3.764632429808374e-06
"V1:p" 2.545312012414114e-06
"VDD:p" -1.390385748470170e-05
"vdd" 1.200000000000000e+00
"vss" 0.000000000000000e+00
"time" 1.147413810949149e-12
"GND:p" 1.227294550285953e-05
"in0" 0.000000000000000e+00
"in1" 0.000000000000000e+00
"net13" 7.088903100782434e-02
"out" 1.183570746609671e+00
"V0:p" 6.784412006952820e-06
"V1:p" 4.440160743420039e-06
"VDD:p" -2.349751825323206e-05
"vdd" 1.200000000000000e+00
"vss" 0.000000000000000e+00
"time" 1.792769644607163e-12
"GND:p" 1.861887714320484e-05
"in0" 0.000000000000000e+00
"in1" 0.000000000000000e+00
"net13" 1.348508462689710e-01
"out" 1.161371642059909e+00
"V0:p" 1.217869070898050e-05
"V1:p" 7.465715137823664e-06
"VDD:p" -3.826328299001085e-05
"vdd" 1.200000000000000e+00
"vss" 0.000000000000000e+00
"time" 3.083481311923193e-12
"GND:p" 2.890368449383448e-05
"in0" 0.000000000000000e+00
"in1" 0.000000000000000e+00
"net13" 3.426542049565112e-01
"out" 1.089654450685934e+00
"V0:p" 2.810762821070881e-05
"V1:p" 1.355165412225445e-05
"VDD:p" -7.056296682679691e-05
"vdd" 1.200000000000000e+00
"vss" 0.000000000000000e+00
"time" 4.041740655961596e-12
"GND:p" 3.068752064934540e-05
"in0" 0.000000000000000e+00
"in1" 0.000000000000000e+00
"net13" 5.505452022493190e-01
"out" 1.011260225652734e+00
"V0:p" 5.309651003509845e-05
"V1:p" 1.320734171973603e-05
"VDD:p" -9.699137240418162e-05
"vdd" 1.200000000000000e+00
"vss" 0.000000000000000e+00
"time" 5.000000000000000e-12
"GND:p" 2.748231910912232e-05
"in0" 0.000000000000000e+00
"in1" 0.000000000000000e+00
"net13" 7.665672427556873e-01
"out" 9.044259896047088e-01
"V0:p" 9.501105606267131e-05
"V1:p" 3.851341825445911e-06
"VDD:p" -1.263447169972377e-04
"vdd" 1.200000000000000e+00
"vss" 0.000000000000000e+00
"time" 5.500000000000000e-12
"GND:p" 2.589133470200766e-05
"in0" 0.000000000000000e+00
"in1" 0.000000000000000e+00
"net13" 8.712157863436900e-01
"out" 8.380276646886270e-01
"V0:p" 9.948709640847752e-05
"V1:p" 5.349969791217308e-06
"VDD:p" -1.307284009017021e-04
"vdd" 1.200000000000000e+00
"vss" 0.000000000000000e+00
"time" 5.999999999999999e-12
"GND:p" 3.087820752685269e-05
"in0" 0.000000000000000e+00
"in1" 0.000000000000000e+00
"net13" 9.890208178046342e-01
"out" 7.685310949599972e-01
"V0:p" 6.853364893103330e-05
"V1:p" 2.716688718490491e-05
"VDD:p" -1.265787436427892e-04
"vdd" 1.200000000000000e+00
"vss" 0.000000000000000e+00
"time" 6.532597641129049e-12
"GND:p" 2.919452463657839e-05
"in0" 0.000000000000000e+00
"in1" 0.000000000000000e+00
"net13" 1.121828749937503e+00
"out" 7.081017492704037e-01
"V0:p" 6.078810069968218e-05
"V1:p" 2.985313827621107e-05
"VDD:p" -1.198357636124712e-04
"vdd" 1.200000000000000e+00
"vss" 0.000000000000000e+00
"time" 7.055432805751902e-12
"GND:p" 3.005891180979668e-05
"in0" 0.000000000000000e+00
"in1" 0.000000000000000e+00
"net13" 1.257962762482080e+00
"out" 6.564486544077867e-01
"V0:p" 3.039436564264276e-05
"V1:p" 4.486236017377587e-05
"VDD:p" -1.053156376262179e-04
"vdd" 1.200000000000000e+00
"vss" 0.000000000000000e+00
"time" 7.800858030150424e-12
"GND:p" 1.875720008280588e-05
"in0" 0.000000000000000e+00
"in1" 0.000000000000000e+00
"net13" 1.422703583831129e+00
"out" 6.098411245376787e-01
"V0:p" 4.730076694867002e-05
"V1:p" 2.884950250653557e-05
"VDD:p" -9.490746953800759e-05
"vdd" 1.200000000000000e+00
"vss" 0.000000000000000e+00
"time" 7.933213192668578e-12
"GND:p" 1.625529267918307e-05
"in0" 0.000000000000000e+00
"in1" 0.000000000000000e+00
"net13" 1.444057032949201e+00
"out" 6.061479086032050e-01
"V0:p" 3.201361632735099e-05
"V1:p" 3.265253137572682e-05
"VDD:p" -8.092144038225569e-05
"vdd" 1.200000000000000e+00
"vss" 0.000000000000000e+00
"time" 8.197923517704885e-12
"GND:p" 3.004465569365107e-06
"in0" 0.000000000000000e+00
"in1" 0.000000000000000e+00
"net13" 1.467646458993103e+00
"out" 6.079213954733621e-01
"V0:p" 5.479072577680245e-05
"V1:p" 1.063787998994162e-05
"VDD:p" -6.843307133611525e-05
"vdd" 1.200000000000000e+00
"vss" 0.000000000000000e+00
"time" 8.526170752479173e-12
"GND:p" 3.672791849308145e-06
"in0" 0.000000000000000e+00
"in1" 0.000000000000000e+00
"net13" 1.477818729819511e+00
"out" 6.189703950776869e-01
"V0:p" 3.809050205995536e-05
"V1:p" 1.765438556265137e-05
"VDD:p" -5.941767947190925e-05
"vdd" 1.200000000000000e+00
"vss" 0.000000000000000e+00
"time" 8.839324890320814e-12
"GND:p" 9.440445134895844e-07
"in0" 0.000000000000000e+00
"in1" 0.000000000000000e+00
"net13" 1.484538882865829e+00
"out" 6.307159399055169e-01
"V0:p" 5.501105173738048e-05
"V1:p" 8.012810050830996e-06
"VDD:p" -6.396790630170411e-05
"vdd" 1.200000000000000e+00
"vss" 0.000000000000000e+00
"time" 9.178041631140648e-12
"GND:p" 3.477360079728640e-06
"in0" 0.000000000000000e+00
"in1" 0.000000000000000e+00
"net13" 1.491507732012064e+00
"out" 6.433354407247616e-01
"V0:p" 3.720553345930050e-05
"V1:p" 1.723988047165059e-05
"VDD:p" -5.792277401068014e-05
"vdd" 1.200000000000000e+00
"vss" 0.000000000000000e+00
"time" 9.816427029049233e-12
"GND:p" -1.837171871779669e-07
"in0" 0.000000000000000e+00
"in1" 0.000000000000000e+00
"net13" 1.501307039291736e+00
"out" 6.679842728891602e-01
"V0:p" 5.387302553056751e-05
"V1:p" 6.401781729052322e-06
"VDD:p" -6.009109007244294e-05
"vdd" 1.200000000000000e+00
"vss" 0.000000000000000e+00
"time" 1.040821351452462e-11
"GND:p" 1.368027130842757e-06
"in0" 0.000000000000000e+00
"in1" 0.000000000000000e+00
"net13" 1.504576593453942e+00
"out" 6.926297701705497e-01
"V0:p" 3.562225238450970e-05
"V1:p" 1.442273481737971e-05
"VDD:p" -5.141301433273105e-05
"vdd" 1.200000000000000e+00
"vss" 0.000000000000000e+00
"time" 1.100000000000000e-11
"GND:p" -3.976278073749810e-06
"in0" 0.000000000000000e+00
"in1" 0.000000000000000e+00
"net13" 1.497373027669382e+00
"out" 7.210660188592387e-01
"V0:p" 5.204419513728207e-05
"V1:p" 1.745584581563425e-06
"VDD:p" -4.981350164509678e-05
"vdd" 1.200000000000000e+00
"vss" 0.000000000000000e+00
"time" 1.198149931286175e-11
"GND:p" -1.716567403663274e-06
"in0" 0.000000000000000e+00
"in1" 0.000000000000000e+00
"net13" 1.481683398574606e+00
"out" 7.661093245393883e-01
"V0:p" 3.993150008199901e-05
"V1:p" 7.274013730928970e-06
"VDD:p" -4.548894640926491e-05
"vdd" 1.200000000000000e+00
"vss" 0.000000000000000e+00
"time" 1.283633437394871e-11
"GND:p" -1.341127850372656e-06
"in0" 0.000000000000000e+00
"in1" 0.000000000000000e+00
"net13" 1.469541774934669e+00
"out" 8.026516248420104e-01
"V0:p" 3.526836571704386e-05
"V1:p" 8.208762857964671e-06
"VDD:p" -4.213600072463608e-05
"vdd" 1.200000000000000e+00
"vss" 0.000000000000000e+00
"time" 1.420898180745003e-11
"GND:p" -1.159845243833465e-06
"in0" 0.000000000000000e+00
"in1" 0.000000000000000e+00
"net13" 1.453638854808692e+00
"out" 8.538980114390209e-01
"V0:p" 3.169588777642960e-05
"V1:p" 7.787077140608154e-06
"VDD:p" -3.832311967320527e-05
"vdd" 1.200000000000000e+00
"vss" 0.000000000000000e+00
"time" 1.620898180745003e-11
"GND:p" -7.356839900058515e-07
"in0" 0.000000000000000e+00
"in1" 0.000000000000000e+00
"net13" 1.436129639043451e+00
"out" 9.151122234015604e-01
"V0:p" 2.465616677542457e-05
"V1:p" 8.311629154333697e-06
"VDD:p" -3.223211193975111e-05
"vdd" 1.200000000000000e+00
"vss" 0.000000000000000e+00
"time" 1.820898180745003e-11
"GND:p" -6.459601896005628e-07
"in0" 0.000000000000000e+00
"in1" 0.000000000000000e+00
"net13" 1.423402049856680e+00
"out" 9.642861983874933e-01
"V0:p" 2.165618312706686e-05
"V1:p" 7.044949491337034e-06
"VDD:p" -2.805517242880431e-05
"vdd" 1.200000000000000e+00
"vss" 0.000000000000000e+00
"time" 2.020898180745003e-11
"GND:p" -3.748213402379835e-07
"in0" 0.000000000000000e+00
"in1" 0.000000000000000e+00
"net13" 1.414017338285310e+00
"out" 1.004498213124949e+00
"V0:p" 1.671174970412462e-05
"V1:p" 7.019631938897324e-06
"VDD:p" -2.335656030278265e-05
"vdd" 1.200000000000000e+00
"vss" 0.000000000000000e+00
"time" 2.220898180745003e-11
"GND:p" -3.857628136946698e-07
"in0" 0.000000000000000e+00
"in1" 0.000000000000000e+00
"net13" 1.407034841231184e+00
"out" 1.037716391834506e+00
"V0:p" 1.518426597962638e-05
"V1:p" 5.535188412236310e-06
"VDD:p" -2.033369157817003e-05
"vdd" 1.200000000000000e+00
"vss" 0.000000000000000e+00
"time" 2.420898180745003e-11
"GND:p" -1.841363456370977e-07
"in0" 0.000000000000000e+00
"in1" 0.000000000000000e+00
"net13" 1.401808258160306e+00
"out" 1.065290386677840e+00
"V0:p" 1.135477225154760e-05
"V1:p" 5.479464000121176e-06
"VDD:p" -1.665009990602989e-05
"vdd" 1.200000000000000e+00
"vss" 0.000000000000000e+00
"time" 2.620898180745003e-11
"GND:p" -2.447963574369113e-07
"in0" 0.000000000000000e+00
"in1" 0.000000000000000e+00
"net13" 1.397877236429836e+00
"out" 1.088222907904311e+00
"V0:p" 1.071987993723726e-05
"V1:p" 4.064169513453279e-06
"VDD:p" -1.453925309325520e-05
"vdd" 1.200000000000000e+00
"vss" 0.000000000000000e+00
"time" 2.820898180745003e-11
"GND:p" -7.947543452672180e-08
"in0" 0.000000000000000e+00
"in1" 0.000000000000000e+00
"net13" 1.394906702104718e+00
"out" 1.107302785179821e+00
"V0:p" 7.626873504660507e-06
"V1:p" 4.127265144844719e-06
"VDD:p" -1.167466321497715e-05
"vdd" 1.200000000000000e+00
"vss" 0.000000000000000e+00
"time" 3.020898180745003e-11
"GND:p" -1.668707893066037e-07
"in0" 0.000000000000000e+00
"in1" 0.000000000000000e+00
"net13" 1.392650514060024e+00
"out" 1.123171685633691e+00
"V0:p" 7.607515327502522e-06
"V1:p" 2.852014671841489e-06
"VDD:p" -1.029265921003757e-05
"vdd" 1.200000000000000e+00
"vss" 0.000000000000000e+00
"time" 3.220898180745003e-11
"GND:p" -2.129084139352815e-08
"in0" 0.000000000000000e+00
"in1" 0.000000000000000e+00
"net13" 1.390927262041105e+00
"out" 1.136360888130450e+00
"V0:p" 5.031127342573020e-06
"V1:p" 3.059791616069137e-06
"VDD:p" -8.069628117248518e-06
"vdd" 1.200000000000000e+00
"vss" 0.000000000000000e+00
"time" 3.420898180745003e-11
"GND:p" -1.232735034700458e-07
"in0" 0.000000000000000e+00
"in1" 0.000000000000000e+00
"net13" 1.389603082272808e+00
"out" 1.147314009308290e+00
"V0:p" 5.445494229144810e-06
"V1:p" 1.924284872091565e-06
"VDD:p" -7.246505597766601e-06
"vdd" 1.200000000000000e+00
"vss" 0.000000000000000e+00
"time" 3.620898180745003e-11
"GND:p" 1.151992491888345e-08
"in0" 0.000000000000000e+00
"in1" 0.000000000000000e+00
"net13" 1.388579093774161e+00
"out" 1.156402703667556e+00
"V0:p" 3.232749509675888e-06
"V1:p" 2.261631710681810e-06
"VDD:p" -5.505901145275768e-06
"vdd" 1.200000000000000e+00
"vss" 0.000000000000000e+00
"time" 3.820898180745002e-11
"GND:p" -9.845040865817772e-08
"in0" 0.000000000000000e+00
"in1" 0.000000000000000e+00
"net13" 1.387782131226211e+00
"out" 1.163938526468056e+00
"V0:p" 3.951420096932048e-06
"V1:p" 1.243017311993780e-06
"VDD:p" -5.095987000268898e-06
"vdd" 1.200000000000000e+00
"vss" 0.000000000000000e+00
"time" 4.020898180745002e-11
"GND:p" 3.041689349290799e-08
"in0" 0.000000000000000e+00
"in1" 0.000000000000000e+00
"net13" 1.387157945632369e+00
"out" 1.170182456833419e+00
"V0:p" 1.992801055436713e-06
"V1:p" 1.683792686791230e-06
"VDD:p" -3.707010635719604e-06
"vdd" 1.200000000000000e+00
"vss" 0.000000000000000e+00
"time" 4.220898180745002e-11
"GND:p" -8.397536151659136e-08
"in0" 0.000000000000000e+00
"in1" 0.000000000000000e+00
"net13" 1.386666076915627e+00
"out" 1.175352799393732e+00
"V0:p" 2.923340329183550e-06
"V1:p" 7.553555409679173e-07
"VDD:p" -3.594720508636394e-06
"vdd" 1.200000000000000e+00
"vss" 0.000000000000000e+00
"time" 4.420898180745002e-11
"GND:p" 4.157831081598013e-08
"in0" 0.000000000000000e+00
"in1" 0.000000000000000e+00
"net13" 1.386276216873655e+00
"out" 1.179631874583249e+00
"V0:p" 1.141060285359690e-06
"V1:p" 1.273900904299885e-06
"VDD:p" -2.456539500473169e-06
"vdd" 1.200000000000000e+00
"vss" 0.000000000000000e+00
"time" 4.620898180745002e-11
"GND:p" -7.530989761398491e-08
"in0" 0.000000000000000e+00
"in1" 0.000000000000000e+00
"net13" 1.385965542777628e+00
"out" 1.183171709252327e+00
"V0:p" 2.218153804015059e-06
"V1:p" 4.119662110761491e-07
"VDD:p" -2.554810117479989e-06
"vdd" 1.200000000000000e+00
"vss" 0.000000000000000e+00
"time" 4.820898180745002e-11
"GND:p" 4.835137990415310e-08
"in0" 0.000000000000000e+00
"in1" 0.000000000000000e+00
"net13" 1.385716754727443e+00
"out" 1.186098881470225e+00
"V0:p" 5.575299883472463e-07
"V1:p" 9.869959432924257e-07
"VDD:p" -1.592877311540952e-06
"vdd" 1.200000000000000e+00
"vss" 0.000000000000000e+00
"time" 5.020898180745002e-11
"GND:p" -6.998169924275145e-08
"in0" 0.000000000000000e+00
"in1" 0.000000000000000e+00
"net13" 1.385516646415285e+00
"out" 1.188518639666309e+00
"V0:p" 1.735511332005160e-06
"V1:p" 1.727793867221276e-07
"VDD:p" -1.838309019486867e-06
"vdd" 1.200000000000000e+00
"vss" 0.000000000000000e+00
"time" 5.220898180745002e-11
"GND:p" 5.256839097434415e-08
"in0" 0.000000000000000e+00
"in1" 0.000000000000000e+00
"net13" 1.385355062941075e+00
"out" 1.190518394259704e+00
"V0:p" 1.584830636868865e-07
"V1:p" 7.879480631524478e-07
"VDD:p" -9.989995178111301e-07
"vdd" 1.200000000000000e+00
"vss" 0.000000000000000e+00
"time" 5.420898180745002e-11
"GND:p" -6.662546851087456e-08
"in0" 0.000000000000000e+00
"in1" 0.000000000000000e+00
"net13" 1.385224138761294e+00
"out" 1.192170667437305e+00
"V0:p" 1.405683884765409e-06
"V1:p" 7.377847702020830e-09
"VDD:p" -1.346436263958453e-06
"vdd" 1.200000000000000e+00
"vss" 0.000000000000000e+00
"time" 5.620898180745002e-11
"GND:p" 5.525308657859031e-08
"in0" 0.000000000000000e+00
"in1" 0.000000000000000e+00
"net13" 1.385117738195937e+00
"out" 1.193535576987224e+00
"V0:p" -1.140614270967450e-07
"V1:p" 6.506710832697899e-07
"VDD:p" -5.918627427502259e-07
"vdd" 1.200000000000000e+00
"vss" 0.000000000000000e+00
"time" 5.820898180745003e-11
"GND:p" -6.446821532193497e-08
"in0" 0.000000000000000e+00
"in1" 0.000000000000000e+00
"net13" 1.385031042496864e+00
"out" 1.194662921484946e+00
"V0:p" 1.180521810703873e-06
"V1:p" -1.064439814809721e-07
"VDD:p" -1.009609613903026e-06
"vdd" 1.200000000000000e+00
"vss" 0.000000000000000e+00
"time" 6.020898180745003e-11
"GND:p" 5.699345054313463e-08
"in0" 0.000000000000000e+00
"in1" 0.000000000000000e+00
"net13" 1.384960243188045e+00
"out" 1.195593926138586e+00
"V0:p" -3.000457757432886e-07
"V1:p" 5.563737127288111e-07
"VDD:p" -3.133213875261635e-07
"vdd" 1.200000000000000e+00
"vss" 0.000000000000000e+00
"time" 6.220898180745004e-11
"GND:p" -6.305927412096700e-08
"in0" 0.000000000000000e+00
"in1" 0.000000000000000e+00
"net13" 1.384902312733680e+00
"out" 1.196362701131086e+00
"V0:p" 1.026920750314543e-06
"V1:p" -1.845136764804864e-07
"VDD:p" -7.793477997157998e-07
"vdd" 1.200000000000000e+00
"vss" 0.000000000000000e+00
"time" 6.420898180745004e-11
"GND:p" 5.813753000294514e-08
"in0" 0.000000000000000e+00
"in1" 0.000000000000000e+00
"net13" 1.384854831739292e+00
"out" 1.196997457391037e+00
"V0:p" -4.268867929392296e-07
"V1:p" 4.917747244873924e-07
"VDD:p" -1.230254615487222e-07
"vdd" 1.200000000000000e+00
"vss" 0.000000000000000e+00
"time" 6.620898180745005e-11
"GND:p" -6.212785462212922e-08
"in0" 0.000000000000000e+00
"in1" 0.000000000000000e+00
"net13" 1.384815857722626e+00
"out" 1.197521518438030e+00
"V0:p" 9.221881175261678e-07
"V1:p" -2.379420008685795e-07
"VDD:p" -6.221182620383324e-07
"vdd" 1.200000000000000e+00
"vss" 0.000000000000000e+00
"time" 6.820898180745006e-11
"GND:p" 5.889749796373953e-08
"in0" 0.000000000000000e+00
"in1" 0.000000000000000e+00
"net13" 1.384783824656232e+00
"out" 1.197954161317246e+00
"V0:p" -5.133574304051951e-07
"V1:p" 4.476019424408199e-07
"VDD:p" 6.857990004376366e-09
"vdd" 1.200000000000000e+00
"vss" 0.000000000000000e+00
"time" 7.020898180745006e-11
"GND:p" -6.150661275239085e-08
"in0" 0.000000000000000e+00
"in1" 0.000000000000000e+00
"net13" 1.384757465457044e+00
"out" 1.198311314663970e+00
"V0:p" 8.508000120803343e-07
"V1:p" -2.744513345439569e-07
"VDD:p" -5.148420647871306e-07
"vdd" 1.200000000000000e+00
"vss" 0.000000000000000e+00
"time" 7.220898180745007e-11
"GND:p" 5.940614328033854e-08
"in0" 0.000000000000000e+00
"in1" 0.000000000000000e+00
"net13" 1.384735751723118e+00
"out" 1.198606137597709e+00
"V0:p" -5.722904571149602e-07
"V1:p" 4.174342176160258e-07
"VDD:p" 9.545009622222799e-08
"vdd" 1.200000000000000e+00
"vss" 0.000000000000000e+00
"time" 7.420898180745008e-11
"GND:p" -6.108960025390110e-08
