HEADER
"PSFversion" "1.00"
"simulator" "spectre"
"version" "19.1.0.237.isr3"
"date" "4:10:06 PM, Tue Aug 30, 2022"
"design" "// Generated for: spectre"
"analysis type" "tran"
"analysis name" "sim"
"analysis description" "Transient Analysis `sim': time = (0 s -> 100 ps)"
"xVecSorted" "ascending"
"tolerance.relative" 0.00100000
"start" 0.00000
"outputstart" 0.00000
"stop" 1.00000e-10
"step" 1.00000e-13
"istep" 0.00100000
"maxstep" 2.00000e-12
"ic" "all"
"useprevic" "no"
"skipdc" "no"
"reltol" 0.00100000
"abstol(V)" 1.00000e-06
"abstol(I)" 1.00000e-12
"temp" 27.0000
"tnom" 27.0000
"tempeffects" "all"
"errpreset" "moderate"
"method" "traponly"
"lteratio" 3.50000
"relref" "sigglobal"
"cmin" 0.00000
"gmin" 1.00000e-12
TYPE
"sweep" FLOAT DOUBLE PROP(
"key" "sweep"
)
"LogicV" FLOAT DOUBLE PROP(
"key" "node"
)
"Tau" FLOAT DOUBLE PROP(
"units" "N*m"
"key" "node"
"tolerance" 1.00000e-06
)
"Alpha" FLOAT DOUBLE PROP(
"units" "rads/s^2"
"key" "node"
"tolerance" 1.00000e-06
)
"Omega" FLOAT DOUBLE PROP(
"units" "rads/s"
"key" "node"
"tolerance" 1.00000e-06
)
"Theta" FLOAT DOUBLE PROP(
"units" "rads"
"key" "node"
"tolerance" 1.00000e-06
)
"F" FLOAT DOUBLE PROP(
"units" "N"
"key" "node"
"tolerance" 1.00000e-06
)
"Imp" FLOAT DOUBLE PROP(
"units" "m/s^3"
"key" "node"
"tolerance" 1.00000e-06
)
"Acc" FLOAT DOUBLE PROP(
"units" "m/s^2"
"key" "node"
"tolerance" 1.00000e-06
)
"Vel" FLOAT DOUBLE PROP(
"units" "m/s"
"key" "node"
"tolerance" 1.00000e-06
)
"Pos" FLOAT DOUBLE PROP(
"units" "m"
"key" "node"
"tolerance" 1.00000e-06
)
"Phi" FLOAT DOUBLE PROP(
"units" "Wb"
"key" "node"
"tolerance" 1.00000e-09
)
"V" FLOAT DOUBLE PROP(
"units" "V"
"key" "node"
"tolerance" 1.00000e-06
)
"I" FLOAT DOUBLE PROP(
"units" "A"
"key" "branch"
"tolerance" 1.00000e-12
)
"MMF" FLOAT DOUBLE PROP(
"units" "A*turn"
"key" "node"
"tolerance" 1.00000e-12
)
"Wb" FLOAT DOUBLE PROP(
"units" "Wb"
"key" "node"
"tolerance" 1.00000e-09
)
"Temp" FLOAT DOUBLE PROP(
"units" "C"
"key" "node"
"tolerance" 0.000100000
)
"Pwr" FLOAT DOUBLE PROP(
"units" "W"
"key" "node"
"tolerance" 1.00000e-09
)
"U" FLOAT DOUBLE PROP(
"units" ""
"key" "node"
"tolerance" 1.00000e-06
)
"V/Sec" FLOAT DOUBLE PROP(
"units" "V/s"
"key" "node"
"tolerance" 0.000100000
)
"I/Sec" FLOAT DOUBLE PROP(
"units" "A/s"
"key" "node"
"tolerance" 1.00000e-06
)
"1/Sec" FLOAT DOUBLE PROP(
"units" "1/s"
"key" "node"
"tolerance" 0.000100000
)
"HOD" FLOAT DOUBLE PROP(
"units" ""
"key" "node"
"tolerance" 0.0100000
)
"Q" FLOAT DOUBLE PROP(
"units" "coul"
"key" "node"
"tolerance" 1.00000e-14
)
SWEEP
"time" "sweep" PROP(
"sweep_direction" 0
"units" "s"
"plot" 0
"grid" 1
)
TRACE
"GND:p" "I"
"in0" "V"
"in1" "V"
"net13" "V"
"out" "V"
"V0:p" "I"
"V1:p" "I"
"VDD:p" "I"
"vdd" "V"
"vss" "V"
VALUE
"time" 0.000000000000000e+00
"GND:p" 1.271602942602738e-10
"in0" 1.200000000000000e+00
"in1" 0.000000000000000e+00
"net13" 1.175255987389764e+00
"out" 1.199998622265821e+00
"V0:p" -2.885339490148764e-16
"V1:p" 2.999488749051789e-11
"VDD:p" -1.571690853367175e-10
"vdd" 1.200000000000000e+00
"vss" 0.000000000000000e+00
"time" 1.000000000000000e-13
"GND:p" 9.562978628431088e-08
"in0" 1.200000000000000e+00
"in1" 0.000000000000000e+00
"net13" 1.175339677966813e+00
"out" 1.200432207262218e+00
"V0:p" 2.141448381176628e-06
"V1:p" 2.285452020383525e-06
"VDD:p" -4.522530187843596e-06
"vdd" 1.200000000000000e+00
"vss" 0.000000000000000e+00
"time" 3.000000000000000e-13
"GND:p" 2.828625778832098e-07
"in0" 1.200000000000000e+00
"in1" 0.000000000000000e+00
"net13" 1.175835239359698e+00
"out" 1.203000901724954e+00
"V0:p" 6.419763121304638e-06
"V1:p" 6.775944809834512e-06
"VDD:p" -1.347857050902323e-05
"vdd" 1.200000000000000e+00
"vss" 0.000000000000000e+00
"time" 7.000000000000000e-13
"GND:p" 6.411655978219654e-07
"in0" 1.200000000000000e+00
"in1" 0.000000000000000e+00
"net13" 1.177454727024813e+00
"out" 1.211410601507545e+00
"V0:p" 1.532900527722696e-05
"V1:p" 1.549008467740987e-05
"VDD:p" -3.146025555245619e-05
"vdd" 1.200000000000000e+00
"vss" 0.000000000000000e+00
"time" 1.217253691157456e-12
"GND:p" 1.069460938420293e-06
"in0" 1.200000000000000e+00
"in1" 0.000000000000000e+00
"net13" 1.181334347351677e+00
"out" 1.231649579760160e+00
"V0:p" 2.719712061970810e-05
"V1:p" 2.633904802479620e-05
"VDD:p" -5.460562958292870e-05
"vdd" 1.200000000000000e+00
"vss" 0.000000000000000e+00
"time" 2.032527340970898e-12
"GND:p" 1.662949679713840e-06
"in0" 1.200000000000000e+00
"in1" 0.000000000000000e+00
"net13" 1.191116109290863e+00
"out" 1.283263710719475e+00
"V0:p" 4.625372869052482e-05
"V1:p" 4.292406123666691e-05
"VDD:p" -9.084073960690161e-05
"vdd" 1.200000000000000e+00
"vss" 0.000000000000000e+00
"time" 3.530362146948081e-12
"GND:p" 2.429602250950618e-06
"in0" 1.200000000000000e+00
"in1" 0.000000000000000e+00
"net13" 1.218134713872943e+00
"out" 1.430076239514112e+00
"V0:p" 8.617157296619723e-05
"V1:p" 7.081824933011397e-05
"VDD:p" -1.594194245472657e-04
"vdd" 1.200000000000000e+00
"vss" 0.000000000000000e+00
"time" 4.265181073474040e-12
"GND:p" 2.550224033764418e-06
"in0" 1.200000000000000e+00
"in1" 0.000000000000000e+00
"net13" 1.234334728719708e+00
"out" 1.521068633880596e+00
"V0:p" 1.123492240486887e-04
"V1:p" 8.268897100378678e-05
"VDD:p" -1.975884190862376e-04
"vdd" 1.200000000000000e+00
"vss" 0.000000000000000e+00
"time" 5.000000000000000e-12
"GND:p" 2.803332353435119e-06
"in0" 1.200000000000000e+00
"in1" 0.000000000000000e+00
"net13" 1.251809808878318e+00
"out" 1.621692509673506e+00
"V0:p" 1.291802192501895e-04
"V1:p" 9.588606811992018e-05
"VDD:p" -2.278696197235473e-04
"vdd" 1.200000000000000e+00
"vss" 0.000000000000000e+00
"time" 5.999999999999999e-12
"GND:p" 2.460391596735327e-06
"in0" 1.200000000000000e+00
"in1" 0.000000000000000e+00
"net13" 1.273754525016282e+00
"out" 1.751663229638241e+00
"V0:p" 1.218913260547058e-04
"V1:p" 8.968214617293966e-05
"VDD:p" -2.140338638243807e-04
"vdd" 1.200000000000000e+00
"vss" 0.000000000000000e+00
"time" 6.547991301237376e-12
"GND:p" 1.926329846847472e-06
"in0" 1.200000000000000e+00
"in1" 0.000000000000000e+00
"net13" 1.283198387731670e+00
"out" 1.808814494670378e+00
"V0:p" 1.003763991404030e-04
"V1:p" 7.487680885923344e-05
"VDD:p" -1.771795378464852e-04
"vdd" 1.200000000000000e+00
"vss" 0.000000000000000e+00
"time" 7.472028317437453e-12
"GND:p" 1.146148944882575e-06
"in0" 1.200000000000000e+00
"in1" 0.000000000000000e+00
"net13" 1.295926383568021e+00
"out" 1.887048003407227e+00
"V0:p" 6.441470534181485e-05
"V1:p" 4.964261226572305e-05
"VDD:p" -1.152034665524181e-04
"vdd" 1.200000000000000e+00
"vss" 0.000000000000000e+00
"time" 8.982052494382138e-12
"GND:p" 2.514948432354493e-07
"in0" 1.200000000000000e+00
"in1" 0.000000000000000e+00
"net13" 1.305406897192839e+00
"out" 1.946163842953711e+00
"V0:p" 1.236496010465983e-05
"V1:p" 8.987183260265748e-06
"VDD:p" -2.160363820816316e-05
"vdd" 1.200000000000000e+00
"vss" 0.000000000000000e+00
"time" 9.991026247191068e-12
"GND:p" -3.700124878612998e-07
"in0" 1.200000000000000e+00
"in1" 0.000000000000000e+00
"net13" 1.304867807437184e+00
"out" 1.942778617486541e+00
"V0:p" -1.896575869465793e-05
"V1:p" -1.404919122252352e-05
"VDD:p" 3.338496240504556e-05
"vdd" 1.200000000000000e+00
"vss" 0.000000000000000e+00
"time" 1.100000000000000e-11
"GND:p" -8.322964609323606e-07
"in0" 1.200000000000000e+00
"in1" 0.000000000000000e+00
"net13" 1.299414158691170e+00
"out" 1.908681263015185e+00
"V0:p" -4.739030998588380e-05
"V1:p" -3.670496901693304e-05
"VDD:p" 8.492757546374769e-05
"vdd" 1.200000000000000e+00
"vss" 0.000000000000000e+00
"time" 1.300000000000000e-11
"GND:p" -7.523667708734084e-07
"in0" 1.200000000000000e+00
"in1" 0.000000000000000e+00
"net13" 1.285909748526910e+00
"out" 1.825298792837556e+00
"V0:p" -4.068086698097285e-05
"V1:p" -3.084769306065173e-05
"VDD:p" 7.228092681249793e-05
"vdd" 1.200000000000000e+00
"vss" 0.000000000000000e+00
"time" 1.403772774357006e-11
"GND:p" -7.306405857503722e-07
"in0" 1.200000000000000e+00
"in1" 0.000000000000000e+00
"net13" 1.279017900701203e+00
"out" 1.783337665380023e+00
"V0:p" -3.753782527797400e-05
"V1:p" -2.779870283773220e-05
"VDD:p" 6.606716870145648e-05
"vdd" 1.200000000000000e+00
"vss" 0.000000000000000e+00
"time" 1.587754630275642e-11
"GND:p" -6.243351398636702e-07
"in0" 1.200000000000000e+00
"in1" 0.000000000000000e+00
"net13" 1.267873972393305e+00
"out" 1.716341874839423e+00
"V0:p" -3.211976953699108e-05
"V1:p" -2.389138667588631e-05
"VDD:p" 5.663549135274155e-05
"vdd" 1.200000000000000e+00
"vss" 0.000000000000000e+00
"time" 1.787754630275642e-11
"GND:p" -5.774993200357789e-07
"in0" 1.200000000000000e+00
"in1" 0.000000000000000e+00
"net13" 1.257152035603658e+00
"out" 1.652864983898285e+00
"V0:p" -2.744227527697544e-05
"V1:p" -1.988062309607993e-05
"VDD:p" 4.790039769309083e-05
"vdd" 1.200000000000000e+00
"vss" 0.000000000000000e+00
"time" 1.987754630275642e-11
"GND:p" -4.880383777027219e-07
"in0" 1.200000000000000e+00
"in1" 0.000000000000000e+00
"net13" 1.247664884998955e+00
"out" 1.597498866800124e+00
"V0:p" -2.316570763847166e-05
"V1:p" -1.722024943019470e-05
"VDD:p" 4.087399544636996e-05
"vdd" 1.200000000000000e+00
"vss" 0.000000000000000e+00
"time" 2.187754630275642e-11
"GND:p" -4.624112395153207e-07
"in0" 1.200000000000000e+00
"in1" 0.000000000000000e+00
"net13" 1.239217347895823e+00
"out" 1.548833074394838e+00
"V0:p" -1.986901011196347e-05
"V1:p" -1.454185458668404e-05
"VDD:p" 3.487327593816196e-05
"vdd" 1.200000000000000e+00
"vss" 0.000000000000000e+00
"time" 2.387754630275642e-11
"GND:p" -3.895280178426377e-07
"in0" 1.200000000000000e+00
"in1" 0.000000000000000e+00
"net13" 1.231657283688744e+00
"out" 1.505786606158167e+00
"V0:p" -1.672486255618487e-05
"V1:p" -1.288825007422114e-05
"VDD:p" 3.000264064824952e-05
"vdd" 1.200000000000000e+00
"vss" 0.000000000000000e+00
"time" 2.587754630275642e-11
"GND:p" -3.756016848270156e-07
"in0" 1.200000000000000e+00
"in1" 0.000000000000000e+00
"net13" 1.224877130072673e+00
"out" 1.467588779773062e+00
"V0:p" -1.434818864973093e-05
"V1:p" -1.093168013456328e-05
"VDD:p" 2.565547046912041e-05
"vdd" 1.200000000000000e+00
"vss" 0.000000000000000e+00
"time" 2.787754630275641e-11
"GND:p" -3.107415321937651e-07
"in0" 1.200000000000000e+00
"in1" 0.000000000000000e+00
"net13" 1.218802797779106e+00
"out" 1.433695741387659e+00
"V0:p" -1.197971358271413e-05
"V1:p" -9.796109088309106e-06
"VDD:p" 2.208656420321755e-05
"vdd" 1.200000000000000e+00
"vss" 0.000000000000000e+00
"time" 2.987754630275642e-11
"GND:p" -3.028820722462908e-07
"in0" 1.200000000000000e+00
"in1" 0.000000000000000e+00
"net13" 1.213378137308478e+00
"out" 1.403690700055401e+00
"V0:p" -1.028919880039942e-05
"V1:p" -8.235363628690294e-06
"VDD:p" 1.882744450133557e-05
"vdd" 1.200000000000000e+00
"vss" 0.000000000000000e+00
"time" 3.187754630275642e-11
"GND:p" -2.433670450186683e-07
"in0" 1.200000000000000e+00
"in1" 0.000000000000000e+00
"net13" 1.208553867840690e+00
"out" 1.377215629221883e+00
"V0:p" -8.535180327297455e-06
"V1:p" -7.426912070601574e-06
"VDD:p" 1.620545944291805e-05
"vdd" 1.200000000000000e+00
"vss" 0.000000000000000e+00
"time" 3.387754630275642e-11
"GND:p" -2.407203272924916e-07
"in0" 1.200000000000000e+00
"in1" 0.000000000000000e+00
"net13" 1.204282287372568e+00
"out" 1.353938427753157e+00
"V0:p" -7.385403243636668e-06
"V1:p" -6.151626874722330e-06
"VDD:p" 1.377775044565174e-05
"vdd" 1.200000000000000e+00
"vss" 0.000000000000000e+00
"time" 3.587754630275642e-11
"GND:p" -1.864619975902606e-07
"in0" 1.200000000000000e+00
"in1" 0.000000000000000e+00
"net13" 1.200515660423777e+00
"out" 1.333541652312922e+00
"V0:p" -6.096097568472265e-06
"V1:p" -5.598774823978988e-06
"VDD:p" 1.188133439004078e-05
"vdd" 1.200000000000000e+00
"vss" 0.000000000000000e+00
"time" 3.787754630275642e-11
"GND:p" -1.890865594538473e-07
"in0" 1.200000000000000e+00
"in1" 0.000000000000000e+00
"net13" 1.197206428963190e+00
"out" 1.315721606764056e+00
"V0:p" -5.338473035613328e-06
"V1:p" -4.553798266761192e-06
"VDD:p" 1.008135786182948e-05
"vdd" 1.200000000000000e+00
"vss" 0.000000000000000e+00
"time" 3.987754630275642e-11
"GND:p" -1.400066041320977e-07
"in0" 1.200000000000000e+00
"in1" 0.000000000000000e+00
"net13" 1.194308113383318e+00
"out" 1.300191268323461e+00
"V0:p" -4.376580857785681e-06
"V1:p" -4.207661418931382e-06
"VDD:p" 8.724248880847643e-06
"vdd" 1.200000000000000e+00
"vss" 0.000000000000000e+00
"time" 4.187754630275642e-11
"GND:p" -1.476014948556300e-07
"in0" 1.200000000000000e+00
"in1" 0.000000000000000e+00
"net13" 1.191776282003627e+00
"out" 1.286683646749804e+00
"V0:p" -3.891085988861934e-06
"V1:p" -3.346775311698177e-06
"VDD:p" 7.385462795417584e-06
"vdd" 1.200000000000000e+00
"vss" 0.000000000000000e+00
"time" 4.387754630275641e-11
"GND:p" -1.031928656415299e-07
"in0" 1.200000000000000e+00
"in1" 0.000000000000000e+00
"net13" 1.189569310434969e+00
"out" 1.274954137429399e+00
"V0:p" -3.155264693989018e-06
"V1:p" -3.163212935965556e-06
"VDD:p" 6.421670495594883e-06
"vdd" 1.200000000000000e+00
"vss" 0.000000000000000e+00
"time" 4.587754630275641e-11
"GND:p" -1.151019092762763e-07
"in0" 1.200000000000000e+00
"in1" 0.000000000000000e+00
"net13" 1.187648856780672e+00
"out" 1.264781537302993e+00
"V0:p" -2.857918482651481e-06
"V1:p" -2.444840843173287e-06
"VDD:p" 5.417861235102319e-06
"vdd" 1.200000000000000e+00
"vss" 0.000000000000000e+00
"time" 4.787754630275641e-11
"GND:p" -7.462210502029085e-08
"in0" 1.200000000000000e+00
"in1" 0.000000000000000e+00
"net13" 1.185980078017815e+00
"out" 1.255967896834249e+00
"V0:p" -2.279147683050092e-06
"V1:p" -2.385464217780188e-06
"VDD:p" 4.739234005849568e-06
"vdd" 1.200000000000000e+00
"vss" 0.000000000000000e+00
"time" 4.987754630275641e-11
"GND:p" -9.006972317566125e-08
"in0" 1.200000000000000e+00
"in1" 0.000000000000000e+00
"net13" 1.184531647429186e+00
"out" 1.248337535059084e+00
"V0:p" -2.113340983967033e-06
"V1:p" -1.774815760315060e-06
"VDD:p" 3.978226467458378e-06
"vdd" 1.200000000000000e+00
"vss" 0.000000000000000e+00
"time" 5.187754630275641e-11
"GND:p" -5.274946097371909e-08
"in0" 1.200000000000000e+00
"in1" 0.000000000000000e+00
"net13" 1.183275635130066e+00
"out" 1.241735534653935e+00
"V0:p" -1.645128206416203e-06
"V1:p" -1.808571843434949e-06
"VDD:p" 3.506449510823761e-06
"vdd" 1.200000000000000e+00
"vss" 0.000000000000000e+00
"time" 5.387754630275641e-11
"GND:p" -7.099900457624062e-08
"in0" 1.200000000000000e+00
"in1" 0.000000000000000e+00
"net13" 1.182187303339715e+00
"out" 1.236025966912168e+00
"V0:p" -1.572561070139886e-06
"V1:p" -1.278251272802206e-06
"VDD:p" 2.921811347519120e-06
"vdd" 1.200000000000000e+00
"vss" 0.000000000000000e+00
"time" 5.587754630275641e-11
"GND:p" -3.615019566994723e-08
"in0" 1.200000000000000e+00
"in1" 0.000000000000000e+00
"net13" 1.181244854991337e+00
"out" 1.231090022808907e+00
"V0:p" -1.183235000298501e-06
"V1:p" -1.381179036925528e-06
"VDD:p" 2.600564232893082e-06
"vdd" 1.200000000000000e+00
"vss" 0.000000000000000e+00
"time" 5.787754630275641e-11
"GND:p" -5.657044910098377e-08
"in0" 1.200000000000000e+00
"in1" 0.000000000000000e+00
"net13" 1.180429162636934e+00
"out" 1.226824164728433e+00
"V0:p" -1.177608837693868e-06
"V1:p" -9.103611780830425e-07
"VDD:p" 2.144540464878654e-06
"vdd" 1.200000000000000e+00
"vss" 0.000000000000000e+00
"time" 5.987754630275641e-11
"GND:p" -2.362181464405984e-08
"in0" 1.200000000000000e+00
"in1" 0.000000000000000e+00
"net13" 1.179723495533693e+00
"out" 1.223138367955079e+00
"V0:p" -8.452377626015780e-07
"V1:p" -1.064443435841578e-06
"VDD:p" 1.933303013086402e-06
"vdd" 1.200000000000000e+00
"vss" 0.000000000000000e+00
"time" 6.187754630275642e-11
"GND:p" -4.570105315818358e-08
"in0" 1.200000000000000e+00
"in1" 0.000000000000000e+00
"net13" 1.179113256179677e+00
"out" 1.219954489933167e+00
"V0:p" -8.881813995641070e-07
"V1:p" -6.375920526428201e-07
"VDD:p" 1.571474505366356e-06
"vdd" 1.200000000000000e+00
"vss" 0.000000000000000e+00
"time" 6.387754630275642e-11
"GND:p" -1.419789260024747e-08
"in0" 1.200000000000000e+00
"in1" 0.000000000000000e+00
"net13" 1.178585732951012e+00
"out" 1.217204785135109e+00
"V0:p" -5.973074093586066e-07
"V1:p" -8.294640367145858e-07
"VDD:p" 1.440969338671434e-06
"vdd" 1.200000000000000e+00
"vss" 0.000000000000000e+00
"time" 6.587754630275643e-11
"GND:p" -3.753465563239896e-08
"in0" 1.200000000000000e+00
"in1" 0.000000000000000e+00
"net13" 1.178129872438472e+00
"out" 1.214830570730613e+00
"V0:p" -6.757564722246400e-07
"V1:p" -4.351019394645065e-07
"VDD:p" 1.148393067323036e-06
"vdd" 1.200000000000000e+00
"vss" 0.000000000000000e+00
"time" 6.787754630275644e-11
"GND:p" -7.124299917683520e-09
"in0" 1.200000000000000e+00
"in1" 0.000000000000000e+00
"net13" 1.177736073108257e+00
"out" 1.212781040458896e+00
"V0:p" -4.152917780562271e-07
"V1:p" -6.549185787280576e-07
"VDD:p" 1.077334656700478e-06
"vdd" 1.200000000000000e+00
"vss" 0.000000000000000e+00
"time" 6.987754630275644e-11
"GND:p" -3.140998783856791e-08
"in0" 1.200000000000000e+00
"in1" 0.000000000000000e+00
"net13" 1.177396000585424e+00
"out" 1.211012219347267e+00
"V0:p" -5.198008882501783e-07
"V1:p" -2.846058454185773e-07
"VDD:p" 8.358167215089770e-07
"vdd" 1.200000000000000e+00
"vss" 0.000000000000000e+00
"time" 7.187754630275645e-11
"GND:p" -1.823179896799445e-09
"in0" 1.200000000000000e+00
"in1" 0.000000000000000e+00
"net13" 1.177102423932205e+00
"out" 1.209486049045117e+00
"V0:p" -2.816745391017244e-07
"V1:p" -5.251326340525858e-07
"VDD:p" 8.086303530489006e-07
"vdd" 1.200000000000000e+00
"vss" 0.000000000000000e+00
"time" 7.387754630275645e-11
"GND:p" -2.682333369857633e-08
"in0" 1.200000000000000e+00
"in1" 0.000000000000000e+00
"net13" 1.176849071663250e+00
"out" 1.208169591903389e+00
"V0:p" -4.053314712662042e-07
"V1:p" -1.726658850634873e-07
"VDD:p" 6.048206900303551e-07
"vdd" 1.200000000000000e+00
"vss" 0.000000000000000e+00
"time" 7.587754630275646e-11
"GND:p" 2.143825534648649e-09
"in0" 1.200000000000000e+00
"in1" 0.000000000000000e+00
"net13" 1.176630505849967e+00
"out" 1.207034341196962e+00
"V0:p" -1.836149894484049e-07
"V1:p" -4.285797083933258e-07
"VDD:p" 6.100508723049003e-07
"vdd" 1.200000000000000e+00
"vss" 0.000000000000000e+00
"time" 7.787754630275647e-11
"GND:p" -2.339359580107867e-08
"in0" 1.200000000000000e+00
"in1" 0.000000000000000e+00
"net13" 1.176442012472846e+00
"out" 1.206055624876703e+00
"V0:p" -3.213314174869963e-07
"V1:p" -8.938652144297246e-08
"VDD:p" 4.341115347336361e-07
"vdd" 1.200000000000000e+00
"vss" 0.000000000000000e+00
"time" 7.987754630275647e-11
"GND:p" 5.107861661613088e-09
"in0" 1.200000000000000e+00
"in1" 0.000000000000000e+00
"net13" 1.176279506142647e+00
"out" 1.205212090795907e+00
"V0:p" -1.116571419387523e-07
"V1:p" -3.567551290768370e-07
"VDD:p" 4.633044093512112e-07
"vdd" 1.200000000000000e+00
"vss" 0.000000000000000e+00
"time" 8.187754630275648e-11
"GND:p" -2.083309161043981e-08
"in0" 1.200000000000000e+00
"in1" 0.000000000000000e+00
"net13" 1.176139447386500e+00
"out" 1.204485262317585e+00
"V0:p" -2.596852524851800e-07
"V1:p" -2.744966780827739e-08
"VDD:p" 3.079680119065806e-07
"vdd" 1.200000000000000e+00
"vss" 0.000000000000000e+00
"time" 8.387754630275648e-11
"GND:p" 7.318841815620618e-09
"in0" 1.200000000000000e+00
"in1" 0.000000000000000e+00
"net13" 1.176018770842092e+00
"out" 1.203859154404105e+00
"V0:p" -5.883913600393664e-08
"V1:p" -3.033543751945183e-07
"VDD:p" 3.548746693798120e-07
"vdd" 1.200000000000000e+00
"vss" 0.000000000000000e+00
"time" 8.587754630275649e-11
"GND:p" -1.892472102114389e-08
"in0" 1.200000000000000e+00
"in1" 0.000000000000000e+00
"net13" 1.175914822886168e+00
"out" 1.203319941565262e+00
"V0:p" -2.144245153886867e-07
"V1:p" 1.858181557518314e-08
"VDD:p" 2.147674208379814e-07
"vdd" 1.200000000000000e+00
"vss" 0.000000000000000e+00
"time" 8.787754630275650e-11
"GND:p" 8.965348061407129e-09
"in0" 1.200000000000000e+00
"in1" 0.000000000000000e+00
"net13" 1.175825307414834e+00
"out" 1.202855670277376e+00
"V0:p" -2.004761617371307e-08
"V1:p" -2.636842163388678e-07
"VDD:p" 2.747664844477857e-07
"vdd" 1.200000000000000e+00
"vss" 0.000000000000000e+00
