HEADER
"PSFversion" "1.00"
"simulator" "spectre"
"version" "19.1.0.237.isr3"
"date" "2:47:07 PM, Tue Aug 30, 2022"
"design" "// Generated for: spectre"
"analysis type" "tran"
"analysis name" "sim"
"analysis description" "Transient Analysis `sim': time = (0 s -> 100 ps)"
"xVecSorted" "ascending"
"tolerance.relative" 0.00100000
"start" 0.00000
"outputstart" 0.00000
"stop" 1.00000e-10
"step" 1.00000e-13
"istep" 0.00100000
"maxstep" 2.00000e-12
"ic" "all"
"useprevic" "no"
"skipdc" "no"
"reltol" 0.00100000
"abstol(V)" 1.00000e-06
"abstol(I)" 1.00000e-12
"temp" 27.0000
"tnom" 27.0000
"tempeffects" "all"
"errpreset" "moderate"
"method" "traponly"
"lteratio" 3.50000
"relref" "sigglobal"
"cmin" 0.00000
"gmin" 1.00000e-12
TYPE
"sweep" FLOAT DOUBLE PROP(
"key" "sweep"
)
"LogicV" FLOAT DOUBLE PROP(
"key" "node"
)
"Tau" FLOAT DOUBLE PROP(
"units" "N*m"
"key" "node"
"tolerance" 1.00000e-06
)
"Alpha" FLOAT DOUBLE PROP(
"units" "rads/s^2"
"key" "node"
"tolerance" 1.00000e-06
)
"Omega" FLOAT DOUBLE PROP(
"units" "rads/s"
"key" "node"
"tolerance" 1.00000e-06
)
"Theta" FLOAT DOUBLE PROP(
"units" "rads"
"key" "node"
"tolerance" 1.00000e-06
)
"F" FLOAT DOUBLE PROP(
"units" "N"
"key" "node"
"tolerance" 1.00000e-06
)
"Imp" FLOAT DOUBLE PROP(
"units" "m/s^3"
"key" "node"
"tolerance" 1.00000e-06
)
"Acc" FLOAT DOUBLE PROP(
"units" "m/s^2"
"key" "node"
"tolerance" 1.00000e-06
)
"Vel" FLOAT DOUBLE PROP(
"units" "m/s"
"key" "node"
"tolerance" 1.00000e-06
)
"Pos" FLOAT DOUBLE PROP(
"units" "m"
"key" "node"
"tolerance" 1.00000e-06
)
"Phi" FLOAT DOUBLE PROP(
"units" "Wb"
"key" "node"
"tolerance" 1.00000e-09
)
"V" FLOAT DOUBLE PROP(
"units" "V"
"key" "node"
"tolerance" 1.00000e-06
)
"I" FLOAT DOUBLE PROP(
"units" "A"
"key" "branch"
"tolerance" 1.00000e-12
)
"MMF" FLOAT DOUBLE PROP(
"units" "A*turn"
"key" "node"
"tolerance" 1.00000e-12
)
"Wb" FLOAT DOUBLE PROP(
"units" "Wb"
"key" "node"
"tolerance" 1.00000e-09
)
"Temp" FLOAT DOUBLE PROP(
"units" "C"
"key" "node"
"tolerance" 0.000100000
)
"Pwr" FLOAT DOUBLE PROP(
"units" "W"
"key" "node"
"tolerance" 1.00000e-09
)
"U" FLOAT DOUBLE PROP(
"units" ""
"key" "node"
"tolerance" 1.00000e-06
)
"V/Sec" FLOAT DOUBLE PROP(
"units" "V/s"
"key" "node"
"tolerance" 0.000100000
)
"I/Sec" FLOAT DOUBLE PROP(
"units" "A/s"
"key" "node"
"tolerance" 1.00000e-06
)
"1/Sec" FLOAT DOUBLE PROP(
"units" "1/s"
"key" "node"
"tolerance" 0.000100000
)
"HOD" FLOAT DOUBLE PROP(
"units" ""
"key" "node"
"tolerance" 0.0100000
)
"Q" FLOAT DOUBLE PROP(
"units" "coul"
"key" "node"
"tolerance" 1.00000e-14
)
SWEEP
"time" "sweep" PROP(
"sweep_direction" 0
"units" "s"
"plot" 0
"grid" 1
)
TRACE
"GND:p" "I"
"in" "V"
"out" "V"
"V0:p" "I"
"VDD:p" "I"
"vdd" "V"
"vss" "V"
VALUE
"time" 0.000000000000000e+00
"GND:p" 1.013133486429285e-09
"in" 1.200000000000000e+00
"out" 1.965155541026442e-06
"V0:p" -1.062004688439810e-11
"VDD:p" -1.002513471866062e-09
"vdd" 1.200000000000000e+00
"vss" 0.000000000000000e+00
"time" 1.000000000000000e-13
"GND:p" 1.911259182995928e-05
"in" 1.200000000000000e+00
"out" 1.026976274503732e-02
"V0:p" 5.372677302001435e-05
"VDD:p" -7.283936484997059e-05
"vdd" 1.200000000000000e+00
"vss" 0.000000000000000e+00
"time" 1.895766697098599e-13
"GND:p" 3.930864743861242e-05
"in" 1.200000000000000e+00
"out" 2.736197787628986e-02
"V0:p" 9.964506529213375e-05
"VDD:p" -1.389537127307462e-04
"vdd" 1.200000000000000e+00
"vss" 0.000000000000000e+00
"time" 3.687300091295796e-13
"GND:p" 8.334975264406668e-05
"in" 1.200000000000000e+00
"out" 7.698953545239308e-02
"V0:p" 1.877359014412909e-04
"VDD:p" -2.710856540853571e-04
"vdd" 1.200000000000000e+00
"vss" 0.000000000000000e+00
"time" 5.634017302317483e-13
"GND:p" 1.360863750169636e-04
"in" 1.200000000000000e+00
"out" 1.657182004313645e-01
"V0:p" 2.766536611506747e-04
"VDD:p" -4.127400361676393e-04
"vdd" 1.200000000000000e+00
"vss" 0.000000000000000e+00
"time" 7.673754384986433e-13
"GND:p" 1.819476331116838e-04
"in" 1.200000000000000e+00
"out" 2.998414939483882e-01
"V0:p" 3.669318084497306e-04
"VDD:p" -5.488794415614148e-04
"vdd" 1.200000000000000e+00
"vss" 0.000000000000000e+00
"time" 1.000000000000000e-12
"GND:p" 2.236262200482247e-04
"in" 1.200000000000000e+00
"out" 5.058308197924972e-01
"V0:p" 4.727485048837274e-04
"VDD:p" -6.963747249319520e-04
"vdd" 1.200000000000000e+00
"vss" 0.000000000000000e+00
"time" 1.145381468577089e-12
"GND:p" 2.310390593873302e-04
"in" 1.200000000000000e+00
"out" 6.481590694623078e-01
"V0:p" 4.642158659709800e-04
"VDD:p" -6.952549253583099e-04
"vdd" 1.200000000000000e+00
"vss" 0.000000000000000e+00
"time" 1.328176100950084e-12
"GND:p" 2.268528513060057e-04
"in" 1.200000000000000e+00
"out" 8.229682526748194e-01
"V0:p" 4.488925983612572e-04
"VDD:p" -6.757454496672639e-04
"vdd" 1.200000000000000e+00
"vss" 0.000000000000000e+00
"time" 1.500418241121747e-12
"GND:p" 2.315249378002977e-04
"in" 1.200000000000000e+00
"out" 9.822658110535946e-01
"V0:p" 4.437750420025356e-04
"VDD:p" -6.752999798028304e-04
"vdd" 1.200000000000000e+00
"vss" 0.000000000000000e+00
"time" 1.844902521465073e-12
"GND:p" 2.262506057797233e-04
"in" 1.200000000000000e+00
"out" 1.281138449283655e+00
"V0:p" 4.301368645925003e-04
"VDD:p" -6.563874703722268e-04
"vdd" 1.200000000000000e+00
"vss" 0.000000000000000e+00
"time" 2.304617559098453e-12
"GND:p" 2.287209138253522e-04
"in" 1.200000000000000e+00
"out" 1.623574076861293e+00
"V0:p" 5.514788262262098e-04
"VDD:p" -7.801997400515584e-04
"vdd" 1.200000000000000e+00
"vss" 0.000000000000000e+00
"time" 2.754656069983018e-12
"GND:p" 2.344605733414614e-04
"in" 1.200000000000000e+00
"out" 1.912387364348867e+00
"V0:p" 4.339697651958502e-04
"VDD:p" -6.684303385373145e-04
"vdd" 1.200000000000000e+00
"vss" 0.000000000000000e+00
"time" 3.282324562082542e-12
"GND:p" 2.469072544398358e-04
"in" 1.200000000000000e+00
"out" 2.173838170914149e+00
"V0:p" 3.449278150364588e-04
"VDD:p" -5.918350694762912e-04
"vdd" 1.200000000000000e+00
"vss" 0.000000000000000e+00
"time" 3.430240351009280e-12
"GND:p" 2.339443558411685e-04
"in" 1.200000000000000e+00
"out" 2.210861051294064e+00
"V0:p" 5.042311708439177e-05
"VDD:p" -2.843674729255611e-04
"vdd" 1.200000000000000e+00
"vss" 0.000000000000000e+00
"time" 3.726071928862756e-12
"GND:p" 2.284883336140764e-04
"in" 1.200000000000000e+00
"out" 2.220753256141857e+00
"V0:p" 2.423051829624239e-06
"VDD:p" -2.309113854437004e-04
"vdd" 1.200000000000000e+00
"vss" 0.000000000000000e+00
"time" 3.812417783856283e-12
"GND:p" 2.286023411800994e-04
"in" 1.200000000000000e+00
"out" 2.218711636117048e+00
"V0:p" -3.979484026659612e-05
"VDD:p" -1.888075009135050e-04
"vdd" 1.200000000000000e+00
"vss" 0.000000000000000e+00
"time" 3.985109493843338e-12
"GND:p" 2.305191928871817e-04
"in" 1.200000000000000e+00
"out" 2.218281064304456e+00
"V0:p" 3.585371108739352e-05
"VDD:p" -2.663729039745718e-04
"vdd" 1.200000000000000e+00
"vss" 0.000000000000000e+00
"time" 4.219107129981148e-12
"GND:p" 2.288934512429403e-04
"in" 1.200000000000000e+00
"out" 2.218396535781858e+00
"V0:p" -3.507427596024430e-05
"VDD:p" -1.938191752826993e-04
"vdd" 1.200000000000000e+00
"vss" 0.000000000000000e+00
"time" 4.547434408899536e-12
"GND:p" 2.304369447740158e-04
"in" 1.200000000000000e+00
"out" 2.218305250035471e+00
"V0:p" 3.463468094856573e-05
"VDD:p" -2.650716257225788e-04
"vdd" 1.200000000000000e+00
"vss" 0.000000000000000e+00
"time" 5.204088966736314e-12
"GND:p" 2.289211264211434e-04
"in" 1.200000000000000e+00
"out" 2.218333369399088e+00
"V0:p" -3.456703746937428e-05
"VDD:p" -1.943540889517726e-04
"vdd" 1.200000000000000e+00
"vss" 0.000000000000000e+00
"time" 5.999999999999999e-12
"GND:p" 2.304269938871625e-04
"in" 1.200000000000000e+00
"out" 2.218300060904848e+00
"V0:p" 3.450087846417849e-05
"VDD:p" -2.649278723513376e-04
"vdd" 1.200000000000000e+00
"vss" 0.000000000000000e+00
"time" 7.458193450596144e-12
"GND:p" 2.269245709714140e-04
"in" 1.200000000000000e+00
"out" 2.201536547564701e+00
"V0:p" -9.082951274202112e-06
"VDD:p" -2.178416196972117e-04
"vdd" 1.200000000000000e+00
"vss" 0.000000000000000e+00
"time" 8.914896326491618e-12
"GND:p" 2.216359498437538e-04
"in" 1.200000000000000e+00
"out" 2.168095349087523e+00
"V0:p" -2.717166278402779e-05
"VDD:p" -1.944642870597259e-04
"vdd" 1.200000000000000e+00
"vss" 0.000000000000000e+00
"time" 9.957448163245809e-12
"GND:p" 2.111540922089585e-04
"in" 1.200000000000000e+00
"out" 2.101706036255071e+00
"V0:p" -7.326356201318925e-05
"VDD:p" -1.378905301957692e-04
"vdd" 1.200000000000000e+00
"vss" 0.000000000000000e+00
"time" 1.100000000000000e-11
"GND:p" 1.910206214183487e-04
"in" 1.200000000000000e+00
"out" 1.944674714155740e+00
"V0:p" -1.633903985871751e-04
"VDD:p" -2.763022283117358e-05
"vdd" 1.200000000000000e+00
"vss" 0.000000000000000e+00
"time" 1.190603072515596e-11
"GND:p" 1.827216064833971e-04
"in" 1.200000000000000e+00
"out" 1.782397442996666e+00
"V0:p" -1.394142753186594e-04
"VDD:p" -4.330733116473771e-05
"vdd" 1.200000000000000e+00
"vss" 0.000000000000000e+00
"time" 1.274439879709084e-11
"GND:p" 1.765654532696194e-04
"in" 1.200000000000000e+00
"out" 1.636954597800117e+00
"V0:p" -1.250269491971832e-04
"VDD:p" -5.153850407243606e-05
"vdd" 1.200000000000000e+00
"vss" 0.000000000000000e+00
"time" 1.368538224395312e-11
"GND:p" 1.716417115867625e-04
"in" 1.200000000000000e+00
"out" 1.482502389018923e+00
"V0:p" -1.109743051175810e-04
"VDD:p" -6.066740646918194e-05
"vdd" 1.200000000000000e+00
"vss" 0.000000000000000e+00
"time" 1.556734913767768e-11
"GND:p" 1.599411456439728e-04
"in" 1.200000000000000e+00
"out" 1.159784753606945e+00
"V0:p" -8.896363145854311e-05
"VDD:p" -7.097751418542939e-05
"vdd" 1.200000000000000e+00
"vss" 0.000000000000000e+00
"time" 1.692230390256930e-11
"GND:p" 1.524497726461949e-04
"in" 1.200000000000000e+00
"out" 9.138841237703019e-01
"V0:p" -8.832168980843746e-05
"VDD:p" -6.412808283775789e-05
"vdd" 1.200000000000000e+00
"vss" 0.000000000000000e+00
"time" 1.892230390256930e-11
"GND:p" 1.380975535947973e-04
"in" 1.200000000000000e+00
"out" 5.538726527098740e-01
"V0:p" -8.364599175388277e-05
"VDD:p" -5.445156184091400e-05
"vdd" 1.200000000000000e+00
"vss" 0.000000000000000e+00
"time" 2.091497684417078e-11
"GND:p" 8.950204751455700e-05
"in" 1.200000000000000e+00
"out" 2.594739049077178e-01
"V0:p" -5.669124970336896e-05
"VDD:p" -3.281079781118859e-05
"vdd" 1.200000000000000e+00
"vss" 0.000000000000000e+00
"time" 2.246629776624721e-11
"GND:p" 4.697116900197475e-05
"in" 1.200000000000000e+00
"out" 1.227832081687587e-01
"V0:p" -3.086597613407714e-05
"VDD:p" -1.610519286789680e-05
"vdd" 1.200000000000000e+00
"vss" 0.000000000000000e+00
"time" 2.396736210438388e-11
"GND:p" 2.372246487744826e-05
"in" 1.200000000000000e+00
"out" 5.512915203676827e-02
"V0:p" -1.546524806416157e-05
"VDD:p" -8.257216813287788e-06
"vdd" 1.200000000000000e+00
"vss" 0.000000000000000e+00
"time" 2.596736210438388e-11
"GND:p" 6.386711006215537e-06
"in" 1.200000000000000e+00
"out" 1.687294719007072e-02
"V0:p" -4.447223459968637e-06
"VDD:p" -1.939487546246031e-06
"vdd" 1.200000000000000e+00
"vss" 0.000000000000000e+00
"time" 2.755845605926444e-11
"GND:p" 3.767060069140178e-06
"in" 1.200000000000000e+00
"out" 6.619493650862864e-03
"V0:p" -2.289923391419138e-06
"VDD:p" -1.477136677721908e-06
"vdd" 1.200000000000000e+00
"vss" 0.000000000000000e+00
"time" 2.947182042447923e-11
"GND:p" 9.005054954037766e-08
"in" 1.200000000000000e+00
"out" 1.934310794672031e-03
"V0:p" -2.611644031803171e-07
"VDD:p" 1.711138536408864e-07
"vdd" 1.200000000000000e+00
"vss" 0.000000000000000e+00
"time" 3.147182042447923e-11
"GND:p" 1.008711264624204e-06
"in" 1.200000000000000e+00
"out" 5.419089454936719e-04
"V0:p" -4.666596559639440e-07
"VDD:p" -5.420516086612351e-07
"vdd" 1.200000000000000e+00
"vss" 0.000000000000000e+00
"time" 3.347182042447923e-11
"GND:p" -7.004875620262986e-07
"in" 1.200000000000000e+00
"out" 1.531947218028967e-04
"V0:p" 2.633619993418868e-07
"VDD:p" 4.371255626853608e-07
"vdd" 1.200000000000000e+00
"vss" 0.000000000000000e+00
"time" 3.547182042447923e-11
"GND:p" 7.878667345609047e-07
"in" 1.200000000000000e+00
"out" 4.485607207588348e-05
"V0:p" -3.200960359701803e-07
"VDD:p" -4.677706985915917e-07
"vdd" 1.200000000000000e+00
"vss" 0.000000000000000e+00
"time" 3.747182042447923e-11
"GND:p" -7.616659213462359e-07
"in" 1.200000000000000e+00
"out" 1.417249311629041e-05
"V0:p" 3.040080580951889e-07
"VDD:p" 4.576578632520232e-07
"vdd" 1.200000000000000e+00
"vss" 0.000000000000000e+00
"time" 3.947182042447923e-11
"GND:p" 7.705699638099662e-07
"in" 1.200000000000000e+00
"out" 5.442963978979085e-06
"V0:p" -3.086006788940179e-07
"VDD:p" -4.619692849168695e-07
"vdd" 1.200000000000000e+00
"vss" 0.000000000000000e+00
"time" 4.147182042447923e-11
"GND:p" -7.665844491889047e-07
"in" 1.200000000000000e+00
"out" 2.956221048366982e-06
"V0:p" 3.072771822333966e-07
"VDD:p" 4.593072669567825e-07
"vdd" 1.200000000000000e+00
"vss" 0.000000000000000e+00
"time" 4.347182042447922e-11
"GND:p" 7.691690228620896e-07
"in" 1.200000000000000e+00
"out" 2.247600003328611e-06
"V0:p" -3.076695148361907e-07
"VDD:p" -4.614995080270645e-07
"vdd" 1.200000000000000e+00
"vss" 0.000000000000000e+00
"time" 4.547182042447922e-11
"GND:p" -7.669836465378666e-07
"in" 1.200000000000000e+00
"out" 2.045653279175218e-06
"V0:p" 3.075425186295105e-07
"VDD:p" 4.594411279097117e-07
"vdd" 1.200000000000000e+00
"vss" 0.000000000000000e+00
"time" 4.747182042447922e-11
"GND:p" 7.690552585406350e-07
"in" 1.200000000000000e+00
"out" 1.988099906718607e-06
"V0:p" -3.075938984272514e-07
"VDD:p" -4.614613601150099e-07
"vdd" 1.200000000000000e+00
"vss" 0.000000000000000e+00
"time" 4.947182042447922e-11
"GND:p" -7.670160684634954e-07
"in" 1.200000000000000e+00
"out" 1.971697487400702e-06
"V0:p" 3.075640687157589e-07
"VDD:p" 4.594519997496619e-07
"vdd" 1.200000000000000e+00
"vss" 0.000000000000000e+00
"time" 5.147182042447922e-11
"GND:p" 7.690460184633885e-07
"in" 1.200000000000000e+00
"out" 1.967022870989345e-06
"V0:p" -3.075877567664059e-07
"VDD:p" -4.614582616990968e-07
"vdd" 1.200000000000000e+00
"vss" 0.000000000000000e+00
"time" 5.347182042447922e-11
"GND:p" -7.670187018437579e-07
"in" 1.200000000000000e+00
"out" 1.965690625311092e-06
"V0:p" 3.075658190616191e-07
"VDD:p" 4.594528827838739e-07
"vdd" 1.200000000000000e+00
"vss" 0.000000000000000e+00
"time" 5.547182042447922e-11
"GND:p" 7.690452679614465e-07
"in" 1.200000000000000e+00
"out" 1.965310941101437e-06
"V0:p" -3.075872579252663e-07
"VDD:p" -4.614580100377528e-07
"vdd" 1.200000000000000e+00
"vss" 0.000000000000000e+00
"time" 5.747182042447922e-11
"GND:p" -7.670189157335430e-07
"in" 1.200000000000000e+00
"out" 1.965202732741789e-06
"V0:p" 3.075659612290562e-07
"VDD:p" 4.594529545058149e-07
"vdd" 1.200000000000000e+00
"vss" 0.000000000000000e+00
"time" 5.947182042447923e-11
"GND:p" 7.690452070038421e-07
"in" 1.200000000000000e+00
"out" 1.965171893750980e-06
"V0:p" -3.075872174081406e-07
"VDD:p" -4.614579895970304e-07
"vdd" 1.200000000000000e+00
"vss" 0.000000000000000e+00
"time" 6.147182042447923e-11
"GND:p" -7.670189331063801e-07
"in" 1.200000000000000e+00
"out" 1.965163104647939e-06
"V0:p" 3.075659727764417e-07
"VDD:p" 4.594529603314838e-07
"vdd" 1.200000000000000e+00
"vss" 0.000000000000000e+00
"time" 6.347182042447924e-11
"GND:p" 7.690452020525000e-07
"in" 1.200000000000000e+00
"out" 1.965160599627698e-06
"V0:p" -3.075872141173761e-07
"VDD:p" -4.614579879368586e-07
"vdd" 1.200000000000000e+00
"vss" 0.000000000000000e+00
"time" 6.547182042447925e-11
"GND:p" -7.670189345172812e-07
"in" 1.200000000000000e+00
"out" 1.965159886171700e-06
"V0:p" 3.075659737147018e-07
"VDD:p" 4.594529608046394e-07
"vdd" 1.200000000000000e+00
"vss" 0.000000000000000e+00
"time" 6.747182042447925e-11
"GND:p" 7.690452016504270e-07
"in" 1.200000000000000e+00
"out" 1.965159682611505e-06
"V0:p" -3.075872138504146e-07
"VDD:p" -4.614579878020999e-07
"vdd" 1.200000000000000e+00
"vss" 0.000000000000000e+00
"time" 6.947182042447926e-11
"GND:p" -7.670189346320508e-07
"in" 1.200000000000000e+00
"out" 1.965159624314926e-06
"V0:p" 3.075659737908378e-07
"VDD:p" 4.594529608433272e-07
"vdd" 1.200000000000000e+00
"vss" 0.000000000000000e+00
"time" 7.147182042447926e-11
"GND:p" 7.690452016177103e-07
"in" 1.200000000000000e+00
"out" 1.965159607931322e-06
"V0:p" -3.075872138287920e-07
"VDD:p" -4.614579877910059e-07
"vdd" 1.200000000000000e+00
"vss" 0.000000000000000e+00
"time" 7.347182042447927e-11
"GND:p" -7.670189346412919e-07
"in" 1.200000000000000e+00
"out" 1.965159603355676e-06
"V0:p" 3.075659737972142e-07
"VDD:p" 4.594529608463820e-07
"vdd" 1.200000000000000e+00
"vss" 0.000000000000000e+00
"time" 7.547182042447928e-11
"GND:p" 7.690452016151371e-07
"in" 1.200000000000000e+00
"out" 1.965159601910845e-06
"V0:p" -3.075872138270264e-07
"VDD:p" -4.614579877903879e-07
"vdd" 1.200000000000000e+00
"vss" 0.000000000000000e+00
"time" 7.747182042447928e-11
"GND:p" -7.670189346419924e-07
"in" 1.200000000000000e+00
"out" 1.965159601799901e-06
"V0:p" 3.075659737978355e-07
"VDD:p" 4.594529608463795e-07
"vdd" 1.200000000000000e+00
"vss" 0.000000000000000e+00
"time" 7.947182042447929e-11
"GND:p" 7.690452016148719e-07
"in" 1.200000000000000e+00
"out" 1.965159601424788e-06
"V0:p" -3.075872138271140e-07
"VDD:p" -4.614579877901440e-07
"vdd" 1.200000000000000e+00
"vss" 0.000000000000000e+00
"time" 8.147182042447929e-11
"GND:p" -7.670189346421923e-07
"in" 1.200000000000000e+00
"out" 1.965159601340521e-06
"V0:p" 3.075659737980913e-07
"VDD:p" 4.594529608465671e-07
"vdd" 1.200000000000000e+00
"vss" 0.000000000000000e+00
"time" 8.347182042447930e-11
"GND:p" 7.690452016149448e-07
"in" 1.200000000000000e+00
"out" 1.965159601371164e-06
"V0:p" -3.075872138273453e-07
"VDD:p" -4.614579877903104e-07
"vdd" 1.200000000000000e+00
"vss" 0.000000000000000e+00
"time" 8.547182042447931e-11
"GND:p" -7.670189346422711e-07
"in" 1.200000000000000e+00
"out" 1.965159601380558e-06
"V0:p" 3.075659737981633e-07
"VDD:p" 4.594529608464930e-07
"vdd" 1.200000000000000e+00
"vss" 0.000000000000000e+00
"time" 8.747182042447931e-11
"GND:p" 7.690452016151049e-07
"in" 1.200000000000000e+00
"out" 1.965159601574000e-06
"V0:p" -3.075872138271454e-07
"VDD:p" -4.614579877902096e-07
"vdd" 1.200000000000000e+00
"vss" 0.000000000000000e+00
"time" 8.947182042447932e-11
"GND:p" -7.670189346424405e-07
"in" 1.200000000000000e+00
"out" 1.965159601203707e-06
"V0:p" 3.075659737978427e-07
"VDD:p" 4.594529608467653e-07
"vdd" 1.200000000000000e+00
"vss" 0.000000000000000e+00
"time" 9.147182042447932e-11
"GND:p" 7.690452016152548e-07
"in" 1.200000000000000e+00
"out" 1.965159601626932e-06
"V0:p" -3.075872138268675e-07
"VDD:p" -4.614579877906641e-07
"vdd" 1.200000000000000e+00
"vss" 0.000000000000000e+00
"time" 9.347182042447933e-11
"GND:p" -7.670189346422872e-07
"in" 1.200000000000000e+00
"out" 1.965159601626849e-06
"V0:p" 3.075659737974887e-07
"VDD:p" 4.594529608469665e-07
"vdd" 1.200000000000000e+00
"vss" 0.000000000000000e+00
"time" 9.547182042447934e-11
"GND:p" 7.690452016152218e-07
"in" 1.200000000000000e+00
"out" 1.965159601639149e-06
"V0:p" -3.075872138265910e-07
"VDD:p" -4.614579877906908e-07
"vdd" 1.200000000000000e+00
"vss" 0.000000000000000e+00
"time" 9.747182042447934e-11
"GND:p" -7.670189346422736e-07
"in" 1.200000000000000e+00
"out" 1.965159601598962e-06
"V0:p" 3.075659737974417e-07
"VDD:p" 4.594529608469457e-07
"vdd" 1.200000000000000e+00
"vss" 0.000000000000000e+00
"time" 9.873591021223967e-11
"GND:p" 7.690452016151718e-07
"in" 1.200000000000000e+00
"out" 1.965159601557177e-06
"V0:p" -3.075872138264849e-07
"VDD:p" -4.614579877906929e-07
"vdd" 1.200000000000000e+00
"vss" 0.000000000000000e+00
"time" 1.000000000000000e-10
"GND:p" -7.670189346422838e-07
"in" 1.200000000000000e+00
"out" 1.965159601513386e-06
"V0:p" 3.075659737973762e-07
"VDD:p" 4.594529608469673e-07
"vdd" 1.200000000000000e+00
"vss" 0.000000000000000e+00
END
