HEADER
"PSFversion" "1.00"
"simulator" "spectre"
"version" "19.1.0.237.isr3"
"date" "1:51:03 PM, Sat Sep 10, 2022"
"design" "// Generated for: spectre"
"analysis type" "tran"
"analysis name" "sim"
"analysis description" "Transient Analysis `sim': time = (0 s -> 100 ps)"
"xVecSorted" "ascending"
"tolerance.relative" 0.00100000
"start" 0.00000
"outputstart" 0.00000
"stop" 1.00000e-10
"step" 1.00000e-13
"istep" 0.00100000
"maxstep" 2.00000e-12
"ic" "all"
"useprevic" "no"
"skipdc" "no"
"reltol" 0.00100000
"abstol(V)" 1.00000e-06
"abstol(I)" 1.00000e-12
"temp" 27.0000
"tnom" 27.0000
"tempeffects" "all"
"errpreset" "moderate"
"method" "traponly"
"lteratio" 3.50000
"relref" "sigglobal"
"cmin" 0.00000
"gmin" 1.00000e-12
TYPE
"sweep" FLOAT DOUBLE PROP(
"key" "sweep"
)
"LogicV" FLOAT DOUBLE PROP(
"key" "node"
)
"Tau" FLOAT DOUBLE PROP(
"units" "N*m"
"key" "node"
"tolerance" 1.00000e-06
)
"Alpha" FLOAT DOUBLE PROP(
"units" "rads/s^2"
"key" "node"
"tolerance" 1.00000e-06
)
"Omega" FLOAT DOUBLE PROP(
"units" "rads/s"
"key" "node"
"tolerance" 1.00000e-06
)
"Theta" FLOAT DOUBLE PROP(
"units" "rads"
"key" "node"
"tolerance" 1.00000e-06
)
"F" FLOAT DOUBLE PROP(
"units" "N"
"key" "node"
"tolerance" 1.00000e-06
)
"Imp" FLOAT DOUBLE PROP(
"units" "m/s^3"
"key" "node"
"tolerance" 1.00000e-06
)
"Acc" FLOAT DOUBLE PROP(
"units" "m/s^2"
"key" "node"
"tolerance" 1.00000e-06
)
"Vel" FLOAT DOUBLE PROP(
"units" "m/s"
"key" "node"
"tolerance" 1.00000e-06
)
"Pos" FLOAT DOUBLE PROP(
"units" "m"
"key" "node"
"tolerance" 1.00000e-06
)
"Phi" FLOAT DOUBLE PROP(
"units" "Wb"
"key" "node"
"tolerance" 1.00000e-09
)
"V" FLOAT DOUBLE PROP(
"units" "V"
"key" "node"
"tolerance" 1.00000e-06
)
"I" FLOAT DOUBLE PROP(
"units" "A"
"key" "branch"
"tolerance" 1.00000e-12
)
"MMF" FLOAT DOUBLE PROP(
"units" "A*turn"
"key" "node"
"tolerance" 1.00000e-12
)
"Wb" FLOAT DOUBLE PROP(
"units" "Wb"
"key" "node"
"tolerance" 1.00000e-09
)
"Temp" FLOAT DOUBLE PROP(
"units" "C"
"key" "node"
"tolerance" 0.000100000
)
"Pwr" FLOAT DOUBLE PROP(
"units" "W"
"key" "node"
"tolerance" 1.00000e-09
)
"U" FLOAT DOUBLE PROP(
"units" ""
"key" "node"
"tolerance" 1.00000e-06
)
"V/Sec" FLOAT DOUBLE PROP(
"units" "V/s"
"key" "node"
"tolerance" 0.000100000
)
"I/Sec" FLOAT DOUBLE PROP(
"units" "A/s"
"key" "node"
"tolerance" 1.00000e-06
)
"1/Sec" FLOAT DOUBLE PROP(
"units" "1/s"
"key" "node"
"tolerance" 0.000100000
)
"HOD" FLOAT DOUBLE PROP(
"units" ""
"key" "node"
"tolerance" 0.0100000
)
"Q" FLOAT DOUBLE PROP(
"units" "coul"
"key" "node"
"tolerance" 1.00000e-14
)
SWEEP
"time" "sweep" PROP(
"sweep_direction" 0
"units" "s"
"plot" 0
"grid" 1
)
TRACE
"in0" "V"
"in1" "V"
"net13" "V"
"out" "V"
"V0:p" "I"
"V1:p" "I"
"VDD:p" "I"
"VSS:p" "I"
"vdd" "V"
"vss" "V"
VALUE
"time" 0.000000000000000e+00
"in0" 0.000000000000000e+00
"in1" 0.000000000000000e+00
"net13" 2.470546966412399e-02
"out" 1.199999584058010e+00
"V0:p" 2.859123199320163e-11
"V1:p" 3.016613384934715e-11
"VDD:p" -1.148585513731463e-10
"VSS:p" 5.610122483096415e-11
"vdd" 1.200000000000000e+00
"vss" 0.000000000000000e+00
"time" 1.000000000000000e-13
"in0" 0.000000000000000e+00
"in1" 0.000000000000000e+00
"net13" 2.695732309149563e-02
"out" 1.199173522173290e+00
"V0:p" 1.093094683100711e-06
"V1:p" 1.592007982711888e-06
"VDD:p" -6.321191160212633e-06
"VSS:p" 3.636088494402421e-06
"vdd" 1.200000000000000e+00
"vss" 0.000000000000000e+00
"time" 2.912773305043290e-13
"in0" 0.000000000000000e+00
"in1" 0.000000000000000e+00
"net13" 3.950709460873164e-02
"out" 1.194623884315758e+00
"V0:p" 3.336478066410592e-06
"V1:p" 4.904881957545272e-06
"VDD:p" -1.879739670048256e-05
"VSS:p" 1.055603667652648e-05
"vdd" 1.200000000000000e+00
"vss" 0.000000000000000e+00
"time" 6.084903612607047e-13
"in0" 0.000000000000000e+00
"in1" 0.000000000000000e+00
"net13" 7.162544353920655e-02
"out" 1.183029641816800e+00
"V0:p" 7.215881880656644e-06
"V1:p" 1.105090380498629e-05
"VDD:p" -3.994905012856092e-05
"VSS:p" 2.168226444292069e-05
"vdd" 1.200000000000000e+00
"vss" 0.000000000000000e+00
"time" 8.042451806303523e-13
"in0" 0.000000000000000e+00
"in1" 0.000000000000000e+00
"net13" 1.026888086192139e-01
"out" 1.171848632151287e+00
"V0:p" 9.722487212943122e-06
"V1:p" 1.559798549998862e-05
"VDD:p" -5.344543625363609e-05
"VSS:p" 2.812496354070023e-05
"vdd" 1.200000000000000e+00
"vss" 0.000000000000000e+00
"time" 1.000000000000000e-12
"in0" 0.000000000000000e+00
"in1" 0.000000000000000e+00
"net13" 1.422394406765304e-01
"out" 1.157623414416644e+00
"V0:p" 1.228336613774330e-05
"V1:p" 2.068167521242348e-05
"VDD:p" -6.727669351512227e-05
"VSS:p" 3.431165216495873e-05
"vdd" 1.200000000000000e+00
"vss" 0.000000000000000e+00
"time" 1.391509638739295e-12
"in0" 0.000000000000000e+00
"in1" 0.000000000000000e+00
"net13" 2.293157899884339e-01
"out" 1.127062027702954e+00
"V0:p" 1.349001654440039e-05
"V1:p" 2.397652189490516e-05
"VDD:p" -7.095370199618027e-05
"VSS:p" 3.348716355687640e-05
"vdd" 1.200000000000000e+00
"vss" 0.000000000000000e+00
"time" 1.701150677651395e-12
"in0" 0.000000000000000e+00
"in1" 0.000000000000000e+00
"net13" 2.971365647207990e-01
"out" 1.102924759606232e+00
"V0:p" 1.333722888643925e-05
"V1:p" 2.971276576724028e-05
"VDD:p" -7.358344282606585e-05
"VSS:p" 3.053344817239087e-05
"vdd" 1.200000000000000e+00
"vss" 0.000000000000000e+00
"time" 2.104172180533593e-12
"in0" 0.000000000000000e+00
"in1" 0.000000000000000e+00
"net13" 3.834368714083701e-01
"out" 1.072029802406741e+00
"V0:p" 1.405768219722724e-05
"V1:p" 3.285249648447051e-05
"VDD:p" -7.725802869707110e-05
"VSS:p" 3.034785001537014e-05
"vdd" 1.200000000000000e+00
"vss" 0.000000000000000e+00
"time" 2.910215186297991e-12
"in0" 0.000000000000000e+00
"in1" 0.000000000000000e+00
"net13" 5.456063926353911e-01
"out" 1.011324588616400e+00
"V0:p" 1.189244385214754e-05
"V1:p" 4.737736752602966e-05
"VDD:p" -8.385327132881889e-05
"VSS:p" 2.458345995064512e-05
"vdd" 1.200000000000000e+00
"vss" 0.000000000000000e+00
"time" 3.955732414888090e-12
"in0" 0.000000000000000e+00
"in1" 0.000000000000000e+00
"net13" 7.254304621491378e-01
"out" 9.324732584723807e-01
"V0:p" 6.985650621062204e-06
"V1:p" 6.542886086541895e-05
"VDD:p" -9.249031204505294e-05
"VSS:p" 2.007580055856836e-05
"vdd" 1.200000000000000e+00
"vss" 0.000000000000000e+00
"time" 5.042483943406211e-12
"in0" 0.000000000000000e+00
"in1" 0.000000000000000e+00
"net13" 8.806318435412831e-01
"out" 8.476383956528279e-01
"V0:p" 6.069587835165840e-06
"V1:p" 7.730600949710907e-05
"VDD:p" -9.877533706003117e-05
"VSS:p" 1.539973972775859e-05
"vdd" 1.200000000000000e+00
"vss" 0.000000000000000e+00
"time" 5.999999999999999e-12
"in0" 0.000000000000000e+00
"in1" 0.000000000000000e+00
"net13" 1.033400318672728e+00
"out" 7.736266896333809e-01
"V0:p" 2.424067241962433e-05
"V1:p" 5.145005002479952e-05
"VDD:p" -9.848502522721912e-05
"VSS:p" 2.279430278279216e-05
"vdd" 1.200000000000000e+00
"vss" 0.000000000000000e+00
"time" 6.741290905334047e-12
"in0" 0.000000000000000e+00
"in1" 0.000000000000000e+00
"net13" 1.150346356871540e+00
"out" 7.342178455606317e-01
"V0:p" 2.292699939978359e-05
"V1:p" 5.084307708974876e-05
"VDD:p" -9.209369931670581e-05
"VSS:p" 1.832362282717430e-05
"vdd" 1.200000000000000e+00
"vss" 0.000000000000000e+00
"time" 7.575617030849416e-12
"in0" 0.000000000000000e+00
"in1" 0.000000000000000e+00
"net13" 1.278030319520639e+00
"out" 7.007483531807710e-01
"V0:p" 2.822588911105117e-05
"V1:p" 3.673267442945458e-05
"VDD:p" -8.128909319070071e-05
"VSS:p" 1.633052965019364e-05
"vdd" 1.200000000000000e+00
"vss" 0.000000000000000e+00
"time" 8.647855440020168e-12
"in0" 0.000000000000000e+00
"in1" 0.000000000000000e+00
"net13" 1.403056472783103e+00
"out" 6.856493608503800e-01
"V0:p" 1.846430487700837e-05
"V1:p" 4.577202471487755e-05
"VDD:p" -7.366035694669452e-05
"VSS:p" 9.424027354809651e-06
"vdd" 1.200000000000000e+00
"vss" 0.000000000000000e+00
"time" 9.469133076498667e-12
"in0" 0.000000000000000e+00
"in1" 0.000000000000000e+00
"net13" 1.461904465148065e+00
"out" 6.937810764327249e-01
"V0:p" 1.846511909429855e-05
"V1:p" 3.756627378263144e-05
"VDD:p" -6.216177482895140e-05
"VSS:p" 6.130381952018515e-06
"vdd" 1.200000000000000e+00
"vss" 0.000000000000000e+00
"time" 1.023456653824933e-11
"in0" 0.000000000000000e+00
"in1" 0.000000000000000e+00
"net13" 1.486340902613380e+00
"out" 7.151401056962617e-01
"V0:p" 8.595147518513797e-06
"V1:p" 4.696239882455046e-05
"VDD:p" -5.630424807067111e-05
"VSS:p" 7.467017276092335e-07
"vdd" 1.200000000000000e+00
"vss" 0.000000000000000e+00
"time" 1.100000000000000e-11
"in0" 0.000000000000000e+00
"in1" 0.000000000000000e+00
"net13" 1.484906358138925e+00
"out" 7.470056081035785e-01
"V0:p" 9.945409988728243e-06
"V1:p" 3.645346850240857e-05
"VDD:p" -4.524991402264679e-05
"VSS:p" -1.148964468492520e-06
"vdd" 1.200000000000000e+00
"vss" 0.000000000000000e+00
"time" 1.197652823875798e-11
"in0" 0.000000000000000e+00
"in1" 0.000000000000000e+00
"net13" 1.470977159511873e+00
"out" 7.890931418634206e-01
"V0:p" 7.456155389647644e-06
"V1:p" 3.783844506717616e-05
"VDD:p" -4.376101896955338e-05
"VSS:p" -1.533581487270906e-06
"vdd" 1.200000000000000e+00
"vss" 0.000000000000000e+00
"time" 1.281916698926470e-11
"in0" 0.000000000000000e+00
"in1" 0.000000000000000e+00
"net13" 1.460191749976370e+00
"out" 8.228809989832957e-01
"V0:p" 8.323731876716429e-06
"V1:p" 3.338671261413615e-05
"VDD:p" -4.048643258203896e-05
"VSS:p" -1.224011908813515e-06
"vdd" 1.200000000000000e+00
"vss" 0.000000000000000e+00
"time" 1.387161627369986e-11
"in0" 0.000000000000000e+00
"in1" 0.000000000000000e+00
"net13" 1.448787913401395e+00
"out" 8.604931692471530e-01
"V0:p" 7.797887805835172e-06
"V1:p" 3.104754449729167e-05
"VDD:p" -3.772736612318368e-05
"VSS:p" -1.118066179943593e-06
"vdd" 1.200000000000000e+00
"vss" 0.000000000000000e+00
"time" 1.587161627369986e-11
"in0" 0.000000000000000e+00
"in1" 0.000000000000000e+00
"net13" 1.431904171865915e+00
"out" 9.203750835763700e-01
"V0:p" 8.289905769926170e-06
"V1:p" 2.416708736657752e-05
"VDD:p" -3.174570072759290e-05
"VSS:p" -7.112924089108290e-07
"vdd" 1.200000000000000e+00
"vss" 0.000000000000000e+00
"time" 1.787161627369986e-11
"in0" 0.000000000000000e+00
"in1" 0.000000000000000e+00
"net13" 1.419623731621450e+00
"out" 9.685747495917764e-01
"V0:p" 6.979471120587938e-06
"V1:p" 2.125237030617126e-05
"VDD:p" -2.760904341985902e-05
"VSS:p" -6.227980068994780e-07
"vdd" 1.200000000000000e+00
"vss" 0.000000000000000e+00
"time" 1.987161627369986e-11
"in0" 0.000000000000000e+00
"in1" 0.000000000000000e+00
"net13" 1.410568501234741e+00
"out" 1.008039947858498e+00
"V0:p" 6.961103885660930e-06
"V1:p" 1.639241500153490e-05
"VDD:p" -2.299071974751405e-05
"VSS:p" -3.627991396820899e-07
"vdd" 1.200000000000000e+00
"vss" 0.000000000000000e+00
"time" 2.187161627369986e-11
"in0" 0.000000000000000e+00
"in1" 0.000000000000000e+00
"net13" 1.403834997921289e+00
"out" 1.040660733944161e+00
"V0:p" 5.457456946023936e-06
"V1:p" 1.490500619105539e-05
"VDD:p" -1.999135449840207e-05
"VSS:p" -3.711086386760102e-07
"vdd" 1.200000000000000e+00
"vss" 0.000000000000000e+00
"time" 2.387161627369986e-11
"in0" 0.000000000000000e+00
"in1" 0.000000000000000e+00
"net13" 1.398798975511413e+00
"out" 1.067744992518203e+00
"V0:p" 5.421764321934744e-06
"V1:p" 1.113395699048524e-05
"VDD:p" -1.637739995587328e-05
"VSS:p" -1.783213565476194e-07
"vdd" 1.200000000000000e+00
"vss" 0.000000000000000e+00
"time" 2.587161627369986e-11
"in0" 0.000000000000000e+00
"in1" 0.000000000000000e+00
"net13" 1.395014807699039e+00
"out" 1.090270939830290e+00
"V0:p" 3.994170463292250e-06
"V1:p" 1.052167498728298e-05
"VDD:p" -1.428104077015135e-05
"VSS:p" -2.348046804227884e-07
"vdd" 1.200000000000000e+00
"vss" 0.000000000000000e+00
"time" 2.787161627369986e-11
"in0" 0.000000000000000e+00
"in1" 0.000000000000000e+00
"net13" 1.392157958053239e+00
"out" 1.109011311770391e+00
"V0:p" 4.080700564715698e-06
"V1:p" 7.473928276793181e-06
"VDD:p" -1.147741785084038e-05
"VSS:p" -7.721099066957979e-08
"vdd" 1.200000000000000e+00
"vss" 0.000000000000000e+00
"time" 2.987161627369986e-11
"in0" 0.000000000000000e+00
"in1" 0.000000000000000e+00
"net13" 1.389990118112441e+00
"out" 1.124596090719667e+00
"V0:p" 2.794501793386020e-06
"V1:p" 7.466493749217056e-06
"VDD:p" -1.010139694261399e-05
"VSS:p" -1.595985999876251e-07
"vdd" 1.200000000000000e+00
"vss" 0.000000000000000e+00
"time" 3.187161627369986e-11
"in0" 0.000000000000000e+00
"in1" 0.000000000000000e+00
"net13" 1.388335795074591e+00
"out" 1.137547449634599e+00
"V0:p" 3.025848126078538e-06
"V1:p" 4.926407319914475e-06
"VDD:p" -7.931140258420766e-06
"VSS:p" -2.111518757403574e-08
"vdd" 1.200000000000000e+00
"vss" 0.000000000000000e+00
"time" 3.387161627369986e-11
"in0" 0.000000000000000e+00
"in1" 0.000000000000000e+00
"net13" 1.387065621223961e+00
"out" 1.148301593939575e+00
"V0:p" 1.878823744557188e-06
"V1:p" 5.345091281351448e-06
"VDD:p" -7.106305843690918e-06
"VSS:p" -1.176091822153853e-07
"vdd" 1.200000000000000e+00
"vss" 0.000000000000000e+00
"time" 3.587161627369986e-11
"in0" 0.000000000000000e+00
"in1" 0.000000000000000e+00
"net13" 1.386084137035383e+00
"out" 1.157224001844364e+00
"V0:p" 2.238790344817093e-06
"V1:p" 3.162170441303958e-06
"VDD:p" -5.411415497803933e-06
"VSS:p" 1.045471167962767e-08
"vdd" 1.200000000000000e+00
"vss" 0.000000000000000e+00
"time" 3.787161627369986e-11
"in0" 0.000000000000000e+00
"in1" 0.000000000000000e+00
"net13" 1.385320779689196e+00
"out" 1.164621022766402e+00
"V0:p" 1.207533980998343e-06
"V1:p" 3.879650895343343e-06
"VDD:p" -4.993437681137126e-06
"VSS:p" -9.374719520087232e-08
"vdd" 1.200000000000000e+00
"vss" 0.000000000000000e+00
"time" 3.987161627369986e-11
"in0" 0.000000000000000e+00
"in1" 0.000000000000000e+00
"net13" 1.384723252368550e+00
"out" 1.170749227068343e+00
"V0:p" 1.669752051997868e-06
"V1:p" 1.946200845344186e-06
"VDD:p" -3.644553625876082e-06
"VSS:p" 2.860072852963840e-08
"vdd" 1.200000000000000e+00
"vss" 0.000000000000000e+00
"time" 4.187161627369986e-11
"in0" 0.000000000000000e+00
"in1" 0.000000000000000e+00
"net13" 1.384252650607754e+00
"out" 1.175823191611363e+00
"V0:p" 7.275490578674225e-07
"V1:p" 2.871587390860917e-06
"VDD:p" -3.519281150675477e-06
"VSS:p" -7.985529804868663e-08
"vdd" 1.200000000000000e+00
"vss" 0.000000000000000e+00
"time" 4.387161627369986e-11
"in0" 0.000000000000000e+00
"in1" 0.000000000000000e+00
"net13" 1.383879832838277e+00
"out" 1.180022081604050e+00
"V0:p" 1.266481806508843e-06
"V1:p" 1.111151471852601e-06
"VDD:p" -2.416938212543230e-06
"VSS:p" 3.930493417728552e-08
"vdd" 1.200000000000000e+00
"vss" 0.000000000000000e+00
"time" 4.587161627369986e-11
"in0" 0.000000000000000e+00
"in1" 0.000000000000000e+00
"net13" 1.383582870428831e+00
"out" 1.183495261101040e+00
"V0:p" 3.898247113394265e-07
"V1:p" 2.180302052971944e-06
"VDD:p" -2.498576316015746e-06
"VSS:p" -7.155044829090919e-08
"vdd" 1.200000000000000e+00
"vss" 0.000000000000000e+00
"time" 4.787161627369985e-11
"in0" 0.000000000000000e+00
"in1" 0.000000000000000e+00
"net13" 1.383345154747156e+00
"out" 1.186367066701805e+00
"V0:p" 9.843929792007827e-07
"V1:p" 5.391853218132663e-07
"VDD:p" -1.569370427979959e-06
"VSS:p" 4.579212696086875e-08
"vdd" 1.200000000000000e+00
"vss" 0.000000000000000e+00
"time" 4.987161627369985e-11
"in0" 0.000000000000000e+00
"in1" 0.000000000000000e+00
"net13" 1.383154016860408e+00
"out" 1.188740864512326e+00
"V0:p" 1.547118098633641e-07
"V1:p" 1.707270390060177e-06
"VDD:p" -1.795532207724077e-06
"VSS:p" -6.644999219453143e-08
"vdd" 1.200000000000000e+00
"vss" 0.000000000000000e+00
"time" 5.187161627369985e-11
"in0" 0.000000000000000e+00
"in1" 0.000000000000000e+00
"net13" 1.382999722003351e+00
"out" 1.190702487692454e+00
"V0:p" 7.887772866986641e-07
"V1:p" 1.481194623272554e-07
"VDD:p" -9.867236181633517e-07
"VSS:p" 4.982686913325876e-08
"vdd" 1.200000000000000e+00
"vss" 0.000000000000000e+00
"time" 5.387161627369985e-11
"in0" 0.000000000000000e+00
"in1" 0.000000000000000e+00
"net13" 1.382874735001049e+00
"out" 1.192323139370223e+00
"V0:p" -7.807619566849649e-09
"V1:p" 1.384066253492672e-06
"VDD:p" -1.313018375927136e-06
"VSS:p" -6.324025799510840e-08
"vdd" 1.200000000000000e+00
"vss" 0.000000000000000e+00
"time" 5.587161627369985e-11
"in0" 0.000000000000000e+00
"in1" 0.000000000000000e+00
"net13" 1.382773181419261e+00
"out" 1.193661836081547e+00
"V0:p" 6.539140926125980e-07
"V1:p" -1.189314939398343e-07
"VDD:p" -5.873759644929360e-07
"VSS:p" 5.239336581643207e-08
"vdd" 1.200000000000000e+00
"vss" 0.000000000000000e+00
"time" 5.787161627369985e-11
"in0" 0.000000000000000e+00
"in1" 0.000000000000000e+00
"net13" 1.382690450203086e+00
"out" 1.194767458333211e+00
"V0:p" -1.196122458624150e-07
"V1:p" 1.163458586675385e-06
"VDD:p" -9.826676406087616e-07
"VSS:p" -6.117870020117283e-08
"vdd" 1.200000000000000e+00
"vss" 0.000000000000000e+00
"time" 5.987161627369986e-11
"in0" 0.000000000000000e+00
"in1" 0.000000000000000e+00
"net13" 1.382622898819223e+00
"out" 1.195680466927249e+00
"V0:p" 5.612995319401279e-07
"V1:p" -3.011414335092449e-07
"VDD:p" -3.142141171431873e-07
"VSS:p" 5.405601871019001e-08
"vdd" 1.200000000000000e+00
"vss" 0.000000000000000e+00
"time" 6.187161627369986e-11
"in0" 0.000000000000000e+00
"in1" 0.000000000000000e+00
"net13" 1.382567632921712e+00
"out" 1.196434336251225e+00
"V0:p" -1.962801147311870e-07
"V1:p" 1.012984549944528e-06
"VDD:p" -7.568714028357328e-07
"VSS:p" -5.983303237419286e-08
"vdd" 1.200000000000000e+00
"vss" 0.000000000000000e+00
"time" 6.387161627369987e-11
"in0" 0.000000000000000e+00
"in1" 0.000000000000000e+00
"net13" 1.382522340456437e+00
"out" 1.197056748876715e+00
"V0:p" 4.978669226766950e-07
"V1:p" -4.253924397955117e-07
"VDD:p" -1.276229453656349e-07
"VSS:p" 5.514846248130783e-08
"vdd" 1.200000000000000e+00
"vss" 0.000000000000000e+00
"time" 6.587161627369988e-11
"in0" 0.000000000000000e+00
"in1" 0.000000000000000e+00
"net13" 1.382485165764088e+00
"out" 1.197570589573813e+00
"V0:p" -2.487389041895028e-07
"V1:p" 9.103966803830194e-07
"VDD:p" -6.027139422487030e-07
"VSS:p" -5.894383394123540e-08
"vdd" 1.200000000000000e+00
"vss" 0.000000000000000e+00
"time" 6.787161627369988e-11
"in0" 0.000000000000000e+00
"in1" 0.000000000000000e+00
"net13" 1.382454613269092e+00
"out" 1.197994771273520e+00
"V0:p" 4.544994085556176e-07
"V1:p" -5.100873337920377e-07
"VDD:p" -2.859245370769060e-10
"VSS:p" 5.587384977008204e-08
"vdd" 1.200000000000000e+00
"vss" 0.000000000000000e+00
"time" 6.987161627369989e-11
"in0" 0.000000000000000e+00
"in1" 0.000000000000000e+00
"net13" 1.382429473214945e+00
"out" 1.198344920591715e+00
"V0:p" -2.845798450578895e-07
"V1:p" 8.404785745805117e-07
"VDD:p" -4.975477744154847e-07
"VSS:p" -5.835095510502336e-08
"vdd" 1.200000000000000e+00
"vss" 0.000000000000000e+00
"time" 7.187161627369989e-11
"in0" 0.000000000000000e+00
"in1" 0.000000000000000e+00
"net13" 1.382408763957995e+00
"out" 1.198633946241309e+00
"V0:p" 4.248861660939528e-07
"V1:p" -5.678036111863163e-07
"VDD:p" 8.655824117476426e-08
"VSS:p" 5.635920391488889e-08
"vdd" 1.200000000000000e+00
"vss" 0.000000000000000e+00
"time" 7.387161627369990e-11
"in0" 0.000000000000000e+00
"in1" 0.000000000000000e+00
"net13" 1.382391686799935e+00
"out" 1.198872509958570e+00
"V0:p" -3.090424790271652e-07
"V1:p" 7.928368633857353e-07
"VDD:p" -4.258412962332971e-07
"VSS:p" -5.795308812212817e-08
"vdd" 1.200000000000000e+00
"vss" 0.000000000000000e+00
"time" 7.587161627369991e-11
"in0" 0.000000000000000e+00
"in1" 0.000000000000000e+00
"net13" 1.382377590394000e+00
"out" 1.199069416400934e+00
"V0:p" 4.046817257500623e-07
"V1:p" -6.071278386497150e-07
"VDD:p" 1.457603896707994e-07
"VSS:p" 5.668572322630456e-08
"vdd" 1.200000000000000e+00
"vss" 0.000000000000000e+00
"time" 7.787161627369991e-11
"in0" 0.000000000000000e+00
"in1" 0.000000000000000e+00
"net13" 1.382365942520845e+00
"out" 1.199231935778285e+00
"V0:p" -3.257276127692138e-07
"V1:p" 7.603790183831607e-07
"VDD:p" -3.769665375259651e-07
"VSS:p" -5.768486808499981e-08
"vdd" 1.200000000000000e+00
"vss" 0.000000000000000e+00
"time" 7.987161627369992e-11
"in0" 0.000000000000000e+00
