HEADER
"PSFversion" "1.00"
"simulator" "spectre"
"version" "19.1.0.237.isr3"
"date" "12:59:13 PM, Mon Aug 29, 2022"
"design" ""
"analysis type" "tran"
"analysis name" "test1"
"analysis description" "Transient Analysis `test1': time = (0 s -> 100 ps)"
"xVecSorted" "ascending"
"tolerance.relative" 0.00100000
"start" 0.00000
"outputstart" 0.00000
"stop" 1.00000e-10
"step" 1.00000e-13
"istep" 0.00100000
"maxstep" 2.00000e-12
"ic" "all"
"useprevic" "no"
"skipdc" "no"
"reltol" 0.00100000
"abstol(V)" 1.00000e-06
"abstol(I)" 1.00000e-12
"temp" 27.0000
"tnom" 27.0000
"tempeffects" "all"
"errpreset" "moderate"
"method" "traponly"
"lteratio" 3.50000
"relref" "sigglobal"
"cmin" 0.00000
"gmin" 1.00000e-12
TYPE
"sweep" FLOAT DOUBLE PROP(
"key" "sweep"
)
"LogicV" FLOAT DOUBLE PROP(
"key" "node"
)
"V" FLOAT DOUBLE PROP(
"units" "V"
"key" "node"
"tolerance" 1.00000e-06
)
"I" FLOAT DOUBLE PROP(
"units" "A"
"key" "branch"
"tolerance" 1.00000e-12
)
"MMF" FLOAT DOUBLE PROP(
"units" "A*turn"
"key" "node"
"tolerance" 1.00000e-12
)
"Wb" FLOAT DOUBLE PROP(
"units" "Wb"
"key" "node"
"tolerance" 1.00000e-09
)
"Temp" FLOAT DOUBLE PROP(
"units" "C"
"key" "node"
"tolerance" 0.000100000
)
"Pwr" FLOAT DOUBLE PROP(
"units" "W"
"key" "node"
"tolerance" 1.00000e-09
)
"U" FLOAT DOUBLE PROP(
"units" ""
"key" "node"
"tolerance" 1.00000e-06
)
"V/Sec" FLOAT DOUBLE PROP(
"units" "V/s"
"key" "node"
"tolerance" 0.000100000
)
"I/Sec" FLOAT DOUBLE PROP(
"units" "A/s"
"key" "node"
"tolerance" 1.00000e-06
)
"1/Sec" FLOAT DOUBLE PROP(
"units" "1/s"
"key" "node"
"tolerance" 0.000100000
)
"HOD" FLOAT DOUBLE PROP(
"units" ""
"key" "node"
"tolerance" 0.0100000
)
"Q" FLOAT DOUBLE PROP(
"units" "Coul"
"key" "node"
"tolerance" 1.00000e-15
)
SWEEP
"time" "sweep" PROP(
"sweep_direction" 0
"units" "s"
"plot" 0
"grid" 1
)
TRACE
"GND:p" "I"
"in" "V"
"out" "V"
"V0:p" "I"
"VDD:p" "I"
"vdd" "V"
"vss" "V"
VALUE
"time" 0.000000000000000e+00
"GND:p" 0.000000000000000e+00
"in" 0.000000000000000e+00
"out" 0.000000000000000e+00
"V0:p" 0.000000000000000e+00
"VDD:p" 0.000000000000000e+00
"vdd" 1.200000000000000e+00
"vss" 0.000000000000000e+00
"time" 9.765625000000000e-17
"GND:p" 5.859375000000000e-09
"in" 0.000000000000000e+00
"out" -5.859375000000000e+03
"V0:p" 0.000000000000000e+00
"VDD:p" 0.000000000000000e+00
"vdd" 1.200000000000000e+00
"vss" 0.000000000000000e+00
"time" 2.929687500000000e-16
"GND:p" 1.757812500000000e-08
"in" 0.000000000000000e+00
"out" -1.757812500000000e+04
"V0:p" 0.000000000000000e+00
"VDD:p" 0.000000000000000e+00
"vdd" 1.200000000000000e+00
"vss" 0.000000000000000e+00
"time" 6.835937500000000e-16
"GND:p" 4.101562500000000e-08
"in" 0.000000000000000e+00
"out" -4.101562499999999e+04
"V0:p" 0.000000000000000e+00
"VDD:p" 0.000000000000000e+00
"vdd" 1.200000000000000e+00
"vss" 0.000000000000000e+00
"time" 1.464843750000000e-15
"GND:p" 8.789062500000001e-08
"in" 0.000000000000000e+00
"out" -8.789062500000001e+04
"V0:p" 0.000000000000000e+00
"VDD:p" 0.000000000000000e+00
"vdd" 1.200000000000000e+00
"vss" 0.000000000000000e+00
"time" 3.027343750000000e-15
"GND:p" 1.816406250000000e-07
"in" 0.000000000000000e+00
"out" -1.816406250000000e+05
"V0:p" 0.000000000000000e+00
"VDD:p" 0.000000000000000e+00
"vdd" 1.200000000000000e+00
"vss" 0.000000000000000e+00
"time" 6.152343750000000e-15
"GND:p" 3.691406250000000e-07
"in" 0.000000000000000e+00
"out" -3.691406250000000e+05
"V0:p" 0.000000000000000e+00
"VDD:p" 0.000000000000000e+00
"vdd" 1.200000000000000e+00
"vss" 0.000000000000000e+00
"time" 1.240234375000000e-14
"GND:p" 7.441406250000001e-07
"in" 0.000000000000000e+00
"out" -7.441406250000001e+05
"V0:p" 0.000000000000000e+00
"VDD:p" 0.000000000000000e+00
"vdd" 1.200000000000000e+00
"vss" 0.000000000000000e+00
"time" 2.490234375000000e-14
"GND:p" 1.494140625000000e-06
"in" 0.000000000000000e+00
"out" -1.494140625000000e+06
"V0:p" 0.000000000000000e+00
"VDD:p" 0.000000000000000e+00
"vdd" 1.200000000000000e+00
"vss" 0.000000000000000e+00
"time" 4.990234375000001e-14
"GND:p" 2.994140625000001e-06
"in" 0.000000000000000e+00
"out" -2.994140625000000e+06
"V0:p" 0.000000000000000e+00
"VDD:p" 0.000000000000000e+00
"vdd" 1.200000000000000e+00
"vss" 0.000000000000000e+00
"time" 9.990234375000002e-14
"GND:p" 5.994140625000002e-06
"in" 0.000000000000000e+00
"out" -5.994140625000002e+06
"V0:p" 0.000000000000000e+00
"VDD:p" 0.000000000000000e+00
"vdd" 1.200000000000000e+00
"vss" 0.000000000000000e+00
"time" 1.999023437500001e-13
"GND:p" 1.199414062500000e-05
"in" 0.000000000000000e+00
"out" -1.199414062500000e+07
"V0:p" 0.000000000000000e+00
"VDD:p" 0.000000000000000e+00
"vdd" 1.200000000000000e+00
"vss" 0.000000000000000e+00
"time" 3.999023437500001e-13
"GND:p" 2.399414062500001e-05
"in" 0.000000000000000e+00
"out" -2.399414062500001e+07
"V0:p" 0.000000000000000e+00
"VDD:p" 0.000000000000000e+00
"vdd" 1.200000000000000e+00
"vss" 0.000000000000000e+00
"time" 7.999023437500002e-13
"GND:p" 4.799414062500002e-05
"in" 0.000000000000000e+00
"out" -4.799414062500001e+07
"V0:p" 0.000000000000000e+00
"VDD:p" 0.000000000000000e+00
"vdd" 1.200000000000000e+00
"vss" 0.000000000000000e+00
"time" 1.599902343750000e-12
"GND:p" 9.599414062500002e-05
"in" 0.000000000000000e+00
"out" -9.599414062500001e+07
"V0:p" 0.000000000000000e+00
"VDD:p" 0.000000000000000e+00
"vdd" 1.200000000000000e+00
"vss" 0.000000000000000e+00
"time" 3.199902343750001e-12
"GND:p" 1.919941406250001e-04
"in" 0.000000000000000e+00
"out" -1.919941406250001e+08
"V0:p" 0.000000000000000e+00
"VDD:p" 0.000000000000000e+00
"vdd" 1.200000000000000e+00
"vss" 0.000000000000000e+00
"time" 5.000000000000000e-12
"GND:p" 3.000000000000000e-04
"in" 0.000000000000000e+00
"out" -3.000000000000000e+08
"V0:p" 0.000000000000000e+00
"VDD:p" 0.000000000000000e+00
"vdd" 1.200000000000000e+00
"vss" 0.000000000000000e+00
"time" 5.999999999999999e-12
"GND:p" 3.000000000000000e-04
"in" 0.000000000000000e+00
"out" -3.000000000000000e+08
"V0:p" 0.000000000000000e+00
"VDD:p" 0.000000000000000e+00
"vdd" 1.200000000000000e+00
"vss" 0.000000000000000e+00
"time" 7.242376754454370e-12
"GND:p" 2.254573947327377e-04
"in" 0.000000000000000e+00
"out" -2.254573947327378e+08
"V0:p" 0.000000000000000e+00
"VDD:p" 0.000000000000000e+00
"vdd" 1.200000000000000e+00
"vss" 0.000000000000000e+00
"time" 7.710912419457949e-12
"GND:p" 1.973452548325230e-04
"in" 0.000000000000000e+00
"out" -1.973452548325230e+08
"V0:p" 0.000000000000000e+00
"VDD:p" 0.000000000000000e+00
"vdd" 1.200000000000000e+00
"vss" 0.000000000000000e+00
"time" 8.647983749465106e-12
"GND:p" 1.411209750320936e-04
"in" 0.000000000000000e+00
"out" -1.411209750320936e+08
"V0:p" 0.000000000000000e+00
"VDD:p" 0.000000000000000e+00
"vdd" 1.200000000000000e+00
"vss" 0.000000000000000e+00
"time" 9.823991874732552e-12
"GND:p" 7.056048751604685e-05
"in" 0.000000000000000e+00
"out" -7.056048751604685e+07
"V0:p" 0.000000000000000e+00
"VDD:p" 0.000000000000000e+00
"vdd" 1.200000000000000e+00
"vss" 0.000000000000000e+00
"time" 1.100000000000000e-11
"GND:p" 0.000000000000000e+00
"in" 0.000000000000000e+00
"out" 0.000000000000000e+00
"V0:p" 0.000000000000000e+00
"VDD:p" 0.000000000000000e+00
"vdd" 1.200000000000000e+00
"vss" 0.000000000000000e+00
"time" 1.300000000000000e-11
"GND:p" 0.000000000000000e+00
"in" 0.000000000000000e+00
"out" 0.000000000000000e+00
"V0:p" 0.000000000000000e+00
"VDD:p" 0.000000000000000e+00
"vdd" 1.200000000000000e+00
"vss" 0.000000000000000e+00
"time" 1.325000000000000e-11
"GND:p" 0.000000000000000e+00
"in" 0.000000000000000e+00
"out" 0.000000000000000e+00
"V0:p" 0.000000000000000e+00
"VDD:p" 0.000000000000000e+00
"vdd" 1.200000000000000e+00
"vss" 0.000000000000000e+00
"time" 1.375000000000000e-11
"GND:p" 0.000000000000000e+00
"in" 0.000000000000000e+00
"out" 0.000000000000000e+00
"V0:p" 0.000000000000000e+00
"VDD:p" 0.000000000000000e+00
"vdd" 1.200000000000000e+00
"vss" 0.000000000000000e+00
"time" 1.475000000000000e-11
"GND:p" 0.000000000000000e+00
"in" 0.000000000000000e+00
"out" 0.000000000000000e+00
"V0:p" 0.000000000000000e+00
"VDD:p" 0.000000000000000e+00
"vdd" 1.200000000000000e+00
"vss" 0.000000000000000e+00
"time" 1.675000000000000e-11
"GND:p" 0.000000000000000e+00
"in" 0.000000000000000e+00
"out" 0.000000000000000e+00
"V0:p" 0.000000000000000e+00
"VDD:p" 0.000000000000000e+00
"vdd" 1.200000000000000e+00
"vss" 0.000000000000000e+00
"time" 1.875000000000000e-11
"GND:p" 0.000000000000000e+00
"in" 0.000000000000000e+00
"out" 0.000000000000000e+00
"V0:p" 0.000000000000000e+00
"VDD:p" 0.000000000000000e+00
"vdd" 1.200000000000000e+00
"vss" 0.000000000000000e+00
"time" 2.075000000000000e-11
"GND:p" 0.000000000000000e+00
"in" 0.000000000000000e+00
"out" 0.000000000000000e+00
"V0:p" 0.000000000000000e+00
"VDD:p" 0.000000000000000e+00
"vdd" 1.200000000000000e+00
"vss" 0.000000000000000e+00
"time" 2.275000000000000e-11
"GND:p" 0.000000000000000e+00
"in" 0.000000000000000e+00
"out" 0.000000000000000e+00
"V0:p" 0.000000000000000e+00
"VDD:p" 0.000000000000000e+00
"vdd" 1.200000000000000e+00
"vss" 0.000000000000000e+00
"time" 2.475000000000000e-11
"GND:p" 0.000000000000000e+00
"in" 0.000000000000000e+00
"out" 0.000000000000000e+00
"V0:p" 0.000000000000000e+00
"VDD:p" 0.000000000000000e+00
"vdd" 1.200000000000000e+00
"vss" 0.000000000000000e+00
"time" 2.675000000000000e-11
"GND:p" 0.000000000000000e+00
"in" 0.000000000000000e+00
"out" 0.000000000000000e+00
"V0:p" 0.000000000000000e+00
"VDD:p" 0.000000000000000e+00
"vdd" 1.200000000000000e+00
"vss" 0.000000000000000e+00
"time" 2.875000000000000e-11
"GND:p" 0.000000000000000e+00
"in" 0.000000000000000e+00
"out" 0.000000000000000e+00
"V0:p" 0.000000000000000e+00
"VDD:p" 0.000000000000000e+00
"vdd" 1.200000000000000e+00
"vss" 0.000000000000000e+00
"time" 3.075000000000000e-11
"GND:p" 0.000000000000000e+00
"in" 0.000000000000000e+00
"out" 0.000000000000000e+00
"V0:p" 0.000000000000000e+00
"VDD:p" 0.000000000000000e+00
"vdd" 1.200000000000000e+00
"vss" 0.000000000000000e+00
"time" 3.275000000000000e-11
"GND:p" 0.000000000000000e+00
"in" 0.000000000000000e+00
"out" 0.000000000000000e+00
"V0:p" 0.000000000000000e+00
"VDD:p" 0.000000000000000e+00
"vdd" 1.200000000000000e+00
"vss" 0.000000000000000e+00
"time" 3.475000000000000e-11
"GND:p" 0.000000000000000e+00
"in" 0.000000000000000e+00
"out" 0.000000000000000e+00
"V0:p" 0.000000000000000e+00
"VDD:p" 0.000000000000000e+00
"vdd" 1.200000000000000e+00
"vss" 0.000000000000000e+00
"time" 3.675000000000000e-11
"GND:p" 0.000000000000000e+00
"in" 0.000000000000000e+00
"out" 0.000000000000000e+00
"V0:p" 0.000000000000000e+00
"VDD:p" 0.000000000000000e+00
"vdd" 1.200000000000000e+00
"vss" 0.000000000000000e+00
"time" 3.875000000000000e-11
"GND:p" 0.000000000000000e+00
"in" 0.000000000000000e+00
"out" 0.000000000000000e+00
"V0:p" 0.000000000000000e+00
"VDD:p" 0.000000000000000e+00
"vdd" 1.200000000000000e+00
"vss" 0.000000000000000e+00
"time" 4.075000000000000e-11
"GND:p" 0.000000000000000e+00
"in" 0.000000000000000e+00
"out" 0.000000000000000e+00
"V0:p" 0.000000000000000e+00
"VDD:p" 0.000000000000000e+00
"vdd" 1.200000000000000e+00
"vss" 0.000000000000000e+00
"time" 4.275000000000000e-11
"GND:p" 0.000000000000000e+00
"in" 0.000000000000000e+00
"out" 0.000000000000000e+00
"V0:p" 0.000000000000000e+00
"VDD:p" 0.000000000000000e+00
"vdd" 1.200000000000000e+00
"vss" 0.000000000000000e+00
"time" 4.475000000000000e-11
"GND:p" 0.000000000000000e+00
"in" 0.000000000000000e+00
"out" 0.000000000000000e+00
"V0:p" 0.000000000000000e+00
"VDD:p" 0.000000000000000e+00
"vdd" 1.200000000000000e+00
"vss" 0.000000000000000e+00
"time" 4.675000000000000e-11
"GND:p" 0.000000000000000e+00
"in" 0.000000000000000e+00
"out" 0.000000000000000e+00
"V0:p" 0.000000000000000e+00
"VDD:p" 0.000000000000000e+00
"vdd" 1.200000000000000e+00
"vss" 0.000000000000000e+00
"time" 4.875000000000000e-11
"GND:p" 0.000000000000000e+00
"in" 0.000000000000000e+00
"out" 0.000000000000000e+00
"V0:p" 0.000000000000000e+00
"VDD:p" 0.000000000000000e+00
"vdd" 1.200000000000000e+00
"vss" 0.000000000000000e+00
"time" 5.075000000000000e-11
"GND:p" 0.000000000000000e+00
"in" 0.000000000000000e+00
"out" 0.000000000000000e+00
"V0:p" 0.000000000000000e+00
"VDD:p" 0.000000000000000e+00
"vdd" 1.200000000000000e+00
"vss" 0.000000000000000e+00
"time" 5.275000000000000e-11
"GND:p" 0.000000000000000e+00
"in" 0.000000000000000e+00
"out" 0.000000000000000e+00
"V0:p" 0.000000000000000e+00
"VDD:p" 0.000000000000000e+00
"vdd" 1.200000000000000e+00
"vss" 0.000000000000000e+00
"time" 5.475000000000000e-11
"GND:p" 0.000000000000000e+00
"in" 0.000000000000000e+00
"out" 0.000000000000000e+00
"V0:p" 0.000000000000000e+00
"VDD:p" 0.000000000000000e+00
"vdd" 1.200000000000000e+00
"vss" 0.000000000000000e+00
"time" 5.675000000000000e-11
"GND:p" 0.000000000000000e+00
"in" 0.000000000000000e+00
"out" 0.000000000000000e+00
"V0:p" 0.000000000000000e+00
"VDD:p" 0.000000000000000e+00
"vdd" 1.200000000000000e+00
"vss" 0.000000000000000e+00
"time" 5.875000000000000e-11
"GND:p" 0.000000000000000e+00
"in" 0.000000000000000e+00
"out" 0.000000000000000e+00
"V0:p" 0.000000000000000e+00
"VDD:p" 0.000000000000000e+00
"vdd" 1.200000000000000e+00
"vss" 0.000000000000000e+00
"time" 6.075000000000001e-11
"GND:p" 0.000000000000000e+00
"in" 0.000000000000000e+00
"out" 0.000000000000000e+00
"V0:p" 0.000000000000000e+00
"VDD:p" 0.000000000000000e+00
"vdd" 1.200000000000000e+00
"vss" 0.000000000000000e+00
"time" 6.275000000000002e-11
"GND:p" 0.000000000000000e+00
"in" 0.000000000000000e+00
"out" 0.000000000000000e+00
"V0:p" 0.000000000000000e+00
"VDD:p" 0.000000000000000e+00
"vdd" 1.200000000000000e+00
"vss" 0.000000000000000e+00
"time" 6.475000000000002e-11
"GND:p" 0.000000000000000e+00
"in" 0.000000000000000e+00
"out" 0.000000000000000e+00
"V0:p" 0.000000000000000e+00
"VDD:p" 0.000000000000000e+00
"vdd" 1.200000000000000e+00
"vss" 0.000000000000000e+00
"time" 6.675000000000003e-11
"GND:p" 0.000000000000000e+00
"in" 0.000000000000000e+00
"out" 0.000000000000000e+00
"V0:p" 0.000000000000000e+00
"VDD:p" 0.000000000000000e+00
"vdd" 1.200000000000000e+00
"vss" 0.000000000000000e+00
"time" 6.875000000000003e-11
"GND:p" 0.000000000000000e+00
"in" 0.000000000000000e+00
"out" 0.000000000000000e+00
"V0:p" 0.000000000000000e+00
"VDD:p" 0.000000000000000e+00
"vdd" 1.200000000000000e+00
"vss" 0.000000000000000e+00
"time" 7.075000000000004e-11
"GND:p" 0.000000000000000e+00
"in" 0.000000000000000e+00
"out" 0.000000000000000e+00
"V0:p" 0.000000000000000e+00
"VDD:p" 0.000000000000000e+00
"vdd" 1.200000000000000e+00
"vss" 0.000000000000000e+00
"time" 7.275000000000005e-11
"GND:p" 0.000000000000000e+00
"in" 0.000000000000000e+00
"out" 0.000000000000000e+00
"V0:p" 0.000000000000000e+00
"VDD:p" 0.000000000000000e+00
"vdd" 1.200000000000000e+00
"vss" 0.000000000000000e+00
"time" 7.475000000000005e-11
"GND:p" 0.000000000000000e+00
"in" 0.000000000000000e+00
"out" 0.000000000000000e+00
"V0:p" 0.000000000000000e+00
"VDD:p" 0.000000000000000e+00
"vdd" 1.200000000000000e+00
"vss" 0.000000000000000e+00
"time" 7.675000000000006e-11
"GND:p" 0.000000000000000e+00
"in" 0.000000000000000e+00
"out" 0.000000000000000e+00
"V0:p" 0.000000000000000e+00
"VDD:p" 0.000000000000000e+00
"vdd" 1.200000000000000e+00
"vss" 0.000000000000000e+00
"time" 7.875000000000006e-11
"GND:p" 0.000000000000000e+00
"in" 0.000000000000000e+00
"out" 0.000000000000000e+00
"V0:p" 0.000000000000000e+00
"VDD:p" 0.000000000000000e+00
"vdd" 1.200000000000000e+00
"vss" 0.000000000000000e+00
"time" 8.075000000000007e-11
"GND:p" 0.000000000000000e+00
"in" 0.000000000000000e+00
"out" 0.000000000000000e+00
"V0:p" 0.000000000000000e+00
"VDD:p" 0.000000000000000e+00
"vdd" 1.200000000000000e+00
"vss" 0.000000000000000e+00
"time" 8.275000000000008e-11
"GND:p" 0.000000000000000e+00
"in" 0.000000000000000e+00
"out" 0.000000000000000e+00
"V0:p" 0.000000000000000e+00
"VDD:p" 0.000000000000000e+00
"vdd" 1.200000000000000e+00
"vss" 0.000000000000000e+00
"time" 8.475000000000008e-11
"GND:p" 0.000000000000000e+00
"in" 0.000000000000000e+00
"out" 0.000000000000000e+00
"V0:p" 0.000000000000000e+00
"VDD:p" 0.000000000000000e+00
"vdd" 1.200000000000000e+00
"vss" 0.000000000000000e+00
"time" 8.675000000000009e-11
"GND:p" 0.000000000000000e+00
"in" 0.000000000000000e+00
"out" 0.000000000000000e+00
"V0:p" 0.000000000000000e+00
"VDD:p" 0.000000000000000e+00
"vdd" 1.200000000000000e+00
"vss" 0.000000000000000e+00
"time" 8.875000000000009e-11
"GND:p" 0.000000000000000e+00
"in" 0.000000000000000e+00
"out" 0.000000000000000e+00
"V0:p" 0.000000000000000e+00
"VDD:p" 0.000000000000000e+00
"vdd" 1.200000000000000e+00
"vss" 0.000000000000000e+00
"time" 9.075000000000010e-11
"GND:p" 0.000000000000000e+00
"in" 0.000000000000000e+00
"out" 0.000000000000000e+00
"V0:p" 0.000000000000000e+00
"VDD:p" 0.000000000000000e+00
"vdd" 1.200000000000000e+00
"vss" 0.000000000000000e+00
"time" 9.275000000000011e-11
"GND:p" 0.000000000000000e+00
"in" 0.000000000000000e+00
"out" 0.000000000000000e+00
"V0:p" 0.000000000000000e+00
"VDD:p" 0.000000000000000e+00
"vdd" 1.200000000000000e+00
"vss" 0.000000000000000e+00
"time" 9.475000000000011e-11
"GND:p" 0.000000000000000e+00
"in" 0.000000000000000e+00
"out" 0.000000000000000e+00
"V0:p" 0.000000000000000e+00
"VDD:p" 0.000000000000000e+00
"vdd" 1.200000000000000e+00
"vss" 0.000000000000000e+00
"time" 9.675000000000012e-11
"GND:p" 0.000000000000000e+00
"in" 0.000000000000000e+00
"out" 0.000000000000000e+00
"V0:p" 0.000000000000000e+00
"VDD:p" 0.000000000000000e+00
"vdd" 1.200000000000000e+00
"vss" 0.000000000000000e+00
"time" 9.837500000000006e-11
"GND:p" 0.000000000000000e+00
"in" 0.000000000000000e+00
"out" 0.000000000000000e+00
"V0:p" 0.000000000000000e+00
"VDD:p" 0.000000000000000e+00
"vdd" 1.200000000000000e+00
"vss" 0.000000000000000e+00
"time" 1.000000000000000e-10
"GND:p" 0.000000000000000e+00
"in" 0.000000000000000e+00
"out" 0.000000000000000e+00
"V0:p" 0.000000000000000e+00
"VDD:p" 0.000000000000000e+00
"vdd" 1.200000000000000e+00
"vss" 0.000000000000000e+00
END
