HEADER
"PSFversion" "1.00"
"simulator" "spectre"
"version" "19.1.0.237.isr3"
"date" "1:51:01 PM, Sat Sep 10, 2022"
"design" "// Generated for: spectre"
"analysis type" "tran"
"analysis name" "sim"
"analysis description" "Transient Analysis `sim': time = (0 s -> 100 ps)"
"xVecSorted" "ascending"
"tolerance.relative" 0.00100000
"start" 0.00000
"outputstart" 0.00000
"stop" 1.00000e-10
"step" 1.00000e-13
"istep" 0.00100000
"maxstep" 2.00000e-12
"ic" "all"
"useprevic" "no"
"skipdc" "no"
"reltol" 0.00100000
"abstol(V)" 1.00000e-06
"abstol(I)" 1.00000e-12
"temp" 27.0000
"tnom" 27.0000
"tempeffects" "all"
"errpreset" "moderate"
"method" "traponly"
"lteratio" 3.50000
"relref" "sigglobal"
"cmin" 0.00000
"gmin" 1.00000e-12
TYPE
"sweep" FLOAT DOUBLE PROP(
"key" "sweep"
)
"LogicV" FLOAT DOUBLE PROP(
"key" "node"
)
"Tau" FLOAT DOUBLE PROP(
"units" "N*m"
"key" "node"
"tolerance" 1.00000e-06
)
"Alpha" FLOAT DOUBLE PROP(
"units" "rads/s^2"
"key" "node"
"tolerance" 1.00000e-06
)
"Omega" FLOAT DOUBLE PROP(
"units" "rads/s"
"key" "node"
"tolerance" 1.00000e-06
)
"Theta" FLOAT DOUBLE PROP(
"units" "rads"
"key" "node"
"tolerance" 1.00000e-06
)
"F" FLOAT DOUBLE PROP(
"units" "N"
"key" "node"
"tolerance" 1.00000e-06
)
"Imp" FLOAT DOUBLE PROP(
"units" "m/s^3"
"key" "node"
"tolerance" 1.00000e-06
)
"Acc" FLOAT DOUBLE PROP(
"units" "m/s^2"
"key" "node"
"tolerance" 1.00000e-06
)
"Vel" FLOAT DOUBLE PROP(
"units" "m/s"
"key" "node"
"tolerance" 1.00000e-06
)
"Pos" FLOAT DOUBLE PROP(
"units" "m"
"key" "node"
"tolerance" 1.00000e-06
)
"Phi" FLOAT DOUBLE PROP(
"units" "Wb"
"key" "node"
"tolerance" 1.00000e-09
)
"V" FLOAT DOUBLE PROP(
"units" "V"
"key" "node"
"tolerance" 1.00000e-06
)
"I" FLOAT DOUBLE PROP(
"units" "A"
"key" "branch"
"tolerance" 1.00000e-12
)
"MMF" FLOAT DOUBLE PROP(
"units" "A*turn"
"key" "node"
"tolerance" 1.00000e-12
)
"Wb" FLOAT DOUBLE PROP(
"units" "Wb"
"key" "node"
"tolerance" 1.00000e-09
)
"Temp" FLOAT DOUBLE PROP(
"units" "C"
"key" "node"
"tolerance" 0.000100000
)
"Pwr" FLOAT DOUBLE PROP(
"units" "W"
"key" "node"
"tolerance" 1.00000e-09
)
"U" FLOAT DOUBLE PROP(
"units" ""
"key" "node"
"tolerance" 1.00000e-06
)
"V/Sec" FLOAT DOUBLE PROP(
"units" "V/s"
"key" "node"
"tolerance" 0.000100000
)
"I/Sec" FLOAT DOUBLE PROP(
"units" "A/s"
"key" "node"
"tolerance" 1.00000e-06
)
"1/Sec" FLOAT DOUBLE PROP(
"units" "1/s"
"key" "node"
"tolerance" 0.000100000
)
"HOD" FLOAT DOUBLE PROP(
"units" ""
"key" "node"
"tolerance" 0.0100000
)
"Q" FLOAT DOUBLE PROP(
"units" "coul"
"key" "node"
"tolerance" 1.00000e-14
)
SWEEP
"time" "sweep" PROP(
"sweep_direction" 0
"units" "s"
"plot" 0
"grid" 1
)
TRACE
"in0" "V"
"in1" "V"
"net13" "V"
"out" "V"
"V0:p" "I"
"V1:p" "I"
"VDD:p" "I"
"VSS:p" "I"
"vdd" "V"
"vss" "V"
VALUE
"time" 0.000000000000000e+00
"in0" 0.000000000000000e+00
"in1" 0.000000000000000e+00
"net13" 2.470546966412399e-02
"out" 1.199999584058010e+00
"V0:p" 2.859123199320163e-11
"V1:p" 3.016613384934715e-11
"VDD:p" -1.148585513731463e-10
"VSS:p" 5.610122483096415e-11
"vdd" 1.200000000000000e+00
"vss" 0.000000000000000e+00
"time" 1.000000000000000e-13
"in0" 0.000000000000000e+00
"in1" 0.000000000000000e+00
"net13" 2.232479481559093e-02
"out" 1.199870947953983e+00
"V0:p" -6.184346514642555e-06
"V1:p" -8.984905800904685e-06
"VDD:p" -9.846398813697201e-07
"VSS:p" 1.615389219691696e-05
"vdd" 1.200000000000000e+00
"vss" 0.000000000000000e+00
"time" 2.860302285805485e-13
"in0" 0.000000000000000e+00
"in1" 0.000000000000000e+00
"net13" 9.658124156550001e-03
"out" 1.199195298033887e+00
"V0:p" -1.767245255806110e-05
"V1:p" -2.562944712839855e-05
"VDD:p" -2.870865971084960e-06
"VSS:p" 4.617276565754038e-05
"vdd" 1.200000000000000e+00
"vss" 0.000000000000000e+00
"time" 6.005314757071099e-13
"in0" 0.000000000000000e+00
"in1" 0.000000000000000e+00
"net13" -2.352003039616533e-02
"out" 1.197447208750488e+00
"V0:p" -3.757951049505731e-05
"V1:p" -5.327595784552017e-05
"VDD:p" -6.095883833985058e-06
"VSS:p" 9.695135217456826e-05
"vdd" 1.200000000000000e+00
"vss" 0.000000000000000e+00
"time" 8.002657378535549e-13
"in0" 0.000000000000000e+00
"in1" 0.000000000000000e+00
"net13" -5.678721755817691e-02
"out" 1.195720675485144e+00
"V0:p" -5.219417701015737e-05
"V1:p" -7.037641948090018e-05
"VDD:p" -8.171162599757043e-06
"VSS:p" 1.307417590908155e-04
"vdd" 1.200000000000000e+00
"vss" 0.000000000000000e+00
"time" 1.000000000000000e-12
"in0" 0.000000000000000e+00
"in1" 0.000000000000000e+00
"net13" -9.946824386339853e-02
"out" 1.193543679440225e+00
"V0:p" -6.664569222755076e-05
"V1:p" -8.713216203846077e-05
"VDD:p" -1.023980010567241e-05
"VSS:p" 1.640176543716811e-04
"vdd" 1.200000000000000e+00
"vss" 0.000000000000000e+00
"time" 1.399468524292890e-12
"in0" 0.000000000000000e+00
"in1" 0.000000000000000e+00
"net13" -1.935160897673734e-01
"out" 1.189048580255947e+00
"V0:p" -6.912203112858400e-05
"V1:p" -8.602490183642623e-05
"VDD:p" -1.060144946528768e-05
"VSS:p" 1.657483824302966e-04
"vdd" 1.200000000000000e+00
"vss" 0.000000000000000e+00
"time" 1.703844290535964e-12
"in0" 0.000000000000000e+00
"in1" 0.000000000000000e+00
"net13" -2.631144840305328e-01
"out" 1.185987450268473e+00
"V0:p" -8.004287108250406e-05
"V1:p" -8.406831751696332e-05
"VDD:p" -9.427102035606641e-06
"VSS:p" 1.735382906350766e-04
"vdd" 1.200000000000000e+00
"vss" 0.000000000000000e+00
"time" 2.088139125765808e-12
"in0" 0.000000000000000e+00
"in1" 0.000000000000000e+00
"net13" -3.434481460163757e-01
"out" 1.183245446174145e+00
"V0:p" -8.960907700448185e-05
"V1:p" -8.666927049882384e-05
"VDD:p" -7.443612801402340e-06
"VSS:p" 1.837219603047063e-04
"vdd" 1.200000000000000e+00
"vss" 0.000000000000000e+00
"time" 2.638100880188305e-12
"in0" 0.000000000000000e+00
"in1" 0.000000000000000e+00
"net13" -4.366083183871179e-01
"out" 1.181948624240847e+00
"V0:p" -1.058670633989012e-04
"V1:p" -9.216305042404167e-05
"VDD:p" -3.180537919513751e-06
"VSS:p" 2.012106517424583e-04
"vdd" 1.200000000000000e+00
"vss" 0.000000000000000e+00
"time" 3.273069431119592e-12
"in0" 0.000000000000000e+00
"in1" 0.000000000000000e+00
"net13" -5.208299733680366e-01
"out" 1.181178553854785e+00
"V0:p" -8.969421922643776e-05
"V1:p" -9.275314677165527e-05
"VDD:p" -6.176508032377507e-06
"VSS:p" 1.886238740304699e-04
"vdd" 1.200000000000000e+00
"vss" 0.000000000000000e+00
"time" 4.007572665218045e-12
"in0" 0.000000000000000e+00
"in1" 0.000000000000000e+00
"net13" -5.987814589260669e-01
"out" 1.176798670420586e+00
"V0:p" -8.686712037207463e-05
"V1:p" -8.220079651183113e-05
"VDD:p" -1.122996747178779e-05
"VSS:p" 1.802978843556965e-04
"vdd" 1.200000000000000e+00
"vss" 0.000000000000000e+00
"time" 4.787647110559422e-12
"in0" 0.000000000000000e+00
"in1" 0.000000000000000e+00
"net13" -6.636088507437559e-01
"out" 1.166530311282736e+00
"V0:p" -6.472224571319219e-05
"V1:p" -7.335181518082629e-05
"VDD:p" -1.965516183392180e-05
"VSS:p" 1.577292227279378e-04
"vdd" 1.200000000000000e+00
"vss" 0.000000000000000e+00
"time" 5.393823555279710e-12
"in0" 0.000000000000000e+00
"in1" 0.000000000000000e+00
"net13" -7.031426104828098e-01
"out" 1.154846557832010e+00
"V0:p" -6.466549381611177e-05
"V1:p" -6.348550462502476e-05
"VDD:p" -2.441577465319501e-05
"VSS:p" 1.525667730943336e-04
"vdd" 1.200000000000000e+00
"vss" 0.000000000000000e+00
"time" 5.999999999999999e-12
"in0" 0.000000000000000e+00
"in1" 0.000000000000000e+00
"net13" -7.347039850650234e-01
"out" 1.140583869661900e+00
"V0:p" -4.710476120792425e-05
"V1:p" -5.799014401430426e-05
"VDD:p" -3.071719872845557e-05
"VSS:p" 1.358121039506828e-04
"vdd" 1.200000000000000e+00
"vss" 0.000000000000000e+00
"time" 6.303088222360144e-12
"in0" 0.000000000000000e+00
"in1" 0.000000000000000e+00
"net13" -7.449994082044171e-01
"out" 1.132494498452061e+00
"V0:p" -4.195989129686056e-05
"V1:p" -4.770673413011472e-05
"VDD:p" -3.267563240224954e-05
"VSS:p" 1.223422578292255e-04
"vdd" 1.200000000000000e+00
"vss" 0.000000000000000e+00
"time" 6.909264667080432e-12
"in0" 0.000000000000000e+00
"in1" 0.000000000000000e+00
"net13" -7.589545686652120e-01
"out" 1.115786979539871e+00
"V0:p" -2.384893775708403e-05
"V1:p" -3.019762935480238e-05
"VDD:p" -3.680197395843009e-05
"VSS:p" 9.084854107031551e-05
"vdd" 1.200000000000000e+00
"vss" 0.000000000000000e+00
"time" 7.731374976168373e-12
"in0" 0.000000000000000e+00
"in1" 0.000000000000000e+00
"net13" -7.600252615905749e-01
"out" 1.092785163692657e+00
"V0:p" -4.551398422657399e-06
"V1:p" -1.088730326123220e-05
"VDD:p" -4.014911105512384e-05
"VSS:p" 5.558781273901194e-05
"vdd" 1.200000000000000e+00
"vss" 0.000000000000000e+00
"time" 8.895172720179651e-12
"in0" 0.000000000000000e+00
"in1" 0.000000000000000e+00
"net13" -7.370572381185404e-01
"out" 1.063646972922015e+00
"V0:p" 1.565666838840212e-05
"V1:p" 1.025714809765189e-05
"VDD:p" -4.138164332334077e-05
"VSS:p" 1.546782683728769e-05
"vdd" 1.200000000000000e+00
"vss" 0.000000000000000e+00
"time" 1.006971303922406e-11
"in0" 0.000000000000000e+00
"in1" 0.000000000000000e+00
"net13" -6.931378443903484e-01
"out" 1.041784441719185e+00
"V0:p" 3.169045097529522e-05
"V1:p" 2.792720468768214e-05
"VDD:p" -3.955126697502470e-05
"VSS:p" -2.006638868795306e-05
"vdd" 1.200000000000000e+00
"vss" 0.000000000000000e+00
"time" 1.100000000000000e-11
"in0" 0.000000000000000e+00
"in1" 0.000000000000000e+00
"net13" -6.468725896895891e-01
"out" 1.031366318284251e+00
"V0:p" 4.256325299778975e-05
"V1:p" 4.020898637852247e-05
"VDD:p" -3.645272940171376e-05
"VSS:p" -4.631950997459873e-05
"vdd" 1.200000000000000e+00
"vss" 0.000000000000000e+00
"time" 1.191473700409588e-11
"in0" 0.000000000000000e+00
"in1" 0.000000000000000e+00
"net13" -6.074141530456060e-01
"out" 1.029627454822330e+00
"V0:p" 3.509797802381643e-05
"V1:p" 3.413930088857074e-05
"VDD:p" -3.288694234982447e-05
"VSS:p" -3.635033656256332e-05
"vdd" 1.200000000000000e+00
"vss" 0.000000000000000e+00
"time" 1.288825204640351e-11
"in0" 0.000000000000000e+00
"in1" 0.000000000000000e+00
"net13" -5.698177300349107e-01
"out" 1.030120773957361e+00
"V0:p" 2.858762136550185e-05
"V1:p" 2.857055220613088e-05
"VDD:p" -2.953729898483950e-05
"VSS:p" -2.762087458679361e-05
"vdd" 1.200000000000000e+00
"vss" 0.000000000000000e+00
"time" 1.418072954473453e-11
"in0" 0.000000000000000e+00
"in1" 0.000000000000000e+00
"net13" -5.316942612035699e-01
"out" 1.036156268658830e+00
"V0:p" 2.266883336223214e-05
"V1:p" 2.354440028649922e-05
"VDD:p" -2.617066185874062e-05
"VSS:p" -2.004257178999071e-05
"vdd" 1.200000000000000e+00
"vss" 0.000000000000000e+00
"time" 1.595802163417944e-11
"in0" 0.000000000000000e+00
"in1" 0.000000000000000e+00
"net13" -4.933839753805681e-01
"out" 1.049585147688499e+00
"V0:p" 1.726313608323385e-05
"V1:p" 1.849745604522119e-05
"VDD:p" -2.234665920297615e-05
"VSS:p" -1.341393292547943e-05
"vdd" 1.200000000000000e+00
"vss" 0.000000000000000e+00
"time" 1.795802163417944e-11
"in0" 0.000000000000000e+00
"in1" 0.000000000000000e+00
"net13" -4.624075594377189e-01
"out" 1.067235988154848e+00
"V0:p" 1.341795890318302e-05
"V1:p" 1.488988759867039e-05
"VDD:p" -1.904983466269604e-05
"VSS:p" -9.258011839156471e-06
"vdd" 1.200000000000000e+00
"vss" 0.000000000000000e+00
"time" 1.995802163417944e-11
"in0" 0.000000000000000e+00
"in1" 0.000000000000000e+00
"net13" -4.392757023807907e-01
"out" 1.084802361537663e+00
"V0:p" 1.069346363905577e-05
"V1:p" 1.202201488707145e-05
"VDD:p" -1.615683641221452e-05
"VSS:p" -6.558642113913382e-06
"vdd" 1.200000000000000e+00
"vss" 0.000000000000000e+00
"time" 2.195802163417944e-11
"in0" 0.000000000000000e+00
"in1" 0.000000000000000e+00
"net13" -4.211577229515780e-01
"out" 1.101036796174144e+00
"V0:p" 8.770068233031964e-06
"V1:p" 1.009934826608263e-05
"VDD:p" -1.385321277906489e-05
"VSS:p" -5.016203720048901e-06
"vdd" 1.200000000000000e+00
"vss" 0.000000000000000e+00
"time" 2.395802163417943e-11
"in0" 0.000000000000000e+00
"in1" 0.000000000000000e+00
"net13" -4.064719931125322e-01
"out" 1.115502248009804e+00
"V0:p" 7.212706966916445e-06
"V1:p" 8.306062770896735e-06
"VDD:p" -1.173164392268664e-05
"VSS:p" -3.787125815127280e-06
"vdd" 1.200000000000000e+00
"vss" 0.000000000000000e+00
"time" 2.595802163417943e-11
"in0" 0.000000000000000e+00
"in1" 0.000000000000000e+00
"net13" -3.942546323025305e-01
"out" 1.128127366050237e+00
"V0:p" 6.066693871774608e-06
"V1:p" 7.129599952882138e-06
"VDD:p" -1.007012931892031e-05
"VSS:p" -3.126164505736181e-06
"vdd" 1.200000000000000e+00
"vss" 0.000000000000000e+00
"time" 2.795802163417943e-11
"in0" 0.000000000000000e+00
"in1" 0.000000000000000e+00
"net13" -3.838815417651709e-01
"out" 1.139006202522604e+00
"V0:p" 5.061947881076373e-06
"V1:p" 5.888121246306660e-06
"VDD:p" -8.498696700299354e-06
"VSS:p" -2.451372427084273e-06
"vdd" 1.200000000000000e+00
"vss" 0.000000000000000e+00
"time" 2.995802163417943e-11
"in0" 0.000000000000000e+00
"in1" 0.000000000000000e+00
"net13" -3.749290467507970e-01
"out" 1.148301931643858e+00
"V0:p" 4.327786415706161e-06
"V1:p" 5.138186592109501e-06
"VDD:p" -7.312965516938133e-06
"VSS:p" -2.153007490876324e-06
"vdd" 1.200000000000000e+00
"vss" 0.000000000000000e+00
"time" 3.195802163417943e-11
"in0" 0.000000000000000e+00
"in1" 0.000000000000000e+00
"net13" -3.670978012827580e-01
"out" 1.156199454195970e+00
"V0:p" 3.640460566467517e-06
"V1:p" 4.236231045928878e-06
"VDD:p" -6.153201634219902e-06
"VSS:p" -1.723489978177778e-06
"vdd" 1.200000000000000e+00
"vss" 0.000000000000000e+00
"time" 3.395802163417943e-11
"in0" 0.000000000000000e+00
"in1" 0.000000000000000e+00
"net13" -3.601691934797572e-01
"out" 1.162882109205976e+00
"V0:p" 3.156714718715106e-06
"V1:p" 3.761680110325556e-06
"VDD:p" -5.322524952687417e-06
"VSS:p" -1.595869876351902e-06
"vdd" 1.200000000000000e+00
"vss" 0.000000000000000e+00
"time" 3.595802163417943e-11
"in0" 0.000000000000000e+00
"in1" 0.000000000000000e+00
"net13" -3.539791635929246e-01
"out" 1.168520665646246e+00
"V0:p" 2.670157129154648e-06
"V1:p" 3.085711738880623e-06
"VDD:p" -4.467645515232133e-06
"VSS:p" -1.288223352804263e-06
"vdd" 1.200000000000000e+00
"vss" 0.000000000000000e+00
"time" 3.795802163417943e-11
"in0" 0.000000000000000e+00
"in1" 0.000000000000000e+00
"net13" -3.484017906547529e-01
"out" 1.173268718699114e+00
"V0:p" 2.349188626453697e-06
"V1:p" 2.797947197370551e-06
"VDD:p" -3.897602964678947e-06
"VSS:p" -1.249532859144474e-06
"vdd" 1.200000000000000e+00
"vss" 0.000000000000000e+00
"time" 3.995802163417943e-11
"in0" 0.000000000000000e+00
"in1" 0.000000000000000e+00
"net13" -3.433386036432949e-01
"out" 1.177261451170549e+00
"V0:p" 1.995649921192177e-06
"V1:p" 2.277040363967957e-06
"VDD:p" -3.264616953029647e-06
"VSS:p" -1.008073332131321e-06
"vdd" 1.200000000000000e+00
"vss" 0.000000000000000e+00
"time" 4.195802163417943e-11
"in0" 0.000000000000000e+00
"in1" 0.000000000000000e+00
"net13" -3.387113823051404e-01
"out" 1.180616134318723e+00
"V0:p" 1.783998361979088e-06
"V1:p" 2.118344210833377e-06
"VDD:p" -2.882812050709333e-06
"VSS:p" -1.019530522101980e-06
"vdd" 1.200000000000000e+00
"vss" 0.000000000000000e+00
"time" 4.395802163417943e-11
"in0" 0.000000000000000e+00
"in1" 0.000000000000000e+00
"net13" -3.344571625699563e-01
"out" 1.183433477969390e+00
"V0:p" 1.520674175907580e-06
"V1:p" 1.705047815442829e-06
"VDD:p" -2.409033015217631e-06
"VSS:p" -8.166889761339843e-07
"vdd" 1.200000000000000e+00
"vss" 0.000000000000000e+00
"time" 4.595802163417943e-11
"in0" 0.000000000000000e+00
"in1" 0.000000000000000e+00
"net13" -3.305246803677847e-01
"out" 1.185799337184356e+00
"V0:p" 1.383712256191370e-06
"V1:p" 1.636168740682213e-06
"VDD:p" -2.161549228631227e-06
"VSS:p" -8.583317682414141e-07
"vdd" 1.200000000000000e+00
"vss" 0.000000000000000e+00
"time" 4.795802163417943e-11
"in0" 0.000000000000000e+00
"in1" 0.000000000000000e+00
"net13" -3.268717816453735e-01
"out" 1.187786504018613e+00
"V0:p" 1.182384781936047e-06
"V1:p" 1.297896893987539e-06
"VDD:p" -1.800870945670313e-06
"VSS:p" -6.794107302550759e-07
"vdd" 1.200000000000000e+00
"vss" 0.000000000000000e+00
"time" 4.995802163417943e-11
"in0" 0.000000000000000e+00
"in1" 0.000000000000000e+00
"net13" -3.234634985936524e-01
"out" 1.189456438815273e+00
"V0:p" 1.096997040083906e-06
"V1:p" 1.291727137023956e-06
"VDD:p" -1.648472949735042e-06
"VSS:p" -7.402512273713088e-07
"vdd" 1.200000000000000e+00
"vss" 0.000000000000000e+00
"time" 5.195802163417943e-11
"in0" 0.000000000000000e+00
"in1" 0.000000000000000e+00
"net13" -3.202705961241838e-01
"out" 1.190860868025409e+00
"V0:p" 9.386580401751745e-07
"V1:p" 1.005904145521683e-06
"VDD:p" -1.367642544345459e-06
"VSS:p" -5.769196413534323e-07
"vdd" 1.200000000000000e+00
"vss" 0.000000000000000e+00
"time" 5.395802163417943e-11
"in0" 0.000000000000000e+00
"in1" 0.000000000000000e+00
"net13" -3.172684572742749e-01
"out" 1.192043217386591e+00
"V0:p" 8.891688393235903e-07
"V1:p" 1.043631489124857e-06
"VDD:p" -1.282242078790429e-06
"VSS:p" -6.505582496557477e-07
"vdd" 1.200000000000000e+00
"vss" 0.000000000000000e+00
"time" 5.595802163417943e-11
"in0" 0.000000000000000e+00
"in1" 0.000000000000000e+00
"net13" -3.144362174585864e-01
"out" 1.193039873137629e+00
"V0:p" 7.608621987499960e-07
"V1:p" 7.945765905431448e-07
"VDD:p" -1.057598711866675e-06
"VSS:p" -4.978400774286813e-07
"vdd" 1.200000000000000e+00
"vss" 0.000000000000000e+00
"time" 5.795802163417943e-11
"in0" 0.000000000000000e+00
"in1" 0.000000000000000e+00
"net13" -3.117560844432468e-01
"out" 1.193881277096940e+00
"V0:p" 7.365437902305224e-07
"V1:p" 8.631282674012398e-07
"VDD:p" -1.019308641848974e-06
"VSS:p" -5.803634157806140e-07
"vdd" 1.200000000000000e+00
"vss" 0.000000000000000e+00
"time" 5.995802163417943e-11
"in0" 0.000000000000000e+00
"in1" 0.000000000000000e+00
"net13" -3.092127989460660e-01
"out" 1.194592868200369e+00
"V0:p" 6.293731755280139e-07
"V1:p" 6.399414187066164e-07
"VDD:p" -8.341665950156985e-07
"VSS:p" -4.351479992216697e-07
"vdd" 1.200000000000000e+00
"vss" 0.000000000000000e+00
"time" 6.195802163417943e-11
"in0" 0.000000000000000e+00
"in1" 0.000000000000000e+00
"net13" -3.067932030784724e-01
"out" 1.195195886072111e+00
"V0:p" 6.228377935084467e-07
"V1:p" 7.302274576031767e-07
"VDD:p" -8.290066938221554e-07
"VSS:p" -5.240585572870014e-07
"vdd" 1.200000000000000e+00
"vss" 0.000000000000000e+00
"time" 6.395802163417944e-11
"in0" 0.000000000000000e+00
"in1" 0.000000000000000e+00
"net13" -3.044858924186407e-01
"out" 1.195708052965273e+00
"V0:p" 5.306602340042852e-07
"V1:p" 5.253263790715117e-07
"VDD:p" -6.716649615974164e-07
"VSS:p" -3.843216514805761e-07
"vdd" 1.200000000000000e+00
"vss" 0.000000000000000e+00
"time" 6.595802163417944e-11
"in0" 0.000000000000000e+00
"in1" 0.000000000000000e+00
"net13" -3.022809335839652e-01
"out" 1.196144149921194e+00
"V0:p" 5.367934872827913e-07
"V1:p" 6.310200492134902e-07
"VDD:p" -6.898494334543959e-07
"VSS:p" -4.779641030396293e-07
"vdd" 1.200000000000000e+00
"vss" 0.000000000000000e+00
"time" 6.795802163417945e-11
"in0" 0.000000000000000e+00
"in1" 0.000000000000000e+00
"net13" -3.001696335520878e-01
"out" 1.196516501848969e+00
"V0:p" 4.553455114312652e-07
"V1:p" 4.391233718612044e-07
"VDD:p" -5.521282225874102e-07
"VSS:p" -3.423406607078444e-07
"vdd" 1.200000000000000e+00
"vss" 0.000000000000000e+00
"time" 6.995802163417946e-11
"in0" 0.000000000000000e+00
"in1" 0.000000000000000e+00
"net13" -2.981443501849411e-01
"out" 1.196835384776917e+00
"V0:p" 4.705886062923270e-07
"V1:p" 5.558135373660256e-07
"VDD:p" -5.868217475176150e-07
"VSS:p" -4.395803961379053e-07
"vdd" 1.200000000000000e+00
"vss" 0.000000000000000e+00
"time" 7.195802163417946e-11
"in0" 0.000000000000000e+00
"in1" 0.000000000000000e+00
"net13" -2.961983357874270e-01
"out" 1.197109366989533e+00
"V0:p" 3.968955518470145e-07
"V1:p" 3.732345185084282e-07
"VDD:p" -4.630097800278029e-07
"VSS:p" -3.071202903303638e-07
"vdd" 1.200000000000000e+00
"vss" 0.000000000000000e+00
"time" 7.395802163417947e-11
"in0" 0.000000000000000e+00
"in1" 0.000000000000000e+00
"net13" -2.943256073172317e-01
"out" 1.197345594259741e+00
"V0:p" 4.187584821552901e-07
"V1:p" 4.978374432794987e-07
"VDD:p" -5.094398592081930e-07
"VSS:p" -4.071560662233772e-07
"vdd" 1.200000000000000e+00
