HEADER
"PSFversion" "1.00"
"simulator" "spectre"
"version" "19.1.0.237.isr3"
"date" "11:33:35 PM, Fri Sep 9, 2022"
"design" "// Generated for: spectre"
"analysis type" "tran"
"analysis name" "sim"
"analysis description" "Transient Analysis `sim': time = (0 s -> 100 ps)"
"xVecSorted" "ascending"
"tolerance.relative" 0.00100000
"start" 0.00000
"outputstart" 0.00000
"stop" 1.00000e-10
"step" 1.00000e-13
"istep" 0.00100000
"maxstep" 2.00000e-12
"ic" "all"
"useprevic" "no"
"skipdc" "no"
"reltol" 0.00100000
"abstol(V)" 1.00000e-06
"abstol(I)" 1.00000e-12
"temp" 27.0000
"tnom" 27.0000
"tempeffects" "all"
"errpreset" "moderate"
"method" "traponly"
"lteratio" 3.50000
"relref" "sigglobal"
"cmin" 0.00000
"gmin" 1.00000e-12
TYPE
"sweep" FLOAT DOUBLE PROP(
"key" "sweep"
)
"LogicV" FLOAT DOUBLE PROP(
"key" "node"
)
"Tau" FLOAT DOUBLE PROP(
"units" "N*m"
"key" "node"
"tolerance" 1.00000e-06
)
"Alpha" FLOAT DOUBLE PROP(
"units" "rads/s^2"
"key" "node"
"tolerance" 1.00000e-06
)
"Omega" FLOAT DOUBLE PROP(
"units" "rads/s"
"key" "node"
"tolerance" 1.00000e-06
)
"Theta" FLOAT DOUBLE PROP(
"units" "rads"
"key" "node"
"tolerance" 1.00000e-06
)
"F" FLOAT DOUBLE PROP(
"units" "N"
"key" "node"
"tolerance" 1.00000e-06
)
"Imp" FLOAT DOUBLE PROP(
"units" "m/s^3"
"key" "node"
"tolerance" 1.00000e-06
)
"Acc" FLOAT DOUBLE PROP(
"units" "m/s^2"
"key" "node"
"tolerance" 1.00000e-06
)
"Vel" FLOAT DOUBLE PROP(
"units" "m/s"
"key" "node"
"tolerance" 1.00000e-06
)
"Pos" FLOAT DOUBLE PROP(
"units" "m"
"key" "node"
"tolerance" 1.00000e-06
)
"Phi" FLOAT DOUBLE PROP(
"units" "Wb"
"key" "node"
"tolerance" 1.00000e-09
)
"V" FLOAT DOUBLE PROP(
"units" "V"
"key" "node"
"tolerance" 1.00000e-06
)
"I" FLOAT DOUBLE PROP(
"units" "A"
"key" "branch"
"tolerance" 1.00000e-12
)
"MMF" FLOAT DOUBLE PROP(
"units" "A*turn"
"key" "node"
"tolerance" 1.00000e-12
)
"Wb" FLOAT DOUBLE PROP(
"units" "Wb"
"key" "node"
"tolerance" 1.00000e-09
)
"Temp" FLOAT DOUBLE PROP(
"units" "C"
"key" "node"
"tolerance" 0.000100000
)
"Pwr" FLOAT DOUBLE PROP(
"units" "W"
"key" "node"
"tolerance" 1.00000e-09
)
"U" FLOAT DOUBLE PROP(
"units" ""
"key" "node"
"tolerance" 1.00000e-06
)
"V/Sec" FLOAT DOUBLE PROP(
"units" "V/s"
"key" "node"
"tolerance" 0.000100000
)
"I/Sec" FLOAT DOUBLE PROP(
"units" "A/s"
"key" "node"
"tolerance" 1.00000e-06
)
"1/Sec" FLOAT DOUBLE PROP(
"units" "1/s"
"key" "node"
"tolerance" 0.000100000
)
"HOD" FLOAT DOUBLE PROP(
"units" ""
"key" "node"
"tolerance" 0.0100000
)
"Q" FLOAT DOUBLE PROP(
"units" "coul"
"key" "node"
"tolerance" 1.00000e-14
)
SWEEP
"time" "sweep" PROP(
"sweep_direction" 0
"units" "s"
"plot" 0
"grid" 1
)
TRACE
"in" "V"
"out" "V"
"V0:p" "I"
"VDD:p" "I"
"VSS:p" "I"
"vdd" "V"
"vss" "V"
VALUE
"time" 0.000000000000000e+00
"in" 1.200000000000000e+00
"out" 1.965155541026442e-06
"V0:p" -1.062004688439810e-11
"VDD:p" -1.002513471866062e-09
"VSS:p" 1.013133486429285e-09
"vdd" 1.200000000000000e+00
"vss" 0.000000000000000e+00
"time" 1.000000000000000e-13
"in" 1.200000000000000e+00
"out" -2.239165009349987e-03
"V0:p" -1.188711692037944e-05
"VDD:p" -5.920429741442149e-06
"VSS:p" 1.780754666182376e-05
"vdd" 1.200000000000000e+00
"vss" 0.000000000000000e+00
"time" 2.917343921650014e-13
"in" 1.200000000000000e+00
"out" -1.391919637311215e-02
"V0:p" -3.233685768263909e-05
"VDD:p" -1.607271598032553e-05
"VSS:p" 4.840957366296527e-05
"vdd" 1.200000000000000e+00
"vss" 0.000000000000000e+00
"time" 6.752031764950042e-13
"in" 1.200000000000000e+00
"out" -5.049834551740617e-02
"V0:p" -6.928637744759588e-05
"VDD:p" -3.398001123348636e-05
"VSS:p" 1.032663886810840e-04
"vdd" 1.200000000000000e+00
"vss" 0.000000000000000e+00
"time" 8.376015882475021e-13
"in" 1.200000000000000e+00
"out" -7.358265445411444e-02
"V0:p" -8.291286808519662e-05
"VDD:p" -4.001246918271958e-05
"VSS:p" 1.229253372679136e-04
"vdd" 1.200000000000000e+00
"vss" 0.000000000000000e+00
"time" 1.000000000000000e-12
"in" 1.200000000000000e+00
"out" -1.005011746630022e-01
"V0:p" -9.524844509165225e-05
"VDD:p" -4.575599907455607e-05
"VSS:p" 1.410044441662087e-04
"vdd" 1.200000000000000e+00
"vss" 0.000000000000000e+00
"time" 1.324796823504996e-12
"in" 1.200000000000000e+00
"out" -1.490121503078319e-01
"V0:p" -8.073195731088888e-05
"VDD:p" -3.830448011408802e-05
"VSS:p" 1.190364374249773e-04
"vdd" 1.200000000000000e+00
"vss" 0.000000000000000e+00
"time" 1.584980713942455e-12
"in" 1.200000000000000e+00
"out" -1.851746669076342e-01
"V0:p" -7.051335002309568e-05
"VDD:p" -3.228942930363140e-05
"VSS:p" 1.028027793267262e-04
"vdd" 1.200000000000000e+00
"vss" 0.000000000000000e+00
"time" 2.098318696597104e-12
"in" 1.200000000000000e+00
"out" -2.432774691141490e-01
"V0:p" -5.354400512318096e-05
"VDD:p" -2.459414634232972e-05
"VSS:p" 7.813815146551014e-05
"vdd" 1.200000000000000e+00
"vss" 0.000000000000000e+00
"time" 2.685672762745518e-12
"in" 1.200000000000000e+00
"out" -2.929646568114788e-01
"V0:p" -3.992190596624129e-05
"VDD:p" -1.741589896782538e-05
"VSS:p" 5.733780493406742e-05
"vdd" 1.200000000000000e+00
"vss" 0.000000000000000e+00
"time" 3.495792878028587e-12
"in" 1.200000000000000e+00
"out" -3.412072450269188e-01
"V0:p" -2.631089645536895e-05
"VDD:p" -1.184980623950325e-05
"VSS:p" 3.816070269487099e-05
"vdd" 1.200000000000000e+00
"vss" 0.000000000000000e+00
"time" 4.376933444650522e-12
"in" 1.200000000000000e+00
"out" -3.755854793253022e-01
"V0:p" -1.730216376962829e-05
"VDD:p" -7.159044091816140e-06
"VSS:p" 2.446120786144511e-05
"vdd" 1.200000000000000e+00
"vss" 0.000000000000000e+00
"time" 5.188466722325261e-12
"in" 1.200000000000000e+00
"out" -3.963676352581673e-01
"V0:p" -1.140998679263247e-05
"VDD:p" -5.246844335584234e-06
"VSS:p" 1.665683112821582e-05
"vdd" 1.200000000000000e+00
"vss" 0.000000000000000e+00
"time" 5.999999999999999e-12
"in" 1.200000000000000e+00
"out" -4.103861994587638e-01
"V0:p" -7.991008682465813e-06
"VDD:p" -3.092561087433808e-06
"VSS:p" 1.108356976990158e-05
"vdd" 1.200000000000000e+00
"vss" 0.000000000000000e+00
"time" 6.436122877405168e-12
"in" 1.200000000000000e+00
"out" -4.081058354606879e-01
"V0:p" 2.943237663894060e-06
"VDD:p" 1.251494486115366e-06
"VSS:p" -4.194732150010633e-06
"vdd" 1.200000000000000e+00
"vss" 0.000000000000000e+00
"time" 7.208211472941659e-12
"in" 1.200000000000000e+00
"out" -3.930124418556928e-01
"V0:p" 1.900979336186665e-05
"VDD:p" 8.177155117722782e-06
"VSS:p" -2.718694847958922e-05
"vdd" 1.200000000000000e+00
"vss" 0.000000000000000e+00
"time" 8.188433171747084e-12
"in" 1.200000000000000e+00
"out" -3.481086730921865e-01
"V0:p" 3.227379533327008e-05
"VDD:p" 1.406781201945177e-05
"VSS:p" -4.634160735272188e-05
"vdd" 1.200000000000000e+00
"vss" 0.000000000000000e+00
"time" 9.451168952714614e-12
"in" 1.200000000000000e+00
"out" -2.644252149763706e-01
"V0:p" 4.135123167384243e-05
"VDD:p" 1.855099767512322e-05
"VSS:p" -5.990222934896592e-05
"vdd" 1.200000000000000e+00
"vss" 0.000000000000000e+00
"time" 1.022558447635731e-11
"in" 1.200000000000000e+00
"out" -2.045321209213379e-01
"V0:p" 4.368353507141666e-05
"VDD:p" 2.013099814947477e-05
"VSS:p" -6.381453322089154e-05
"vdd" 1.200000000000000e+00
"vss" 0.000000000000000e+00
"time" 1.100000000000000e-11
"in" 1.200000000000000e+00
"out" -1.417249113045522e-01
"V0:p" 4.465616308134912e-05
"VDD:p" 2.099949829644173e-05
"VSS:p" -6.565566137778966e-05
"vdd" 1.200000000000000e+00
"vss" 0.000000000000000e+00
"time" 1.150455794637433e-11
"in" 1.200000000000000e+00
"out" -1.093368794208730e-01
"V0:p" 3.470850478428424e-05
"VDD:p" 1.645196657598885e-05
"VSS:p" -5.116047136027287e-05
"vdd" 1.200000000000000e+00
"vss" 0.000000000000000e+00
"time" 1.222778382813011e-11
"in" 1.200000000000000e+00
"out" -7.082424488398995e-02
"V0:p" 2.255650557928210e-05
"VDD:p" 1.107796079830191e-05
"VSS:p" -3.363446637758324e-05
"vdd" 1.200000000000000e+00
"vss" 0.000000000000000e+00
"time" 1.332989866118463e-11
"in" 1.200000000000000e+00
"out" -3.567853405216629e-02
"V0:p" 1.154544200583972e-05
"VDD:p" 5.551659317480698e-06
"VSS:p" -1.709710132332123e-05
"vdd" 1.200000000000000e+00
"vss" 0.000000000000000e+00
"time" 1.466981431059263e-11
"in" 1.200000000000000e+00
"out" -1.507690971653480e-02
"V0:p" 4.841911989551933e-06
"VDD:p" 2.507793985079782e-06
"VSS:p" -7.349705974630801e-06
"vdd" 1.200000000000000e+00
"vss" 0.000000000000000e+00
"time" 1.589684960603520e-11
"in" 1.200000000000000e+00
"out" -6.869426269236895e-03
"V0:p" 2.272330696822065e-06
"VDD:p" 1.009087945843894e-06
"VSS:p" -3.281418642666500e-06
"vdd" 1.200000000000000e+00
"vss" 0.000000000000000e+00
"time" 1.735989307845664e-11
"in" 1.200000000000000e+00
"out" -2.623575215280606e-03
"V0:p" 8.114868174606365e-07
"VDD:p" 5.178679196494015e-07
"VSS:p" -1.329354737109172e-06
"vdd" 1.200000000000000e+00
"vss" 0.000000000000000e+00
"time" 1.916484315795162e-11
"in" 1.200000000000000e+00
"out" -7.550463824950492e-04
"V0:p" 2.879504034830153e-07
"VDD:p" 2.602720136791865e-08
"VSS:p" -3.139776048518555e-07
"vdd" 1.200000000000000e+00
"vss" 0.000000000000000e+00
"time" 2.116484315795162e-11
"in" 1.200000000000000e+00
"out" -1.798521177635891e-04
"V0:p" 1.743971859934306e-08
"VDD:p" 1.236495569182222e-07
"VSS:p" -1.410892755168599e-07
"vdd" 1.200000000000000e+00
"vss" 0.000000000000000e+00
"time" 2.316484315795162e-11
"in" 1.200000000000000e+00
"out" -4.174807561497531e-05
"V0:p" 5.583779380668954e-08
"VDD:p" -8.921108280465377e-08
"VSS:p" 3.337328899704211e-08
"vdd" 1.200000000000000e+00
"vss" 0.000000000000000e+00
"time" 2.516484315795162e-11
"in" 1.200000000000000e+00
"out" -8.561539128045133e-06
"V0:p" -3.825343893363385e-08
"VDD:p" 9.597011208640320e-08
"VSS:p" -5.771667315195625e-08
"vdd" 1.200000000000000e+00
"vss" 0.000000000000000e+00
"time" 2.716484315795162e-11
"in" 1.200000000000000e+00
"out" -5.715672230878813e-07
"V0:p" 4.247009300121899e-08
"VDD:p" -9.586444279074092e-08
"VSS:p" 5.339434978881709e-08
"vdd" 1.200000000000000e+00
"vss" 0.000000000000000e+00
"time" 2.916484315795161e-11
"in" 1.200000000000000e+00
"out" 1.353753812398104e-06
"V0:p" -4.147018677826202e-08
"VDD:p" 9.436806284949736e-08
"VSS:p" -5.289787607015103e-08
"vdd" 1.200000000000000e+00
"vss" 0.000000000000000e+00
"time" 3.116484315795161e-11
"in" 1.200000000000000e+00
"out" 1.901020815221841e-06
"V0:p" 4.174825122533021e-08
"VDD:p" -9.622850508893347e-08
"VSS:p" 5.448025386251895e-08
"vdd" 1.200000000000000e+00
"vss" 0.000000000000000e+00
"time" 3.316484315795161e-11
"in" 1.200000000000000e+00
"out" 1.946880000513404e-06
"V0:p" -4.174547550589706e-08
"VDD:p" 9.423559384306420e-08
"VSS:p" -5.249011833611005e-08
"vdd" 1.200000000000000e+00
"vss" 0.000000000000000e+00
"time" 3.516484315795161e-11
"in" 1.200000000000000e+00
"out" 1.959949901492635e-06
"V0:p" 4.173107998222066e-08
"VDD:p" -9.623716780412254e-08
"VSS:p" 5.450608782084478e-08
"vdd" 1.200000000000000e+00
"vss" 0.000000000000000e+00
"time" 3.716484315795161e-11
"in" 1.200000000000000e+00
"out" 1.963674858229247e-06
"V0:p" -4.175036931124223e-08
"VDD:p" 9.423312497235504e-08
"VSS:p" -5.248275566002861e-08
"vdd" 1.200000000000000e+00
"vss" 0.000000000000000e+00
"time" 3.916484315795161e-11
"in" 1.200000000000000e+00
"out" 1.964736455819502e-06
"V0:p" 4.172968522363212e-08
"VDD:p" -9.623787144855580e-08
"VSS:p" 5.450818622337864e-08
"vdd" 1.200000000000000e+00
"vss" 0.000000000000000e+00
"time" 4.116484315795161e-11
"in" 1.200000000000000e+00
"out" 1.965039006608995e-06
"V0:p" -4.175076681188652e-08
"VDD:p" 9.423292443701975e-08
"VSS:p" -5.248215762377798e-08
"vdd" 1.200000000000000e+00
"vss" 0.000000000000000e+00
"time" 4.316484315795161e-11
"in" 1.200000000000000e+00
"out" 1.965125232376192e-06
"V0:p" 4.172957193782897e-08
"VDD:p" -9.623792860011159e-08
"VSS:p" 5.450835666106284e-08
"vdd" 1.200000000000000e+00
"vss" 0.000000000000000e+00
"time" 4.516484315795161e-11
"in" 1.200000000000000e+00
"out" 1.965149806331487e-06
"V0:p" -4.175079909795105e-08
"VDD:p" 9.423290814862551e-08
"VSS:p" -5.248210904956305e-08
"vdd" 1.200000000000000e+00
"vss" 0.000000000000000e+00
"time" 4.716484315795161e-11
"in" 1.200000000000000e+00
"out" 1.965156810157358e-06
"V0:p" 4.172956273671309e-08
"VDD:p" -9.623793324230689e-08
"VSS:p" 5.450837050450960e-08
"vdd" 1.200000000000000e+00
"vss" 0.000000000000000e+00
"time" 4.916484315795161e-11
"in" 1.200000000000000e+00
"out" 1.965158806266821e-06
"V0:p" -4.175080172062112e-08
"VDD:p" 9.423290682574153e-08
"VSS:p" -5.248210510398189e-08
"vdd" 1.200000000000000e+00
"vss" 0.000000000000000e+00
"time" 5.116484315795161e-11
"in" 1.200000000000000e+00
"out" 1.965159374636784e-06
"V0:p" 4.172956198920223e-08
"VDD:p" -9.623793361901463e-08
"VSS:p" 5.450837162861983e-08
"vdd" 1.200000000000000e+00
"vss" 0.000000000000000e+00
"time" 5.316484315795161e-11
"in" 1.200000000000000e+00
"out" 1.965159536684605e-06
"V0:p" -4.175080193339887e-08
"VDD:p" 9.423290671796241e-08
"VSS:p" -5.248210478358770e-08
"vdd" 1.200000000000000e+00
"vss" 0.000000000000000e+00
"time" 5.516484315795161e-11
"in" 1.200000000000000e+00
"out" 1.965159583174815e-06
"V0:p" 4.172956192845128e-08
"VDD:p" -9.623793364949691e-08
"VSS:p" 5.450837172004285e-08
"vdd" 1.200000000000000e+00
"vss" 0.000000000000000e+00
"time" 5.716484315795161e-11
"in" 1.200000000000000e+00
"out" 1.965159596178858e-06
"V0:p" -4.175080195054710e-08
"VDD:p" 9.423290670885532e-08
"VSS:p" -5.248210475754933e-08
"vdd" 1.200000000000000e+00
"vss" 0.000000000000000e+00
"time" 5.916484315795161e-11
"in" 1.200000000000000e+00
"out" 1.965159599570781e-06
"V0:p" 4.172956192323451e-08
"VDD:p" -9.623793365148744e-08
"VSS:p" 5.450837172716868e-08
"vdd" 1.200000000000000e+00
"vss" 0.000000000000000e+00
"time" 6.116484315795162e-11
"in" 1.200000000000000e+00
"out" 1.965159601095752e-06
"V0:p" -4.175080195152352e-08
"VDD:p" 9.423290670819209e-08
"VSS:p" -5.248210475525906e-08
"vdd" 1.200000000000000e+00
"vss" 0.000000000000000e+00
"time" 6.316484315795163e-11
"in" 1.200000000000000e+00
"out" 1.965159601348558e-06
"V0:p" 4.172956192275291e-08
"VDD:p" -9.623793365178305e-08
"VSS:p" 5.450837172778330e-08
"vdd" 1.200000000000000e+00
"vss" 0.000000000000000e+00
"time" 6.516484315795163e-11
"in" 1.200000000000000e+00
"out" 1.965159601495836e-06
"V0:p" -4.175080195182443e-08
"VDD:p" 9.423290670786345e-08
"VSS:p" -5.248210475492771e-08
"vdd" 1.200000000000000e+00
"vss" 0.000000000000000e+00
"time" 6.716484315795164e-11
"in" 1.200000000000000e+00
"out" 1.965159601552266e-06
"V0:p" 4.172956192266593e-08
"VDD:p" -9.623793365161100e-08
"VSS:p" 5.450837172775249e-08
"vdd" 1.200000000000000e+00
"vss" 0.000000000000000e+00
"time" 6.916484315795164e-11
"in" 1.200000000000000e+00
"out" 1.965159601532529e-06
"V0:p" -4.175080195177715e-08
"VDD:p" 9.423290670788441e-08
"VSS:p" -5.248210475486037e-08
"vdd" 1.200000000000000e+00
"vss" 0.000000000000000e+00
"time" 7.116484315795165e-11
"in" 1.200000000000000e+00
"out" 1.965159601451308e-06
"V0:p" 4.172956192266593e-08
"VDD:p" -9.623793365161100e-08
"VSS:p" 5.450837172769828e-08
"vdd" 1.200000000000000e+00
"vss" 0.000000000000000e+00
"time" 7.316484315795166e-11
"in" 1.200000000000000e+00
"out" 1.965159601553673e-06
"V0:p" -4.175080195165651e-08
"VDD:p" 9.423290670794529e-08
"VSS:p" -5.248210475487927e-08
"vdd" 1.200000000000000e+00
"vss" 0.000000000000000e+00
"time" 7.516484315795166e-11
"in" 1.200000000000000e+00
"out" 1.965159601131617e-06
"V0:p" 4.172956192239589e-08
"VDD:p" -9.623793365147674e-08
"VSS:p" 5.450837172750876e-08
"vdd" 1.200000000000000e+00
"vss" 0.000000000000000e+00
"time" 7.716484315795167e-11
"in" 1.200000000000000e+00
"out" 1.965159601582165e-06
"V0:p" -4.175080195127005e-08
"VDD:p" 9.423290670759907e-08
"VSS:p" -5.248210475483819e-08
"vdd" 1.200000000000000e+00
"vss" 0.000000000000000e+00
"time" 7.916484315795167e-11
"in" 1.200000000000000e+00
"out" 1.965159601497878e-06
"V0:p" 4.172956192202960e-08
"VDD:p" -9.623793365122782e-08
"VSS:p" 5.450837172773449e-08
"vdd" 1.200000000000000e+00
"vss" 0.000000000000000e+00
"time" 8.116484315795168e-11
"in" 1.200000000000000e+00
"out" 1.965159601433770e-06
"V0:p" -4.175080195106051e-08
"VDD:p" 9.423290670759345e-08
"VSS:p" -5.248210475501506e-08
"vdd" 1.200000000000000e+00
"vss" 0.000000000000000e+00
"time" 8.316484315795169e-11
"in" 1.200000000000000e+00
"out" 1.965159601444295e-06
"V0:p" 4.172956192192785e-08
"VDD:p" -9.623793365127526e-08
"VSS:p" 5.450837172774826e-08
"vdd" 1.200000000000000e+00
"vss" 0.000000000000000e+00
"time" 8.516484315795169e-11
"in" 1.200000000000000e+00
"out" 1.965159601544137e-06
"V0:p" -4.175080195101821e-08
"VDD:p" 9.423290670755915e-08
"VSS:p" -5.248210475491458e-08
"vdd" 1.200000000000000e+00
"vss" 0.000000000000000e+00
"time" 8.716484315795170e-11
"in" 1.200000000000000e+00
"out" 1.965159601517585e-06
"V0:p" 4.172956192200318e-08
"VDD:p" -9.623793365123820e-08
"VSS:p" 5.450837172777139e-08
"vdd" 1.200000000000000e+00
"vss" 0.000000000000000e+00
"time" 8.916484315795170e-11
"in" 1.200000000000000e+00
"out" 1.965159601569935e-06
"V0:p" -4.175080195102679e-08
"VDD:p" 9.423290670760944e-08
"VSS:p" -5.248210475487503e-08
"vdd" 1.200000000000000e+00
"vss" 0.000000000000000e+00
"time" 9.116484315795171e-11
"in" 1.200000000000000e+00
"out" 1.965159601485479e-06
"V0:p" 4.172956192200318e-08
"VDD:p" -9.623793365134662e-08
"VSS:p" 5.450837172777139e-08
"vdd" 1.200000000000000e+00
"vss" 0.000000000000000e+00
"time" 9.316484315795172e-11
"in" 1.200000000000000e+00
"out" 1.965159601509287e-06
"V0:p" -4.175080195100598e-08
"VDD:p" 9.423290670772845e-08
"VSS:p" -5.248210475496058e-08
"vdd" 1.200000000000000e+00
"vss" 0.000000000000000e+00
"time" 9.516484315795172e-11
"in" 1.200000000000000e+00
"out" 1.965159601465426e-06
"V0:p" 4.172956192202404e-08
"VDD:p" -9.623793365144456e-08
"VSS:p" 5.450837172776716e-08
"vdd" 1.200000000000000e+00
"vss" 0.000000000000000e+00
"time" 9.716484315795173e-11
"in" 1.200000000000000e+00
"out" 1.965159601559192e-06
"V0:p" -4.175080195102679e-08
"VDD:p" 9.423290670771786e-08
"VSS:p" -5.248210475487503e-08
"vdd" 1.200000000000000e+00
"vss" 0.000000000000000e+00
"time" 9.858242157897587e-11
"in" 1.200000000000000e+00
"out" 1.965159601419000e-06
"V0:p" 4.172956192190188e-08
"VDD:p" -9.623793365139786e-08
"VSS:p" 5.450837172770697e-08
"vdd" 1.200000000000000e+00
"vss" 0.000000000000000e+00
"time" 1.000000000000000e-10
"in" 1.200000000000000e+00
"out" 1.965159601571408e-06
"V0:p" -4.175080195089989e-08
"VDD:p" 9.423290670783666e-08
"VSS:p" -5.248210475482257e-08
"vdd" 1.200000000000000e+00
"vss" 0.000000000000000e+00
END
