HEADER
"PSFversion" "1.00"
"simulator" "spectre"
"version" "19.1.0.237.isr3"
"date" "1:46:57 AM, Sat Sep 10, 2022"
"design" "// Generated for: spectre"
"analysis type" "tran"
"analysis name" "sim"
"analysis description" "Transient Analysis `sim': time = (0 s -> 100 ps)"
"xVecSorted" "ascending"
"tolerance.relative" 0.00100000
"start" 0.00000
"outputstart" 0.00000
"stop" 1.00000e-10
"step" 1.00000e-13
"istep" 0.00100000
"maxstep" 2.00000e-12
"ic" "all"
"useprevic" "no"
"skipdc" "no"
"reltol" 0.00100000
"abstol(V)" 1.00000e-06
"abstol(I)" 1.00000e-12
"temp" 27.0000
"tnom" 27.0000
"tempeffects" "all"
"errpreset" "moderate"
"method" "traponly"
"lteratio" 3.50000
"relref" "sigglobal"
"cmin" 0.00000
"gmin" 1.00000e-12
TYPE
"sweep" FLOAT DOUBLE PROP(
"key" "sweep"
)
"LogicV" FLOAT DOUBLE PROP(
"key" "node"
)
"Tau" FLOAT DOUBLE PROP(
"units" "N*m"
"key" "node"
"tolerance" 1.00000e-06
)
"Alpha" FLOAT DOUBLE PROP(
"units" "rads/s^2"
"key" "node"
"tolerance" 1.00000e-06
)
"Omega" FLOAT DOUBLE PROP(
"units" "rads/s"
"key" "node"
"tolerance" 1.00000e-06
)
"Theta" FLOAT DOUBLE PROP(
"units" "rads"
"key" "node"
"tolerance" 1.00000e-06
)
"F" FLOAT DOUBLE PROP(
"units" "N"
"key" "node"
"tolerance" 1.00000e-06
)
"Imp" FLOAT DOUBLE PROP(
"units" "m/s^3"
"key" "node"
"tolerance" 1.00000e-06
)
"Acc" FLOAT DOUBLE PROP(
"units" "m/s^2"
"key" "node"
"tolerance" 1.00000e-06
)
"Vel" FLOAT DOUBLE PROP(
"units" "m/s"
"key" "node"
"tolerance" 1.00000e-06
)
"Pos" FLOAT DOUBLE PROP(
"units" "m"
"key" "node"
"tolerance" 1.00000e-06
)
"Phi" FLOAT DOUBLE PROP(
"units" "Wb"
"key" "node"
"tolerance" 1.00000e-09
)
"V" FLOAT DOUBLE PROP(
"units" "V"
"key" "node"
"tolerance" 1.00000e-06
)
"I" FLOAT DOUBLE PROP(
"units" "A"
"key" "branch"
"tolerance" 1.00000e-12
)
"MMF" FLOAT DOUBLE PROP(
"units" "A*turn"
"key" "node"
"tolerance" 1.00000e-12
)
"Wb" FLOAT DOUBLE PROP(
"units" "Wb"
"key" "node"
"tolerance" 1.00000e-09
)
"Temp" FLOAT DOUBLE PROP(
"units" "C"
"key" "node"
"tolerance" 0.000100000
)
"Pwr" FLOAT DOUBLE PROP(
"units" "W"
"key" "node"
"tolerance" 1.00000e-09
)
"U" FLOAT DOUBLE PROP(
"units" ""
"key" "node"
"tolerance" 1.00000e-06
)
"V/Sec" FLOAT DOUBLE PROP(
"units" "V/s"
"key" "node"
"tolerance" 0.000100000
)
"I/Sec" FLOAT DOUBLE PROP(
"units" "A/s"
"key" "node"
"tolerance" 1.00000e-06
)
"1/Sec" FLOAT DOUBLE PROP(
"units" "1/s"
"key" "node"
"tolerance" 0.000100000
)
"HOD" FLOAT DOUBLE PROP(
"units" ""
"key" "node"
"tolerance" 0.0100000
)
"Q" FLOAT DOUBLE PROP(
"units" "coul"
"key" "node"
"tolerance" 1.00000e-14
)
SWEEP
"time" "sweep" PROP(
"sweep_direction" 0
"units" "s"
"plot" 0
"grid" 1
)
TRACE
"in0" "V"
"in1" "V"
"net13" "V"
"out" "V"
"V0:p" "I"
"V1:p" "I"
"VDD:p" "I"
"VSS:p" "I"
"vdd" "V"
"vss" "V"
VALUE
"time" 0.000000000000000e+00
"in0" 0.000000000000000e+00
"in1" 1.200000000000000e+00
"net13" 2.522254161175162e-07
"out" 1.199998608538689e+00
"V0:p" -2.292918816276842e-11
"V1:p" 3.016577400687568e-11
"VDD:p" -1.585927201598540e-10
"VSS:p" 1.513562509904299e-10
"vdd" 1.200000000000000e+00
"vss" 0.000000000000000e+00
"time" 1.000000000000000e-13
"in0" 0.000000000000000e+00
"in1" 1.200000000000000e+00
"net13" 1.306965959133809e-03
"out" 1.198937808225797e+00
"V0:p" 5.252240134184170e-06
"V1:p" -3.340256271895605e-06
"VDD:p" -6.793347995823763e-06
"VSS:p" 4.881364133532596e-06
"vdd" 1.200000000000000e+00
"vss" 0.000000000000000e+00
"time" 3.000000000000000e-13
"in0" 0.000000000000000e+00
"in1" 1.200000000000000e+00
"net13" 8.770315538879810e-03
"out" 1.192520954266488e+00
"V0:p" 1.489466637453728e-05
"V1:p" -1.079548728050461e-05
"VDD:p" -2.077226190967132e-05
"VSS:p" 1.667308281563865e-05
"vdd" 1.200000000000000e+00
"vss" 0.000000000000000e+00
"time" 6.961894878363963e-13
"in0" 0.000000000000000e+00
"in1" 1.200000000000000e+00
"net13" 3.250661639380317e-02
"out" 1.170949427380405e+00
"V0:p" 3.331131355260337e-05
"V1:p" -2.751608412625612e-05
"VDD:p" -4.919236927811807e-05
"VSS:p" 4.339713985177214e-05
"vdd" 1.200000000000000e+00
"vss" 0.000000000000000e+00
"time" 1.000000000000000e-12
"in0" 0.000000000000000e+00
"in1" 1.200000000000000e+00
"net13" 6.242827539538101e-02
"out" 1.142363967886333e+00
"V0:p" 4.357129458570233e-05
"V1:p" -4.007888260568466e-05
"VDD:p" -7.142626600480285e-05
"VSS:p" 6.793385402478956e-05
"vdd" 1.200000000000000e+00
"vss" 0.000000000000000e+00
"time" 1.513907516976887e-12
"in0" 0.000000000000000e+00
"in1" 1.200000000000000e+00
"net13" 1.129238080242851e-01
"out" 1.085434019386346e+00
"V0:p" 3.281436688210356e-05
"V1:p" -4.361551460172334e-05
"VDD:p" -7.524780081082596e-05
"VSS:p" 8.604894853044508e-05
"vdd" 1.200000000000000e+00
"vss" 0.000000000000000e+00
"time" 1.912224701393311e-12
"in0" 0.000000000000000e+00
"in1" 1.200000000000000e+00
"net13" 1.505571596758288e-01
"out" 1.040614746059492e+00
"V0:p" 2.204757716191758e-05
"V1:p" -4.249684935415216e-05
"VDD:p" -7.723185172400997e-05
"VSS:p" 9.768112391624669e-05
"vdd" 1.200000000000000e+00
"vss" 0.000000000000000e+00
"time" 2.486671235223638e-12
"in0" 0.000000000000000e+00
"in1" 1.200000000000000e+00
"net13" 1.985361631482028e-01
"out" 9.750968241753731e-01
"V0:p" 1.440040267672916e-05
"V1:p" -4.526480030395133e-05
"VDD:p" -8.117337458307455e-05
"VSS:p" 1.120377722102937e-04
"vdd" 1.200000000000000e+00
"vss" 0.000000000000000e+00
"time" 3.330891611157707e-12
"in0" 0.000000000000000e+00
"in1" 1.200000000000000e+00
"net13" 2.583847298823572e-01
"out" 8.752331899660918e-01
"V0:p" 1.252185799466667e-07
"V1:p" -4.195503240536711e-05
"VDD:p" -8.464561657391326e-05
"VSS:p" 1.264754303993354e-04
"vdd" 1.200000000000000e+00
"vss" 0.000000000000000e+00
"time" 4.634915614167927e-12
"in0" 0.000000000000000e+00
"in1" 1.200000000000000e+00
"net13" 3.308467219434230e-01
"out" 7.075720516885269e-01
"V0:p" -1.073544957035963e-05
"V1:p" -4.250674725480112e-05
"VDD:p" -8.858023798572471e-05
"VSS:p" 1.418224348108839e-04
"vdd" 1.200000000000000e+00
"vss" 0.000000000000000e+00
"time" 5.999999999999999e-12
"in0" 0.000000000000000e+00
"in1" 1.200000000000000e+00
"net13" 3.853036810006052e-01
"out" 5.232529695723289e-01
"V0:p" -1.767116596664067e-05
"V1:p" -4.475656934657498e-05
"VDD:p" -8.888661409062696e-05
"VSS:p" 1.513143494038450e-04
"vdd" 1.200000000000000e+00
"vss" 0.000000000000000e+00
"time" 6.463227959144916e-12
"in0" 0.000000000000000e+00
"in1" 1.200000000000000e+00
"net13" 3.922056655542683e-01
"out" 4.671863731308578e-01
"V0:p" -1.904908448483902e-05
"V1:p" -4.645322287795436e-05
"VDD:p" -8.458853232641172e-05
"VSS:p" 1.500908396892061e-04
"vdd" 1.200000000000000e+00
"vss" 0.000000000000000e+00
"time" 7.389683877434747e-12
"in0" 0.000000000000000e+00
"in1" 1.200000000000000e+00
"net13" 3.907377635588762e-01
"out" 3.680122580753123e-01
"V0:p" -2.285910620596495e-05
"V1:p" -4.767507145800884e-05
"VDD:p" -7.360842153137941e-05
"VSS:p" 1.441425991953520e-04
"vdd" 1.200000000000000e+00
"vss" 0.000000000000000e+00
"time" 8.877098343666528e-12
"in0" 0.000000000000000e+00
"in1" 1.200000000000000e+00
"net13" 3.371585298707038e-01
"out" 2.651391313426466e-01
"V0:p" -2.474763350710842e-05
"V1:p" -4.179944161982054e-05
"VDD:p" -5.850373910194603e-05
"VSS:p" 1.250508142288763e-04
"vdd" 1.200000000000000e+00
"vss" 0.000000000000000e+00
"time" 1.001512573157980e-11
"in0" 0.000000000000000e+00
"in1" 1.200000000000000e+00
"net13" 2.674504580949003e-01
"out" 2.354302564336585e-01
"V0:p" -2.782094862973491e-05
"V1:p" -2.612164960179866e-05
"VDD:p" -4.511309011722210e-05
"VSS:p" 9.905568834875479e-05
"vdd" 1.200000000000000e+00
"vss" 0.000000000000000e+00
"time" 1.100000000000000e-11
"in0" 0.000000000000000e+00
"in1" 1.200000000000000e+00
"net13" 2.001967344859110e-01
"out" 2.463617894115688e-01
"V0:p" -2.616785401190352e-05
"V1:p" -1.388440683045237e-05
"VDD:p" -3.398291382452117e-05
"VSS:p" 7.403517466687751e-05
"vdd" 1.200000000000000e+00
"vss" 0.000000000000000e+00
"time" 1.165985000723707e-11
"in0" 0.000000000000000e+00
"in1" 1.200000000000000e+00
"net13" 1.625137793021210e-01
"out" 2.665576132388014e-01
"V0:p" -2.186057893067048e-05
"V1:p" -7.122762494481716e-06
"VDD:p" -3.289295554443155e-05
"VSS:p" 6.187629696958365e-05
"vdd" 1.200000000000000e+00
"vss" 0.000000000000000e+00
"time" 1.258574339041548e-11
"in0" 0.000000000000000e+00
"in1" 1.200000000000000e+00
"net13" 1.180826550729115e-01
"out" 2.962370178679168e-01
"V0:p" -1.622985432514151e-05
"V1:p" 1.200917310592601e-06
"VDD:p" -3.157793033122002e-05
"VSS:p" 4.660686734577031e-05
"vdd" 1.200000000000000e+00
"vss" 0.000000000000000e+00
"time" 1.346386741772370e-11
"in0" 0.000000000000000e+00
"in1" 1.200000000000000e+00
"net13" 8.764655857710466e-02
"out" 3.259675036247059e-01
"V0:p" -9.275965220827811e-06
"V1:p" 4.089451032738500e-06
"VDD:p" -3.104171131786164e-05
"VSS:p" 3.622822550594835e-05
"vdd" 1.200000000000000e+00
"vss" 0.000000000000000e+00
"time" 1.509556023972275e-11
"in0" 0.000000000000000e+00
"in1" 1.200000000000000e+00
"net13" 5.093764343056595e-02
"out" 3.834952044745285e-01
"V0:p" -3.186179288365238e-06
"V1:p" 1.098000801288981e-05
"VDD:p" -2.964908497804523e-05
"VSS:p" 2.185525625352260e-05
"vdd" 1.200000000000000e+00
"vss" 0.000000000000000e+00
"time" 1.666943186338631e-11
"in0" 0.000000000000000e+00
"in1" 1.200000000000000e+00
"net13" 3.167302690570101e-02
"out" 4.403185647803681e-01
"V0:p" 2.496544270219356e-06
"V1:p" 1.193089319743315e-05
"VDD:p" -2.901375723751004e-05
"VSS:p" 1.458631976985633e-05
"vdd" 1.200000000000000e+00
"vss" 0.000000000000000e+00
"time" 1.859617156485544e-11
"in0" 0.000000000000000e+00
"in1" 1.200000000000000e+00
"net13" 1.934897047641664e-02
"out" 5.097516657276147e-01
"V0:p" 3.666438785641819e-06
"V1:p" 1.496348008285369e-05
"VDD:p" -2.769425286705801e-05
"VSS:p" 9.064333998563746e-06
"vdd" 1.200000000000000e+00
"vss" 0.000000000000000e+00
"time" 2.059617156485544e-11
"in0" 0.000000000000000e+00
"in1" 1.200000000000000e+00
"net13" 1.329141204805673e-02
"out" 5.800736511127776e-01
"V0:p" 6.218626493094045e-06
"V1:p" 1.358824658842054e-05
"VDD:p" -2.668006008462795e-05
"VSS:p" 6.873187003111888e-06
"vdd" 1.200000000000000e+00
"vss" 0.000000000000000e+00
"time" 2.259617156485544e-11
"in0" 0.000000000000000e+00
"in1" 1.200000000000000e+00
"net13" 1.030096070452432e-02
"out" 6.471249152650336e-01
"V0:p" 4.934741348280985e-06
"V1:p" 1.484623280535758e-05
"VDD:p" -2.491260167474346e-05
"VSS:p" 5.131627521105940e-06
"vdd" 1.200000000000000e+00
"vss" 0.000000000000000e+00
"time" 2.459617156485544e-11
"in0" 0.000000000000000e+00
"in1" 1.200000000000000e+00
"net13" 8.605778353466426e-03
"out" 7.096174402285704e-01
"V0:p" 6.170830680220709e-06
"V1:p" 1.254289389775579e-05
"VDD:p" -2.344241884414113e-05
"VSS:p" 4.728694266163543e-06
"vdd" 1.200000000000000e+00
"vss" 0.000000000000000e+00
"time" 2.659617156485544e-11
"in0" 0.000000000000000e+00
"in1" 1.200000000000000e+00
"net13" 7.432164723040185e-03
"out" 7.665009147426837e-01
"V0:p" 4.209551504594095e-06
"V1:p" 1.341164710601362e-05
"VDD:p" -2.135079669882178e-05
"VSS:p" 3.729598088214774e-06
"vdd" 1.200000000000000e+00
"vss" 0.000000000000000e+00
"time" 2.859617156485544e-11
"in0" 0.000000000000000e+00
"in1" 1.200000000000000e+00
"net13" 6.468923383951269e-03
"out" 8.171748557153953e-01
"V0:p" 5.130733108346721e-06
"V1:p" 1.101366075938709e-05
"VDD:p" -1.977037973174525e-05
"VSS:p" 3.625985864010724e-06
"vdd" 1.200000000000000e+00
"vss" 0.000000000000000e+00
"time" 3.059617156485544e-11
"in0" 0.000000000000000e+00
"in1" 1.200000000000000e+00
"net13" 5.621480880254756e-03
"out" 8.617269732069851e-01
"V0:p" 3.118634799763381e-06
"V1:p" 1.187610566976744e-05
"VDD:p" -1.776854076413621e-05
"VSS:p" 2.773800294606700e-06
"vdd" 1.200000000000000e+00
"vss" 0.000000000000000e+00
"time" 3.259617156485544e-11
"in0" 0.000000000000000e+00
"in1" 1.200000000000000e+00
"net13" 4.878314331283949e-03
"out" 9.007777811994659e-01
"V0:p" 4.144491791149302e-06
"V1:p" 9.457686008145683e-06
"VDD:p" -1.638804917554206e-05
"VSS:p" 2.785871376246155e-06
"vdd" 1.200000000000000e+00
"vss" 0.000000000000000e+00
"time" 3.459617156485544e-11
"in0" 0.000000000000000e+00
"in1" 1.200000000000000e+00
"net13" 4.239218328196692e-03
"out" 9.350918805206179e-01
"V0:p" 2.274018907584637e-06
"V1:p" 1.029375906414099e-05
"VDD:p" -1.461477123257291e-05
"VSS:p" 2.046993260848152e-06
"vdd" 1.200000000000000e+00
"vss" 0.000000000000000e+00
"time" 3.659617156485544e-11
"in0" 0.000000000000000e+00
"in1" 1.200000000000000e+00
"net13" 3.695574383751105e-03
"out" 9.653521995424987e-01
"V0:p" 3.422082925570547e-06
"V1:p" 7.871775822831928e-06
"VDD:p" -1.345912047247504e-05
"VSS:p" 2.165261724071700e-06
"vdd" 1.200000000000000e+00
"vss" 0.000000000000000e+00
"time" 3.859617156485544e-11
"in0" 0.000000000000000e+00
"in1" 1.200000000000000e+00
"net13" 3.233299502902783e-03
"out" 9.921144856100734e-01
"V0:p" 1.646877165001456e-06
"V1:p" 8.736378965853514e-06
"VDD:p" -1.190193742523683e-05
"VSS:p" 1.518681294383382e-06
"vdd" 1.200000000000000e+00
"vss" 0.000000000000000e+00
"time" 4.059617156485544e-11
"in0" 0.000000000000000e+00
"in1" 1.200000000000000e+00
"net13" 2.837972667462846e-03
"out" 1.015827308958989e+00
"V0:p" 2.870035004086319e-06
"V1:p" 6.370994450675599e-06
"VDD:p" -1.095471017869325e-05
"VSS:p" 1.713680723929812e-06
"vdd" 1.200000000000000e+00
"vss" 0.000000000000000e+00
"time" 4.259617156485544e-11
"in0" 0.000000000000000e+00
"in1" 1.200000000000000e+00
"net13" 2.497283139971233e-03
"out" 1.036859948758907e+00
"V0:p" 1.156541865762471e-06
"V1:p" 7.312384697697729e-06
"VDD:p" -9.598862437868557e-06
"VSS:p" 1.129935874409441e-06
"vdd" 1.200000000000000e+00
"vss" 0.000000000000000e+00
"time" 4.459617156485544e-11
"in0" 0.000000000000000e+00
"in1" 1.200000000000000e+00
"net13" 2.201504231202502e-03
"out" 1.055523799169172e+00
"V0:p" 2.432401675112161e-06
"V1:p" 5.036422810798296e-06
"VDD:p" -8.845379018443056e-06
"VSS:p" 1.376554532531516e-06
"vdd" 1.200000000000000e+00
"vss" 0.000000000000000e+00
"time" 4.659617156485543e-11
"in0" 0.000000000000000e+00
"in1" 1.200000000000000e+00
"net13" 1.943149527447527e-03
"out" 1.072086787019803e+00
"V0:p" 7.651187858969422e-07
"V1:p" 6.073816474997844e-06
"VDD:p" -7.674659483469815e-06
"VSS:p" 8.357242225763294e-07
"vdd" 1.200000000000000e+00
"vss" 0.000000000000000e+00
"time" 4.859617156485543e-11
"in0" 0.000000000000000e+00
"in1" 1.200000000000000e+00
"net13" 1.716446151504394e-03
"out" 1.086782842770517e+00
"V0:p" 2.082137506671588e-06
"V1:p" 3.895944810232067e-06
"VDD:p" -7.096622793295889e-06
"VSS:p" 1.118540476390935e-06
"vdd" 1.200000000000000e+00
"vss" 0.000000000000000e+00
"time" 5.059617156485543e-11
"in0" 0.000000000000000e+00
"in1" 1.200000000000000e+00
"net13" 1.516867025839062e-03
"out" 1.099818232169006e+00
"V0:p" 4.518233410431931e-07
"V1:p" 5.030331497144291e-06
"VDD:p" -6.090812680768242e-06
"VSS:p" 6.086578425820585e-07
"vdd" 1.200000000000000e+00
"vss" 0.000000000000000e+00
"time" 5.259617156485543e-11
"in0" 0.000000000000000e+00
"in1" 1.200000000000000e+00
"net13" 1.340778941030392e-03
"out" 1.111375958565610e+00
"V0:p" 1.802176433856731e-06
"V1:p" 2.946189605798144e-06
"VDD:p" -5.666595163149145e-06
"VSS:p" 9.182291234932951e-07
"vdd" 1.200000000000000e+00
"vss" 0.000000000000000e+00
"time" 5.459617156485543e-11
"in0" 0.000000000000000e+00
"in1" 1.200000000000000e+00
"net13" 1.185196096849691e-03
"out" 1.121618981009713e+00
"V0:p" 2.019555853262501e-07
"V1:p" 4.169640615430795e-06
"VDD:p" -4.803269249150801e-06
"VSS:p" 4.316730483952737e-07
"vdd" 1.200000000000000e+00
"vss" 0.000000000000000e+00
"time" 5.659617156485543e-11
"in0" 0.000000000000000e+00
"in1" 1.200000000000000e+00
"net13" 1.047612672612547e-03
"out" 1.130692693534130e+00
"V0:p" 1.579465203521250e-06
"V1:p" 2.169057384644606e-06
"VDD:p" -4.510228233338517e-06
"VSS:p" 7.617056451709265e-07
"vdd" 1.200000000000000e+00
"vss" 0.000000000000000e+00
"time" 5.859617156485543e-11
"in0" 0.000000000000000e+00
"in1" 1.200000000000000e+00
"net13" 9.258897807624708e-04
"out" 1.138726929214570e+00
"V0:p" 3.717219919925592e-09
"V1:p" 3.470128446447269e-06
"VDD:p" -3.767018609734376e-06
"VSS:p" 2.931729433683761e-07
"vdd" 1.200000000000000e+00
"vss" 0.000000000000000e+00
"time" 6.059617156485544e-11
"in0" 0.000000000000000e+00
"in1" 1.200000000000000e+00
"net13" 8.181783013261150e-04
"out" 1.145837644725838e+00
"V0:p" 1.403237713739125e-06
"V1:p" 1.541084120228039e-06
"VDD:p" -3.583447643838920e-06
"VSS:p" 6.391258098707807e-07
"vdd" 1.200000000000000e+00
"vss" 0.000000000000000e+00
"time" 6.259617156485544e-11
"in0" 0.000000000000000e+00
"in1" 1.200000000000000e+00
"net13" 7.228649314383410e-04
"out" 1.152128377658456e+00
"V0:p" -1.527608028525306e-07
"V1:p" 2.907673107506871e-06
"VDD:p" -2.939593241409517e-06
"VSS:p" 1.846809367561535e-07
"vdd" 1.200000000000000e+00
"vss" 0.000000000000000e+00
"time" 6.459617156485545e-11
"in0" 0.000000000000000e+00
"in1" 1.200000000000000e+00
"net13" 6.385331795653411e-04
"out" 1.157691531697301e+00
"V0:p" 1.264432936367228e-06
"V1:p" 1.038323038369592e-06
"VDD:p" -2.845869876377115e-06
"VSS:p" 5.431139016388848e-07
"vdd" 1.200000000000000e+00
"vss" 0.000000000000000e+00
"time" 6.659617156485546e-11
"in0" 0.000000000000000e+00
"in1" 1.200000000000000e+00
"net13" 5.639340420752917e-04
"out" 1.162609523150970e+00
"V0:p" -2.757953503587356e-07
"V1:p" 2.459068282473845e-06
"VDD:p" -2.283004859094732e-06
"VSS:p" 9.973192698168139e-08
"vdd" 1.200000000000000e+00
"vss" 0.000000000000000e+00
"time" 6.859617156485546e-11
"in0" 0.000000000000000e+00
"in1" 1.200000000000000e+00
"net13" 4.979630632473930e-04
"out" 1.166955809939512e+00
"V0:p" 1.155429125461311e-06
"V1:p" 6.386745059698058e-07
"VDD:p" -2.262078280782992e-06
"VSS:p" 4.679746493498143e-07
"vdd" 1.200000000000000e+00
"vss" 0.000000000000000e+00
"time" 7.059617156485547e-11
"in0" 0.000000000000000e+00
"in1" 1.200000000000000e+00
"net13" 4.396417305266886e-04
"out" 1.170795817270208e+00
"V0:p" -3.723524150917480e-07
"V1:p" 2.103540334895843e-06
"VDD:p" -1.764479980258451e-06
"VSS:p" 3.329206045609162e-08
"vdd" 1.200000000000000e+00
"vss" 0.000000000000000e+00
"time" 7.259617156485547e-11
"in0" 0.000000000000000e+00
"in1" 1.200000000000000e+00
"net13" 3.881019428474377e-04
"out" 1.174187770615528e+00
"V0:p" 1.069883444345999e-06
"V1:p" 3.228033917708083e-07
"VDD:p" -1.801935736217064e-06
"VSS:p" 4.092489000989563e-07
"vdd" 1.200000000000000e+00
"vss" 0.000000000000000e+00
"time" 7.459617156485548e-11
"in0" 0.000000000000000e+00
"in1" 1.200000000000000e+00
"net13" 3.425727777072805e-04
"out" 1.177183444861570e+00
"V0:p" -4.481797414821433e-07
"V1:p" 1.823229353578075e-06
"VDD:p" -1.356454878584271e-06
"VSS:p" -1.859473351025156e-08
"vdd" 1.200000000000000e+00
"vss" 0.000000000000000e+00
"time" 7.659617156485549e-11
"in0" 0.000000000000000e+00
"in1" 1.200000000000000e+00
"net13" 3.023690787192128e-04
"out" 1.179828837719527e+00
"V0:p" 1.002617451641031e-06
"V1:p" 7.430991345043871e-08
"VDD:p" -1.440350457624316e-06
"VSS:p" 3.634230925319783e-07
"vdd" 1.200000000000000e+00
"vss" 0.000000000000000e+00
"time" 7.859617156485549e-11
"in0" 0.000000000000000e+00
"in1" 1.200000000000000e+00
"net13" 2.668815570677092e-04
"out" 1.182164775097412e+00
"V0:p" -5.079123426450070e-07
"V1:p" 1.603147127660714e-06
"VDD:p" -1.036183254799890e-06
"VSS:p" -5.905153021484073e-08
"vdd" 1.200000000000000e+00
"vss" 0.000000000000000e+00
"time" 8.059617156485550e-11
"in0" 0.000000000000000e+00
"in1" 1.200000000000000e+00
"net13" 2.355681920396566e-04
"out" 1.184227455750623e+00
"V0:p" 9.495114364268957e-07
"V1:p" -1.204509680462725e-07
"VDD:p" -1.156780055145401e-06
"VSS:p" 3.277195867633681e-07
"vdd" 1.200000000000000e+00
"vss" 0.000000000000000e+00
"time" 8.259617156485550e-11
"in0" 0.000000000000000e+00
"in1" 1.200000000000000e+00
"net13" 2.079467588591546e-04
"out" 1.186048941988058e+00
"V0:p" -5.551865532485254e-07
"V1:p" 1.430913174541082e-06
"VDD:p" -7.851769419629244e-07
"VSS:p" -9.054967932854706e-08
"vdd" 1.200000000000000e+00
"vss" 0.000000000000000e+00
"time" 8.459617156485551e-11
"in0" 0.000000000000000e+00
