HEADER
"PSFversion" "1.00"
"simulator" "spectre"
"version" "19.1.0.237.isr3"
"date" "1:43:11 AM, Sat Sep 10, 2022"
"design" "// Generated for: spectre"
"analysis type" "tran"
"analysis name" "sim"
"analysis description" "Transient Analysis `sim': time = (0 s -> 100 ps)"
"xVecSorted" "ascending"
"tolerance.relative" 0.00100000
"start" 0.00000
"outputstart" 0.00000
"stop" 1.00000e-10
"step" 1.00000e-13
"istep" 0.00100000
"maxstep" 2.00000e-12
"ic" "all"
"useprevic" "no"
"skipdc" "no"
"reltol" 0.00100000
"abstol(V)" 1.00000e-06
"abstol(I)" 1.00000e-12
"temp" 27.0000
"tnom" 27.0000
"tempeffects" "all"
"errpreset" "moderate"
"method" "traponly"
"lteratio" 3.50000
"relref" "sigglobal"
"cmin" 0.00000
"gmin" 1.00000e-12
TYPE
"sweep" FLOAT DOUBLE PROP(
"key" "sweep"
)
"LogicV" FLOAT DOUBLE PROP(
"key" "node"
)
"Tau" FLOAT DOUBLE PROP(
"units" "N*m"
"key" "node"
"tolerance" 1.00000e-06
)
"Alpha" FLOAT DOUBLE PROP(
"units" "rads/s^2"
"key" "node"
"tolerance" 1.00000e-06
)
"Omega" FLOAT DOUBLE PROP(
"units" "rads/s"
"key" "node"
"tolerance" 1.00000e-06
)
"Theta" FLOAT DOUBLE PROP(
"units" "rads"
"key" "node"
"tolerance" 1.00000e-06
)
"F" FLOAT DOUBLE PROP(
"units" "N"
"key" "node"
"tolerance" 1.00000e-06
)
"Imp" FLOAT DOUBLE PROP(
"units" "m/s^3"
"key" "node"
"tolerance" 1.00000e-06
)
"Acc" FLOAT DOUBLE PROP(
"units" "m/s^2"
"key" "node"
"tolerance" 1.00000e-06
)
"Vel" FLOAT DOUBLE PROP(
"units" "m/s"
"key" "node"
"tolerance" 1.00000e-06
)
"Pos" FLOAT DOUBLE PROP(
"units" "m"
"key" "node"
"tolerance" 1.00000e-06
)
"Phi" FLOAT DOUBLE PROP(
"units" "Wb"
"key" "node"
"tolerance" 1.00000e-09
)
"V" FLOAT DOUBLE PROP(
"units" "V"
"key" "node"
"tolerance" 1.00000e-06
)
"I" FLOAT DOUBLE PROP(
"units" "A"
"key" "branch"
"tolerance" 1.00000e-12
)
"MMF" FLOAT DOUBLE PROP(
"units" "A*turn"
"key" "node"
"tolerance" 1.00000e-12
)
"Wb" FLOAT DOUBLE PROP(
"units" "Wb"
"key" "node"
"tolerance" 1.00000e-09
)
"Temp" FLOAT DOUBLE PROP(
"units" "C"
"key" "node"
"tolerance" 0.000100000
)
"Pwr" FLOAT DOUBLE PROP(
"units" "W"
"key" "node"
"tolerance" 1.00000e-09
)
"U" FLOAT DOUBLE PROP(
"units" ""
"key" "node"
"tolerance" 1.00000e-06
)
"V/Sec" FLOAT DOUBLE PROP(
"units" "V/s"
"key" "node"
"tolerance" 0.000100000
)
"I/Sec" FLOAT DOUBLE PROP(
"units" "A/s"
"key" "node"
"tolerance" 1.00000e-06
)
"1/Sec" FLOAT DOUBLE PROP(
"units" "1/s"
"key" "node"
"tolerance" 0.000100000
)
"HOD" FLOAT DOUBLE PROP(
"units" ""
"key" "node"
"tolerance" 0.0100000
)
"Q" FLOAT DOUBLE PROP(
"units" "coul"
"key" "node"
"tolerance" 1.00000e-14
)
SWEEP
"time" "sweep" PROP(
"sweep_direction" 0
"units" "s"
"plot" 0
"grid" 1
)
TRACE
"in" "V"
"out" "V"
"V0:p" "I"
"VDD:p" "I"
"VSS:p" "I"
"vdd" "V"
"vss" "V"
VALUE
"time" 0.000000000000000e+00
"in" 0.000000000000000e+00
"out" 1.199998775758592e+00
"V0:p" 7.482181702941023e-12
"VDD:p" -4.278806268468402e-10
"VSS:p" 4.203984796060728e-10
"vdd" 1.200000000000000e+00
"vss" 0.000000000000000e+00
"time" 1.000000000000000e-13
"in" 0.000000000000000e+00
"out" 1.198488795986718e+00
"V0:p" -9.693317157589271e-06
"VDD:p" -9.335422807671725e-06
"VSS:p" 1.902873996526100e-05
"vdd" 1.200000000000000e+00
"vss" 0.000000000000000e+00
"time" 3.000000000000000e-13
"in" 0.000000000000000e+00
"out" 1.189718602199427e+00
"V0:p" -2.810626367140705e-05
"VDD:p" -2.907004207492012e-05
"VSS:p" 5.717630574632813e-05
"vdd" 1.200000000000000e+00
"vss" 0.000000000000000e+00
"time" 6.842028077335216e-13
"in" 0.000000000000000e+00
"out" 1.162534604339516e+00
"V0:p" -6.194432660914143e-05
"VDD:p" -6.857485302836646e-05
"VSS:p" 1.305191796375066e-04
"vdd" 1.200000000000000e+00
"vss" 0.000000000000000e+00
"time" 1.000000000000000e-12
"in" 0.000000000000000e+00
"out" 1.124775228842755e+00
"V0:p" -8.774362856988087e-05
"VDD:p" -1.030134379102549e-04
"VSS:p" 1.907570664801391e-04
"vdd" 1.200000000000000e+00
"vss" 0.000000000000000e+00
"time" 1.478533970347011e-12
"in" 0.000000000000000e+00
"out" 1.062895901370142e+00
"V0:p" -7.853506885201943e-05
"VDD:p" -1.129602038585836e-04
"VSS:p" 1.914952727106031e-04
"vdd" 1.200000000000000e+00
"vss" 0.000000000000000e+00
"time" 1.868126938572359e-12
"in" 0.000000000000000e+00
"out" 1.012281392916101e+00
"V0:p" -7.249778586475549e-05
"VDD:p" -1.187105936850625e-04
"VSS:p" 1.912083795498173e-04
"vdd" 1.200000000000000e+00
"vss" 0.000000000000000e+00
"time" 2.533952163006210e-12
"in" 0.000000000000000e+00
"out" 9.299973082459441e-01
"V0:p" -6.239154600980840e-05
"VDD:p" -1.297031569483828e-04
"VSS:p" 1.920947029581922e-04
"vdd" 1.200000000000000e+00
"vss" 0.000000000000000e+00
"time" 3.404699907580299e-12
"in" 0.000000000000000e+00
"out" 8.311468876124857e-01
"V0:p" -5.302498642237225e-05
"VDD:p" -1.392183696621255e-04
"VSS:p" 1.922433560844962e-04
"vdd" 1.200000000000000e+00
"vss" 0.000000000000000e+00
"time" 4.702349953790150e-12
"in" 0.000000000000000e+00
"out" 7.066901281769089e-01
"V0:p" -4.124858198305963e-05
"VDD:p" -1.529112467361538e-04
"VSS:p" 1.941598287192152e-04
"vdd" 1.200000000000000e+00
"vss" 0.000000000000000e+00
"time" 5.999999999999999e-12
"in" 0.000000000000000e+00
"out" 6.052457158745169e-01
"V0:p" -3.496090103467991e-05
"VDD:p" -1.594666900592411e-04
"VSS:p" 1.944275910939196e-04
"vdd" 1.200000000000000e+00
"vss" 0.000000000000000e+00
"time" 6.381597344141471e-12
"in" 0.000000000000000e+00
"out" 5.856292195252412e-01
"V0:p" -2.502092923898502e-05
"VDD:p" -1.559032029990376e-04
"VSS:p" 1.809241322380225e-04
"vdd" 1.200000000000000e+00
"vss" 0.000000000000000e+00
"time" 7.144792032424414e-12
"in" 0.000000000000000e+00
"out" 5.605879532762013e-01
"V0:p" -6.908343612877134e-06
"VDD:p" -1.462114645545145e-04
"VSS:p" 1.531198081673919e-04
"vdd" 1.200000000000000e+00
"vss" 0.000000000000000e+00
"time" 8.210135349628758e-12
"in" 0.000000000000000e+00
"out" 5.707705707913582e-01
"V0:p" 1.620776878486533e-05
"VDD:p" -1.303255998492976e-04
"VSS:p" 1.141178310644314e-04
"vdd" 1.200000000000000e+00
"vss" 0.000000000000000e+00
"time" 9.182702346291675e-12
"in" 0.000000000000000e+00
"out" 6.211895527546650e-01
"V0:p" 3.425660347814003e-05
"VDD:p" -1.121198372012880e-04
"VSS:p" 7.786323372314843e-05
"vdd" 1.200000000000000e+00
"vss" 0.000000000000000e+00
"time" 1.009135117314584e-11
"in" 0.000000000000000e+00
"out" 6.980959155137022e-01
"V0:p" 4.825628913676501e-05
"VDD:p" -9.177610914160305e-05
"VSS:p" 4.351982000483712e-05
"vdd" 1.200000000000000e+00
"vss" 0.000000000000000e+00
"time" 1.100000000000000e-11
"in" 0.000000000000000e+00
"out" 7.966103848437861e-01
"V0:p" 5.799573286464551e-05
"VDD:p" -6.627774862354804e-05
"VSS:p" 8.282015758902993e-06
"vdd" 1.200000000000000e+00
"vss" 0.000000000000000e+00
"time" 1.169183572404897e-11
"in" 0.000000000000000e+00
"out" 8.663008945219149e-01
"V0:p" 5.009555278807058e-05
"VDD:p" -5.712688966792792e-05
"VSS:p" 7.031336879857110e-06
"vdd" 1.200000000000000e+00
"vss" 0.000000000000000e+00
"time" 1.243138454132809e-11
"in" 0.000000000000000e+00
"out" 9.316805768129078e-01
"V0:p" 4.065165101234977e-05
"VDD:p" -4.576509533321247e-05
"VSS:p" 5.113444320864203e-06
"vdd" 1.200000000000000e+00
"vss" 0.000000000000000e+00
"time" 1.364123219836162e-11
"in" 0.000000000000000e+00
"out" 1.010315103305908e+00
"V0:p" 3.024068880942697e-05
"VDD:p" -3.391091399984030e-05
"VSS:p" 3.670225190411886e-06
"vdd" 1.200000000000000e+00
"vss" 0.000000000000000e+00
"time" 1.495019126758356e-11
"in" 0.000000000000000e+00
"out" 1.068066774506058e+00
"V0:p" 2.105681539008458e-05
"VDD:p" -2.326127495271750e-05
"VSS:p" 2.204459562634027e-06
"vdd" 1.200000000000000e+00
"vss" 0.000000000000000e+00
"time" 1.631193928178280e-11
"in" 0.000000000000000e+00
"out" 1.109059680264287e+00
"V0:p" 1.534521791690706e-05
"VDD:p" -1.710718661453686e-05
"VSS:p" 1.761968697628041e-06
"vdd" 1.200000000000000e+00
"vss" 0.000000000000000e+00
"time" 1.785608888991149e-11
"in" 0.000000000000000e+00
"out" 1.140289836083245e+00
"V0:p" 9.692770769175332e-06
"VDD:p" -1.057555874720633e-05
"VSS:p" 8.827879780328916e-07
"vdd" 1.200000000000000e+00
"vss" 0.000000000000000e+00
"time" 1.972930504318975e-11
"in" 0.000000000000000e+00
"out" 1.164258781947884e+00
"V0:p" 6.384776423329365e-06
"VDD:p" -7.166082815854755e-06
"VSS:p" 7.813063925232334e-07
"vdd" 1.200000000000000e+00
"vss" 0.000000000000000e+00
"time" 2.172930504318975e-11
"in" 0.000000000000000e+00
"out" 1.179377815736655e+00
"V0:p" 3.202211948517843e-06
"VDD:p" -3.400466471126077e-06
"VSS:p" 1.982545226103233e-07
"vdd" 1.200000000000000e+00
"vss" 0.000000000000000e+00
"time" 2.372930504318975e-11
"in" 0.000000000000000e+00
"out" 1.188105458910013e+00
"V0:p" 2.361407021276472e-06
"VDD:p" -2.727578607683804e-06
"VSS:p" 3.661715864050812e-07
"vdd" 1.200000000000000e+00
"vss" 0.000000000000000e+00
"time" 2.572930504318975e-11
"in" 0.000000000000000e+00
"out" 1.193140313791310e+00
"V0:p" 8.578594293742869e-07
"VDD:p" -8.171747039639936e-07
"VSS:p" -4.068472540819265e-08
"vdd" 1.200000000000000e+00
"vss" 0.000000000000000e+00
"time" 2.772930504318975e-11
"in" 0.000000000000000e+00
"out" 1.196044074437023e+00
"V0:p" 1.001986828476100e-06
"VDD:p" -1.230584721049294e-06
"VSS:p" 2.285978925708089e-07
"vdd" 1.200000000000000e+00
"vss" 0.000000000000000e+00
"time" 2.972930504318975e-11
"in" 0.000000000000000e+00
"out" 1.197718558313747e+00
"V0:p" 7.156261326372719e-08
"VDD:p" 4.837082556482166e-08
"VSS:p" -1.199334388260961e-07
"vdd" 1.200000000000000e+00
"vss" 0.000000000000000e+00
"time" 3.172930504318975e-11
"in" 0.000000000000000e+00
"out" 1.198684084690826e+00
"V0:p" 5.478082451123846e-07
"VDD:p" -7.307370252680906e-07
"VSS:p" 1.829287801530495e-07
"vdd" 1.200000000000000e+00
"vss" 0.000000000000000e+00
"time" 3.372930504318975e-11
"in" 0.000000000000000e+00
"out" 1.199240788201206e+00
"V0:p" -1.905711876366919e-07
"VDD:p" 3.368279969660422e-07
"VSS:p" -1.462568093266260e-07
"vdd" 1.200000000000000e+00
"vss" 0.000000000000000e+00
"time" 3.572930504318975e-11
"in" 0.000000000000000e+00
"out" 1.199561762024322e+00
"V0:p" 3.965843378831377e-07
"VDD:p" -5.643388551639177e-07
"VSS:p" 1.677545172779479e-07
"vdd" 1.200000000000000e+00
"vss" 0.000000000000000e+00
"time" 3.772930504318975e-11
"in" 0.000000000000000e+00
"out" 1.199746819605030e+00
"V0:p" -2.777885397209768e-07
"VDD:p" 4.327931632153422e-07
"VSS:p" -1.550046234910184e-07
"vdd" 1.200000000000000e+00
"vss" 0.000000000000000e+00
"time" 3.972930504318975e-11
"in" 0.000000000000000e+00
"out" 1.199853513417592e+00
"V0:p" 3.462900160445668e-07
"VDD:p" -5.090013361165792e-07
"VSS:p" 1.627113200688275e-07
"vdd" 1.200000000000000e+00
"vss" 0.000000000000000e+00
"time" 4.172930504318975e-11
"in" 0.000000000000000e+00
"out" 1.199915026676029e+00
"V0:p" -3.067884540784086e-07
"VDD:p" 4.647005830792087e-07
"VSS:p" -1.579121289976972e-07
"vdd" 1.200000000000000e+00
"vss" 0.000000000000000e+00
"time" 4.372930504318975e-11
"in" 0.000000000000000e+00
"out" 1.199950491399411e+00
"V0:p" 3.295693957933461e-07
"VDD:p" -4.906044619057501e-07
"VSS:p" 1.610350661093278e-07
"vdd" 1.200000000000000e+00
"vss" 0.000000000000000e+00
"time" 4.572930504318975e-11
"in" 0.000000000000000e+00
"out" 1.199970938110680e+00
"V0:p" -3.164288598229902e-07
"VDD:p" 4.753073996086497e-07
"VSS:p" -1.588785397826100e-07
"vdd" 1.200000000000000e+00
"vss" 0.000000000000000e+00
"time" 4.772930504318975e-11
"in" 0.000000000000000e+00
"out" 1.199982726373217e+00
"V0:p" 3.240112376844126e-07
"VDD:p" -4.844891369592544e-07
"VSS:p" 1.604778992720636e-07
"vdd" 1.200000000000000e+00
"vss" 0.000000000000000e+00
"time" 4.972930504318975e-11
"in" 0.000000000000000e+00
"out" 1.199989522724466e+00
"V0:p" -3.196333743548031e-07
"VDD:p" 4.788331393611804e-07
"VSS:p" -1.591997650037068e-07
"vdd" 1.200000000000000e+00
"vss" 0.000000000000000e+00
"time" 5.172930504318975e-11
"in" 0.000000000000000e+00
"out" 1.199993441060233e+00
"V0:p" 3.221637091605577e-07
"VDD:p" -4.824564111886787e-07
"VSS:p" 1.602927020257767e-07
"vdd" 1.200000000000000e+00
"vss" 0.000000000000000e+00
"time" 5.372930504318975e-11
"in" 0.000000000000000e+00
"out" 1.199995700118201e+00
"V0:p" -3.206985436795119e-07
"VDD:p" 4.800050812584278e-07
"VSS:p" -1.593065375762327e-07
"vdd" 1.200000000000000e+00
"vss" 0.000000000000000e+00
"time" 5.572930504318975e-11
"in" 0.000000000000000e+00
"out" 1.199997002544150e+00
"V0:p" 3.215496003350868e-07
"VDD:p" -4.817807442848189e-07
"VSS:p" 1.602311439468316e-07
"vdd" 1.200000000000000e+00
"vss" 0.000000000000000e+00
"time" 5.772930504318975e-11
"in" 0.000000000000000e+00
"out" 1.199997753438213e+00
"V0:p" -3.210525993524668e-07
"VDD:p" 4.803946273000637e-07
"VSS:p" -1.593420279446425e-07
"vdd" 1.200000000000000e+00
"vss" 0.000000000000000e+00
"time" 5.972930504318975e-11
"in" 0.000000000000000e+00
"out" 1.199998186354855e+00
"V0:p" 3.213454747194598e-07
"VDD:p" -4.815561572379899e-07
"VSS:p" 1.602106825153996e-07
"vdd" 1.200000000000000e+00
"vss" 0.000000000000000e+00
"time" 6.172930504318976e-11
"in" 0.000000000000000e+00
"out" 1.199998435946405e+00
"V0:p" -3.211702849457150e-07
"VDD:p" 4.805241096208434e-07
"VSS:p" -1.593538246722152e-07
"vdd" 1.200000000000000e+00
"vss" 0.000000000000000e+00
"time" 6.372930504318976e-11
"in" 0.000000000000000e+00
"out" 1.199998579844641e+00
"V0:p" 3.212776248517581e-07
"VDD:p" -4.814815061456681e-07
"VSS:p" 1.602038812908876e-07
"vdd" 1.200000000000000e+00
"vss" 0.000000000000000e+00
"time" 6.572930504318977e-11
"in" 0.000000000000000e+00
"out" 1.199998662806994e+00
"V0:p" -3.212094027675199e-07
"VDD:p" 4.805671485850871e-07
"VSS:p" -1.593577458150865e-07
"vdd" 1.200000000000000e+00
"vss" 0.000000000000000e+00
"time" 6.772930504318978e-11
"in" 0.000000000000000e+00
"out" 1.199998710637683e+00
"V0:p" 3.212550720622873e-07
"VDD:p" -4.814566926798579e-07
"VSS:p" 1.602016206152533e-07
"vdd" 1.200000000000000e+00
"vss" 0.000000000000000e+00
"time" 6.972930504318978e-11
"in" 0.000000000000000e+00
"out" 1.199998738213744e+00
"V0:p" -3.212224052390372e-07
"VDD:p" 4.805814544141266e-07
"VSS:p" -1.593590491734765e-07
"vdd" 1.200000000000000e+00
"vss" 0.000000000000000e+00
"time" 7.172930504318979e-11
"in" 0.000000000000000e+00
"out" 1.199998754112304e+00
"V0:p" 3.212475756849243e-07
"VDD:p" -4.814484448706742e-07
"VSS:p" 1.602008691837848e-07
"vdd" 1.200000000000000e+00
"vss" 0.000000000000000e+00
"time" 7.372930504318979e-11
"in" 0.000000000000000e+00
"out" 1.199998763278379e+00
"V0:p" -3.212267271622204e-07
"VDD:p" 4.805862095643649e-07
"VSS:p" -1.593594823999765e-07
"vdd" 1.200000000000000e+00
"vss" 0.000000000000000e+00
"time" 7.572930504318980e-11
"in" 0.000000000000000e+00
"out" 1.199998768562941e+00
"V0:p" 3.212450839451470e-07
"VDD:p" -4.814457033606917e-07
"VSS:p" 1.602006194136883e-07
"vdd" 1.200000000000000e+00
"vss" 0.000000000000000e+00
"time" 7.772930504318981e-11
"in" 0.000000000000000e+00
"out" 1.199998771609675e+00
"V0:p" -3.212281637369138e-07
"VDD:p" 4.805877901400006e-07
"VSS:p" -1.593596264011762e-07
"vdd" 1.200000000000000e+00
"vss" 0.000000000000000e+00
"time" 7.972930504318981e-11
"in" 0.000000000000000e+00
"out" 1.199998773366223e+00
"V0:p" 3.212442557093915e-07
"VDD:p" -4.814447921033715e-07
"VSS:p" 1.602005363919473e-07
"vdd" 1.200000000000000e+00
"vss" 0.000000000000000e+00
"time" 8.172930504318982e-11
"in" 0.000000000000000e+00
"out" 1.199998774378935e+00
"V0:p" -3.212286412434792e-07
"VDD:p" 4.805883155115446e-07
"VSS:p" -1.593596742660466e-07
"vdd" 1.200000000000000e+00
"vss" 0.000000000000000e+00
"time" 8.372930504318982e-11
"in" 0.000000000000000e+00
"out" 1.199998774962798e+00
"V0:p" 3.212439804104403e-07
"VDD:p" -4.814444892081550e-07
"VSS:p" 1.602005087961833e-07
"vdd" 1.200000000000000e+00
"vss" 0.000000000000000e+00
"time" 8.572930504318983e-11
"in" 0.000000000000000e+00
"out" 1.199998775299416e+00
"V0:p" -3.212287999634584e-07
"VDD:p" 4.805884901408345e-07
"VSS:p" -1.593596901760613e-07
"vdd" 1.200000000000000e+00
"vss" 0.000000000000000e+00
"time" 8.772930504318984e-11
"in" 0.000000000000000e+00
"out" 1.199998775493488e+00
"V0:p" 3.212438889028774e-07
"VDD:p" -4.814443885279703e-07
"VSS:p" 1.602004996235750e-07
"vdd" 1.200000000000000e+00
"vss" 0.000000000000000e+00
"time" 8.972930504318984e-11
"in" 0.000000000000000e+00
"out" 1.199998775605377e+00
"V0:p" -3.212288527203855e-07
"VDD:p" 4.805885481865544e-07
"VSS:p" -1.593596954644476e-07
"vdd" 1.200000000000000e+00
"vss" 0.000000000000000e+00
"time" 9.172930504318985e-11
"in" 0.000000000000000e+00
"out" 1.199998775669885e+00
"V0:p" 3.212438584865129e-07
"VDD:p" -4.814443550629001e-07
"VSS:p" 1.602004965746518e-07
"vdd" 1.200000000000000e+00
"vss" 0.000000000000000e+00
"time" 9.372930504318985e-11
"in" 0.000000000000000e+00
"out" 1.199998775707076e+00
"V0:p" -3.212288702561240e-07
"VDD:p" 4.805885674804975e-07
"VSS:p" -1.593596972222595e-07
"vdd" 1.200000000000000e+00
"vss" 0.000000000000000e+00
"time" 9.572930504318986e-11
"in" 0.000000000000000e+00
"out" 1.199998775728518e+00
"V0:p" 3.212438483758876e-07
"VDD:p" -4.814443439391463e-07
"VSS:p" 1.602004955612673e-07
"vdd" 1.200000000000000e+00
"vss" 0.000000000000000e+00
"time" 9.772930504318987e-11
"in" 0.000000000000000e+00
"out" 1.199998775740880e+00
"V0:p" -3.212288760848203e-07
"VDD:p" 4.805885738936732e-07
"VSS:p" -1.593596978065900e-07
"vdd" 1.200000000000000e+00
"vss" 0.000000000000000e+00
"time" 9.886465252159494e-11
"in" 0.000000000000000e+00
"out" 1.199998775745334e+00
"V0:p" 3.212438454761286e-07
"VDD:p" -4.814443407487848e-07
"VSS:p" 1.602004952705966e-07
"vdd" 1.200000000000000e+00
"vss" 0.000000000000000e+00
"time" 1.000000000000000e-10
"in" 0.000000000000000e+00
"out" 1.199998775748609e+00
"V0:p" -3.212288774170337e-07
"VDD:p" 4.805885753598910e-07
"VSS:p" -1.593596979400921e-07
"vdd" 1.200000000000000e+00
"vss" 0.000000000000000e+00
END
