HEADER
"PSFversion" "1.00"
"simulator" "spectre"
"version" "19.1.0.237.isr3"
"date" "1:46:55 AM, Sat Sep 10, 2022"
"design" "// Generated for: spectre"
"analysis type" "tran"
"analysis name" "sim"
"analysis description" "Transient Analysis `sim': time = (0 s -> 100 ps)"
"xVecSorted" "ascending"
"tolerance.relative" 0.00100000
"start" 0.00000
"outputstart" 0.00000
"stop" 1.00000e-10
"step" 1.00000e-13
"istep" 0.00100000
"maxstep" 2.00000e-12
"ic" "all"
"useprevic" "no"
"skipdc" "no"
"reltol" 0.00100000
"abstol(V)" 1.00000e-06
"abstol(I)" 1.00000e-12
"temp" 27.0000
"tnom" 27.0000
"tempeffects" "all"
"errpreset" "moderate"
"method" "traponly"
"lteratio" 3.50000
"relref" "sigglobal"
"cmin" 0.00000
"gmin" 1.00000e-12
TYPE
"sweep" FLOAT DOUBLE PROP(
"key" "sweep"
)
"LogicV" FLOAT DOUBLE PROP(
"key" "node"
)
"Tau" FLOAT DOUBLE PROP(
"units" "N*m"
"key" "node"
"tolerance" 1.00000e-06
)
"Alpha" FLOAT DOUBLE PROP(
"units" "rads/s^2"
"key" "node"
"tolerance" 1.00000e-06
)
"Omega" FLOAT DOUBLE PROP(
"units" "rads/s"
"key" "node"
"tolerance" 1.00000e-06
)
"Theta" FLOAT DOUBLE PROP(
"units" "rads"
"key" "node"
"tolerance" 1.00000e-06
)
"F" FLOAT DOUBLE PROP(
"units" "N"
"key" "node"
"tolerance" 1.00000e-06
)
"Imp" FLOAT DOUBLE PROP(
"units" "m/s^3"
"key" "node"
"tolerance" 1.00000e-06
)
"Acc" FLOAT DOUBLE PROP(
"units" "m/s^2"
"key" "node"
"tolerance" 1.00000e-06
)
"Vel" FLOAT DOUBLE PROP(
"units" "m/s"
"key" "node"
"tolerance" 1.00000e-06
)
"Pos" FLOAT DOUBLE PROP(
"units" "m"
"key" "node"
"tolerance" 1.00000e-06
)
"Phi" FLOAT DOUBLE PROP(
"units" "Wb"
"key" "node"
"tolerance" 1.00000e-09
)
"V" FLOAT DOUBLE PROP(
"units" "V"
"key" "node"
"tolerance" 1.00000e-06
)
"I" FLOAT DOUBLE PROP(
"units" "A"
"key" "branch"
"tolerance" 1.00000e-12
)
"MMF" FLOAT DOUBLE PROP(
"units" "A*turn"
"key" "node"
"tolerance" 1.00000e-12
)
"Wb" FLOAT DOUBLE PROP(
"units" "Wb"
"key" "node"
"tolerance" 1.00000e-09
)
"Temp" FLOAT DOUBLE PROP(
"units" "C"
"key" "node"
"tolerance" 0.000100000
)
"Pwr" FLOAT DOUBLE PROP(
"units" "W"
"key" "node"
"tolerance" 1.00000e-09
)
"U" FLOAT DOUBLE PROP(
"units" ""
"key" "node"
"tolerance" 1.00000e-06
)
"V/Sec" FLOAT DOUBLE PROP(
"units" "V/s"
"key" "node"
"tolerance" 0.000100000
)
"I/Sec" FLOAT DOUBLE PROP(
"units" "A/s"
"key" "node"
"tolerance" 1.00000e-06
)
"1/Sec" FLOAT DOUBLE PROP(
"units" "1/s"
"key" "node"
"tolerance" 0.000100000
)
"HOD" FLOAT DOUBLE PROP(
"units" ""
"key" "node"
"tolerance" 0.0100000
)
"Q" FLOAT DOUBLE PROP(
"units" "coul"
"key" "node"
"tolerance" 1.00000e-14
)
SWEEP
"time" "sweep" PROP(
"sweep_direction" 0
"units" "s"
"plot" 0
"grid" 1
)
TRACE
"in0" "V"
"in1" "V"
"net13" "V"
"out" "V"
"V0:p" "I"
"V1:p" "I"
"VDD:p" "I"
"VSS:p" "I"
"vdd" "V"
"vss" "V"
VALUE
"time" 0.000000000000000e+00
"in0" 0.000000000000000e+00
"in1" 1.200000000000000e+00
"net13" 2.522254161175162e-07
"out" 1.199998608538689e+00
"V0:p" -2.292918816276842e-11
"V1:p" 3.016577400687568e-11
"VDD:p" -1.585927201598540e-10
"VSS:p" 1.513562509904299e-10
"vdd" 1.200000000000000e+00
"vss" 0.000000000000000e+00
"time" 1.000000000000000e-13
"in0" 0.000000000000000e+00
"in1" 1.200000000000000e+00
"net13" -1.889055338088746e-03
"out" 1.199876102042168e+00
"V0:p" -1.227591430352337e-05
"V1:p" -7.241427261052663e-06
"VDD:p" -7.858628297722419e-07
"VSS:p" 2.030320439434914e-05
"vdd" 1.200000000000000e+00
"vss" 0.000000000000000e+00
"time" 3.000000000000000e-13
"in0" 0.000000000000000e+00
"in1" 1.200000000000000e+00
"net13" -1.245928643659860e-02
"out" 1.199196020035749e+00
"V0:p" -3.443626504992165e-05
"V1:p" -2.022181889286380e-05
"VDD:p" -2.227106711024887e-06
"VSS:p" 5.688519065380905e-05
"vdd" 1.200000000000000e+00
"vss" 0.000000000000000e+00
"time" 6.949112826153354e-13
"in0" 0.000000000000000e+00
"in1" 1.200000000000000e+00
"net13" -4.504107693054708e-02
"out" 1.197111983409672e+00
"V0:p" -7.494030785604698e-05
"V1:p" -4.259779691403099e-05
"VDD:p" -4.777512355444881e-06
"VSS:p" 1.223156171255229e-04
"vdd" 1.200000000000000e+00
"vss" 0.000000000000000e+00
"time" 1.000000000000000e-12
"in0" 0.000000000000000e+00
"in1" 1.200000000000000e+00
"net13" -8.478243941296151e-02
"out" 1.194593887423557e+00
"V0:p" -1.021594903986937e-04
"V1:p" -5.592487041864301e-05
"VDD:p" -6.371042537360685e-06
"VSS:p" 1.644554033546983e-04
"vdd" 1.200000000000000e+00
"vss" 0.000000000000000e+00
"time" 1.520719769060677e-12
"in0" 0.000000000000000e+00
"in1" 1.200000000000000e+00
"net13" -1.447829966295005e-01
"out" 1.190979913818179e+00
"V0:p" -8.091690066618852e-05
"V1:p" -4.311065631187031e-05
"VDD:p" -5.225697654296842e-06
"VSS:p" 1.292532546323557e-04
"vdd" 1.200000000000000e+00
"vss" 0.000000000000000e+00
"time" 1.854981788429400e-12
"in0" 0.000000000000000e+00
"in1" 1.200000000000000e+00
"net13" -1.796602405270079e-01
"out" 1.188945280978751e+00
"V0:p" -7.016162299032459e-05
"V1:p" -3.474383921570953e-05
"VDD:p" -4.333447061528875e-06
"VSS:p" 1.092389092675613e-04
"vdd" 1.200000000000000e+00
"vss" 0.000000000000000e+00
"time" 2.523505827166846e-12
"in0" 0.000000000000000e+00
"in1" 1.200000000000000e+00
"net13" -2.333525706019889e-01
"out" 1.186080697135413e+00
"V0:p" -4.915610075130900e-05
"V1:p" -2.530176022732148e-05
"VDD:p" -3.486815550663418e-06
"VSS:p" 7.794467652929391e-05
"vdd" 1.200000000000000e+00
"vss" 0.000000000000000e+00
"time" 3.254910625216953e-12
"in0" 0.000000000000000e+00
"in1" 1.200000000000000e+00
"net13" -2.739503870034304e-01
"out" 1.184286203378963e+00
"V0:p" -3.543482230214051e-05
"V1:p" -1.689334095089940e-05
"VDD:p" -2.553457208755439e-06
"VSS:p" 5.488162046179364e-05
"vdd" 1.200000000000000e+00
"vss" 0.000000000000000e+00
"time" 4.183839161982225e-12
"in0" 0.000000000000000e+00
"in1" 1.200000000000000e+00
"net13" -3.079011635502848e-01
"out" 1.183193083190318e+00
"V0:p" -2.124604579130042e-05
"V1:p" -1.178581772477087e-05
"VDD:p" -2.219217549467145e-06
"VSS:p" 3.525108106554063e-05
"vdd" 1.200000000000000e+00
"vss" 0.000000000000000e+00
"time" 5.205216408621319e-12
"in0" 0.000000000000000e+00
"in1" 1.200000000000000e+00
"net13" -3.308925019050539e-01
"out" 1.182780006323385e+00
"V0:p" -1.407618589571813e-05
"V1:p" -6.613322179114051e-06
"VDD:p" -1.764785338712080e-06
"VSS:p" 2.245429341354210e-05
"vdd" 1.200000000000000e+00
"vss" 0.000000000000000e+00
"time" 5.999999999999999e-12
"in0" 0.000000000000000e+00
"in1" 1.200000000000000e+00
"net13" -3.422359534050356e-01
"out" 1.182715943143155e+00
"V0:p" -8.461948665236430e-06
"V1:p" -5.453886271308872e-06
"VDD:p" -1.873106624007996e-06
"VSS:p" 1.578894156055480e-05
"vdd" 1.200000000000000e+00
"vss" 0.000000000000000e+00
"time" 6.499690857801447e-12
"in0" 0.000000000000000e+00
"in1" 1.200000000000000e+00
"net13" -3.401262012330717e-01
"out" 1.183015569788911e+00
"V0:p" 3.507311845945101e-06
"V1:p" 2.368645676441284e-06
"VDD:p" -1.377945623344217e-06
"VSS:p" -4.498011899043015e-06
"vdd" 1.200000000000000e+00
"vss" 0.000000000000000e+00
"time" 7.381129750288265e-12
"in0" 0.000000000000000e+00
"in1" 1.200000000000000e+00
"net13" -3.259259180242272e-01
"out" 1.184044450261622e+00
"V0:p" 2.239829422197026e-05
"V1:p" 1.274870836747139e-05
"VDD:p" -5.812008457144692e-07
"VSS:p" -3.456580174372677e-05
"vdd" 1.200000000000000e+00
"vss" 0.000000000000000e+00
"time" 8.414886721535079e-12
"in0" 0.000000000000000e+00
"in1" 1.200000000000000e+00
"net13" -2.870997792920629e-01
"out" 1.186554545685853e+00
"V0:p" 3.697224895619462e-05
"V1:p" 1.965772520801009e-05
"VDD:p" 5.250793622636024e-07
"VSS:p" -5.715505352646922e-05
"vdd" 1.200000000000000e+00
"vss" 0.000000000000000e+00
"time" 9.805190304457321e-12
"in0" 0.000000000000000e+00
"in1" 1.200000000000000e+00
"net13" -2.107261539310190e-01
"out" 1.191760912739485e+00
"V0:p" 4.723379497377176e-05
"V1:p" 2.399320864415083e-05
"VDD:p" 1.843910498515492e-06
"VSS:p" -7.307091411643657e-05
"vdd" 1.200000000000000e+00
"vss" 0.000000000000000e+00
"time" 1.100000000000000e-11
"in0" 0.000000000000000e+00
"in1" 1.200000000000000e+00
"net13" -1.318451556064028e-01
"out" 1.197102098599848e+00
"V0:p" 4.932916644612108e-05
"V1:p" 2.630168861393749e-05
"VDD:p" 2.559397720299193e-06
"VSS:p" -7.819025278035884e-05
"vdd" 1.200000000000000e+00
"vss" 0.000000000000000e+00
"time" 1.164096554733929e-11
"in0" 0.000000000000000e+00
"in1" 1.200000000000000e+00
"net13" -9.843048748617114e-02
"out" 1.199262542563222e+00
"V0:p" 3.677230544028546e-05
"V1:p" 1.967092894269085e-05
"VDD:p" 2.037743399245555e-06
"VSS:p" -5.848097778222167e-05
"vdd" 1.200000000000000e+00
"vss" 0.000000000000000e+00
"time" 1.256336115888026e-11
"in0" 0.000000000000000e+00
"in1" 1.200000000000000e+00
"net13" -5.932729471577161e-02
"out" 1.202220183634683e+00
"V0:p" 2.149031202222601e-05
"V1:p" 1.301384570074992e-05
"VDD:p" 7.058341339996555e-07
"VSS:p" -3.520999185697581e-05
"vdd" 1.200000000000000e+00
"vss" 0.000000000000000e+00
"time" 1.437581590828312e-11
"in0" 0.000000000000000e+00
"in1" 1.200000000000000e+00
"net13" -2.009417064404799e-02
"out" 1.204968664479316e+00
"V0:p" 7.365063323124087e-06
"V1:p" 3.576534265259606e-06
"VDD:p" 1.031859603927203e-06
"VSS:p" -1.197345719231122e-05
"vdd" 1.200000000000000e+00
"vss" 0.000000000000000e+00
"time" 1.630575149916867e-11
"in0" 0.000000000000000e+00
"in1" 1.200000000000000e+00
"net13" -6.262657219908652e-03
"out" 1.205353157644913e+00
"V0:p" 2.053767118201520e-06
"V1:p" 1.485720840917206e-06
"VDD:p" 1.712209127396095e-07
"VSS:p" -3.710708871857901e-06
"vdd" 1.200000000000000e+00
"vss" 0.000000000000000e+00
"time" 1.784316396673246e-11
"in0" 0.000000000000000e+00
"in1" 1.200000000000000e+00
"net13" -2.592771714983542e-03
"out" 1.205048876623516e+00
"V0:p" 9.433395185010398e-07
"V1:p" -1.730654167885191e-07
"VDD:p" 7.818538879955591e-07
"VSS:p" -1.552127989707975e-06
"vdd" 1.200000000000000e+00
"vss" 0.000000000000000e+00
"time" 1.967433542070515e-11
"in0" 0.000000000000000e+00
"in1" 1.200000000000000e+00
"net13" -9.014125661602019e-04
"out" 1.204521654511742e+00
"V0:p" 1.118605224107808e-07
"V1:p" 3.823208056317952e-07
"VDD:p" 2.533189995347045e-08
"VSS:p" -5.195132279961549e-07
"vdd" 1.200000000000000e+00
"vss" 0.000000000000000e+00
"time" 2.167433542070515e-11
"in0" 0.000000000000000e+00
"in1" 1.200000000000000e+00
"net13" -3.058257254880529e-04
"out" 1.203926787498356e+00
"V0:p" 1.400004476789690e-07
"V1:p" -6.057261344077982e-07
"VDD:p" 6.585292175513106e-07
"VSS:p" -1.928035308221558e-07
"vdd" 1.200000000000000e+00
"vss" 0.000000000000000e+00
"time" 2.367433542070515e-11
"in0" 0.000000000000000e+00
"in1" 1.200000000000000e+00
"net13" -1.283194574993447e-04
"out" 1.203383415258780e+00
"V0:p" -1.414731554063697e-07
"V1:p" 2.787396201264566e-07
"VDD:p" -7.657843011855003e-08
"VSS:p" -6.068803460153708e-08
"vdd" 1.200000000000000e+00
"vss" 0.000000000000000e+00
"time" 2.567433542070515e-11
"in0" 0.000000000000000e+00
"in1" 1.200000000000000e+00
"net13" -7.170057127209415e-05
"out" 1.202907353363721e+00
"V0:p" 7.835600972838941e-08
"V1:p" -5.983362670751257e-07
"VDD:p" 5.742584038775873e-07
"VSS:p" -5.427814653074243e-08
"vdd" 1.200000000000000e+00
"vss" 0.000000000000000e+00
"time" 2.767433542070515e-11
"in0" 0.000000000000000e+00
"in1" 1.200000000000000e+00
"net13" -5.053698939213805e-05
"out" 1.202495805559084e+00
"V0:p" -1.498430149896143e-07
"V1:p" 3.127916680035919e-07
"VDD:p" -1.479396283834773e-07
"VSS:p" -1.500902462995871e-08
"vdd" 1.200000000000000e+00
"vss" 0.000000000000000e+00
"time" 2.967433542070515e-11
"in0" 0.000000000000000e+00
"in1" 1.200000000000000e+00
"net13" -4.021729692459288e-05
"out" 1.202141636438660e+00
"V0:p" 8.383273606033617e-08
"V1:p" -5.611189571530890e-07
"VDD:p" 5.133271414979964e-07
"VSS:p" -3.604092040589385e-08
"vdd" 1.200000000000000e+00
"vss" 0.000000000000000e+00
"time" 3.167433542070515e-11
"in0" 0.000000000000000e+00
"in1" 1.200000000000000e+00
"net13" -3.359796906906685e-05
"out" 1.201837340397404e+00
"V0:p" -1.415898916977387e-07
"V1:p" 3.470508876029476e-07
"VDD:p" -2.001114636031605e-07
"VSS:p" -5.349532301289581e-09
"vdd" 1.200000000000000e+00
"vss" 0.000000000000000e+00
"time" 3.367433542070515e-11
"in0" 0.000000000000000e+00
"in1" 1.200000000000000e+00
"net13" -2.855219306377617e-05
"out" 1.201576063713513e+00
"V0:p" 9.187874471286504e-08
"V1:p" -5.310337928525631e-07
"VDD:p" 4.686136474559783e-07
"VSS:p" -2.945859931693117e-08
"vdd" 1.200000000000000e+00
"vss" 0.000000000000000e+00
"time" 3.567433542070515e-11
"in0" 0.000000000000000e+00
"in1" 1.200000000000000e+00
"net13" -2.440002633550757e-05
"out" 1.201351794426613e+00
"V0:p" -1.344502154646885e-07
"V1:p" 3.730789882285090e-07
"VDD:p" -2.384445805306535e-07
"VSS:p" -1.841922321911119e-10
"vdd" 1.200000000000000e+00
"vss" 0.000000000000000e+00
"time" 3.767433542070515e-11
"in0" 0.000000000000000e+00
"in1" 1.200000000000000e+00
"net13" -2.088520591012864e-05
"out" 1.201159327036238e+00
"V0:p" 9.804168964470312e-08
"V1:p" -5.086283009741559e-07
"VDD:p" 4.357473068240874e-07
"VSS:p" -2.516069549604425e-08
"vdd" 1.200000000000000e+00
"vss" 0.000000000000000e+00
"time" 3.967433542070515e-11
"in0" 0.000000000000000e+00
"in1" 1.200000000000000e+00
"net13" -1.788112303245165e-05
"out" 1.200994174639399e+00
"V0:p" -1.291750695273162e-07
"V1:p" 3.923316975665153e-07
"VDD:p" -2.666245264082419e-07
"VSS:p" 3.467898370452297e-09
"vdd" 1.200000000000000e+00
"vss" 0.000000000000000e+00
"time" 4.167433542070515e-11
"in0" 0.000000000000000e+00
"in1" 1.200000000000000e+00
"net13" -1.530558571938893e-05
"out" 1.200852476448265e+00
"V0:p" 1.025463890635642e-07
"V1:p" -4.920963710680820e-07
"VDD:p" 4.115854171860833e-07
"VSS:p" -2.203543518308378e-08
"vdd" 1.200000000000000e+00
"vss" 0.000000000000000e+00
"time" 4.367433542070515e-11
"in0" 0.000000000000000e+00
"in1" 1.200000000000000e+00
"net13" -1.309545383999042e-05
"out" 1.200730913069521e+00
"V0:p" -1.253296827402012e-07
"V1:p" 4.065226194648790e-07
"VDD:p" -2.873412327331903e-07
"VSS:p" 6.148296009921480e-09
"vdd" 1.200000000000000e+00
"vss" 0.000000000000000e+00
"time" 4.567433542070515e-11
"in0" 0.000000000000000e+00
"in1" 1.200000000000000e+00
"net13" -1.119852779219349e-05
"out" 1.200626631907498e+00
"V0:p" 1.058298021559384e-07
"V1:p" -4.799173742375436e-07
"VDD:p" 3.938227193208348e-07
"VSS:p" -1.973514724053052e-08
"vdd" 1.200000000000000e+00
"vss" 0.000000000000000e+00
"time" 4.767433542070515e-11
"in0" 0.000000000000000e+00
"in1" 1.200000000000000e+00
"net13" -9.570483698138121e-06
"out" 1.200537182331052e+00
"V0:p" -1.225249284711615e-07
"V1:p" 4.169734371101182e-07
"VDD:p" -3.025710806984739e-07
"VSS:p" 8.122572060817821e-09
"vdd" 1.200000000000000e+00
"vss" 0.000000000000000e+00
"time" 4.967433542070515e-11
"in0" 0.000000000000000e+00
"in1" 1.200000000000000e+00
"net13" -8.173349569943831e-06
"out" 1.200460459594217e+00
"V0:p" 1.082267349047005e-07
"V1:p" -4.709505439084552e-07
"VDD:p" 3.807645942731066e-07
"VSS:p" -1.804078527097818e-08
"vdd" 1.200000000000000e+00
"vss" 0.000000000000000e+00
"time" 5.167433542070515e-11
"in0" 0.000000000000000e+00
"in1" 1.200000000000000e+00
"net13" -6.974507634036216e-06
"out" 1.200394656428566e+00
"V0:p" -1.204756727882161e-07
"V1:p" 4.246662517880634e-07
"VDD:p" -3.137671328874509e-07
"VSS:p" 9.576553889013052e-09
"vdd" 1.200000000000000e+00
"vss" 0.000000000000000e+00
"time" 5.367433542070515e-11
"in0" 0.000000000000000e+00
"in1" 1.200000000000000e+00
"net13" -5.945921863087357e-06
"out" 1.200338221305140e+00
"V0:p" 1.099793950681418e-07
"V1:p" -4.643512863875153e-07
"VDD:p" 3.711651069601997e-07
"VSS:p" -1.679321564234404e-08
"vdd" 1.200000000000000e+00
"vss" 0.000000000000000e+00
"time" 5.567433542070515e-11
"in0" 0.000000000000000e+00
"in1" 1.200000000000000e+00
"net13" -5.063495187952551e-06
"out" 1.200289822475296e+00
"V0:p" -1.189761881209908e-07
"V1:p" 4.303269920929026e-07
"VDD:p" -3.219977114464282e-07
"VSS:p" 1.064690747549199e-08
"vdd" 1.200000000000000e+00
"vss" 0.000000000000000e+00
"time" 5.767433542070515e-11
"in0" 0.000000000000000e+00
"in1" 1.200000000000000e+00
"net13" -4.306520739467501e-06
"out" 1.200248317009922e+00
"V0:p" 1.112626462922166e-07
"V1:p" -4.594958985528908e-07
"VDD:p" 3.641082383975372e-07
"VSS:p" -1.587498613838094e-08
"vdd" 1.200000000000000e+00
"vss" 0.000000000000000e+00
"time" 5.967433542070515e-11
"in0" 0.000000000000000e+00
"in1" 1.200000000000000e+00
"net13" -3.657209554079210e-06
"out" 1.200212724156634e+00
"V0:p" -1.178777113185585e-07
"V1:p" 4.344913765080714e-07
"VDD:p" -3.280482376201666e-07
"VSS:p" 1.143457243249640e-08
"vdd" 1.200000000000000e+00
"vss" 0.000000000000000e+00
"time" 6.167433542070515e-11
"in0" 0.000000000000000e+00
"in1" 1.200000000000000e+00
"net13" -3.100283252710792e-06
"out" 1.200182202423591e+00
"V0:p" 1.122031608506178e-07
"V1:p" -4.559243456813112e-07
"VDD:p" 3.589205509435755e-07
"VSS:p" -1.519936611483367e-08
"vdd" 1.200000000000000e+00
"vss" 0.000000000000000e+00
"time" 6.367433542070516e-11
"in0" 0.000000000000000e+00
"in1" 1.200000000000000e+00
"net13" -2.622622708814679e-06
"out" 1.200156029876895e+00
"V0:p" -1.170722900697074e-07
"V1:p" 4.375543661414089e-07
"VDD:p" -3.324961280604724e-07
"VSS:p" 1.201405199093960e-08
"vdd" 1.200000000000000e+00
"vss" 0.000000000000000e+00
"time" 6.567433542070516e-11
"in0" 0.000000000000000e+00
"in1" 1.200000000000000e+00
"net13" -2.212965156886387e-06
"out" 1.200133587207129e+00
"V0:p" 1.128930075093073e-07
"V1:p" -4.532975967100048e-07
"VDD:p" 3.551069605842258e-07
"VSS:p" -1.470237138580518e-08
"vdd" 1.200000000000000e+00
"vss" 0.000000000000000e+00
"time" 6.767433542070517e-11
"in0" 0.000000000000000e+00
"in1" 1.200000000000000e+00
"net13" -1.861643220396352e-06
"out" 1.200114343180518e+00
"V0:p" -1.164813488052016e-07
"V1:p" 4.398069363048465e-07
"VDD:p" -3.357658719244875e-07
"VSS:p" 1.244028442744484e-08
"vdd" 1.200000000000000e+00
"vss" 0.000000000000000e+00
"time" 6.967433542070518e-11
"in0" 0.000000000000000e+00
"in1" 1.200000000000000e+00
"net13" -1.560360195619107e-06
"out" 1.200097842142421e+00
"V0:p" 1.133992865051335e-07
"V1:p" -4.513659547592774e-07
"VDD:p" 3.523035080898689e-07
"VSS:p" -1.433683983821834e-08
"vdd" 1.200000000000000e+00
"vss" 0.000000000000000e+00
"time" 7.167433542070518e-11
"in0" 0.000000000000000e+00
"in1" 1.200000000000000e+00
"net13" -1.301996660804502e-06
"out" 1.200083693286269e+00
"V0:p" -1.160475563477250e-07
"V1:p" 4.414633356992388e-07
"VDD:p" -3.381695288436054e-07
"VSS:p" 1.275374949480202e-08
"vdd" 1.200000000000000e+00
"vss" 0.000000000000000e+00
"time" 7.367433542070519e-11
"in0" 0.000000000000000e+00
"in1" 1.200000000000000e+00
"net13" -1.080444127355318e-06
"out" 1.200071561440496e+00
"V0:p" 1.137710050202610e-07
"V1:p" -4.499456059788049e-07
"VDD:p" 3.502426333412298e-07
"VSS:p" -1.406803238496307e-08
"vdd" 1.200000000000000e+00
"vss" 0.000000000000000e+00
"time" 7.567433542070519e-11
"in0" 0.000000000000000e+00
"in1" 1.200000000000000e+00
"net13" -8.904620140828392e-07
"out" 1.200061159160211e+00
"V0:p" -1.157290038890597e-07
"V1:p" 4.426812525363830e-07
"VDD:p" -3.399365045596192e-07
"VSS:p" 1.298425591457299e-08
"vdd" 1.200000000000000e+00
"vss" 0.000000000000000e+00
"time" 7.767433542070520e-11
"in0" 0.000000000000000e+00
"in1" 1.200000000000000e+00
"net13" -7.275547191454332e-07
"out" 1.200052239939905e+00
"V0:p" 1.140440143620602e-07
"V1:p" -4.489012850488843e-07
"VDD:p" 3.487276444468603e-07
"VSS:p" -1.387037376285495e-08
"vdd" 1.200000000000000e+00
"vss" 0.000000000000000e+00
"time" 7.967433542070521e-11
"in0" 0.000000000000000e+00
"in1" 1.200000000000000e+00
"net13" -5.878660035725803e-07
"out" 1.200044592389098e+00
"V0:p" -1.154950126050220e-07
"V1:p" 4.435767099332651e-07
"VDD:p" -3.412354419545396e-07
"VSS:p" 1.315374462933275e-08
"vdd" 1.200000000000000e+00
"vss" 0.000000000000000e+00
"time" 8.167433542070521e-11
"in0" 0.000000000000000e+00
"in1" 1.200000000000000e+00
"net13" -4.680882736942759e-07
"out" 1.200038035234921e+00
"V0:p" 1.142445741680869e-07
"V1:p" -4.481334795243553e-07
"VDD:p" 3.476139478107000e-07
"VSS:p" -1.372504245757611e-08
"vdd" 1.200000000000000e+00
