HEADER
"PSFversion" "1.00"
"simulator" "spectre"
"version" "19.1.0.237.isr3"
"date" "4:10:14 PM, Tue Aug 30, 2022"
"design" "// Generated for: spectre"
"analysis type" "tran"
"analysis name" "sim"
"analysis description" "Transient Analysis `sim': time = (0 s -> 100 ps)"
"xVecSorted" "ascending"
"tolerance.relative" 0.00100000
"start" 0.00000
"outputstart" 0.00000
"stop" 1.00000e-10
"step" 1.00000e-13
"istep" 0.00100000
"maxstep" 2.00000e-12
"ic" "all"
"useprevic" "no"
"skipdc" "no"
"reltol" 0.00100000
"abstol(V)" 1.00000e-06
"abstol(I)" 1.00000e-12
"temp" 27.0000
"tnom" 27.0000
"tempeffects" "all"
"errpreset" "moderate"
"method" "traponly"
"lteratio" 3.50000
"relref" "sigglobal"
"cmin" 0.00000
"gmin" 1.00000e-12
TYPE
"sweep" FLOAT DOUBLE PROP(
"key" "sweep"
)
"LogicV" FLOAT DOUBLE PROP(
"key" "node"
)
"Tau" FLOAT DOUBLE PROP(
"units" "N*m"
"key" "node"
"tolerance" 1.00000e-06
)
"Alpha" FLOAT DOUBLE PROP(
"units" "rads/s^2"
"key" "node"
"tolerance" 1.00000e-06
)
"Omega" FLOAT DOUBLE PROP(
"units" "rads/s"
"key" "node"
"tolerance" 1.00000e-06
)
"Theta" FLOAT DOUBLE PROP(
"units" "rads"
"key" "node"
"tolerance" 1.00000e-06
)
"F" FLOAT DOUBLE PROP(
"units" "N"
"key" "node"
"tolerance" 1.00000e-06
)
"Imp" FLOAT DOUBLE PROP(
"units" "m/s^3"
"key" "node"
"tolerance" 1.00000e-06
)
"Acc" FLOAT DOUBLE PROP(
"units" "m/s^2"
"key" "node"
"tolerance" 1.00000e-06
)
"Vel" FLOAT DOUBLE PROP(
"units" "m/s"
"key" "node"
"tolerance" 1.00000e-06
)
"Pos" FLOAT DOUBLE PROP(
"units" "m"
"key" "node"
"tolerance" 1.00000e-06
)
"Phi" FLOAT DOUBLE PROP(
"units" "Wb"
"key" "node"
"tolerance" 1.00000e-09
)
"V" FLOAT DOUBLE PROP(
"units" "V"
"key" "node"
"tolerance" 1.00000e-06
)
"I" FLOAT DOUBLE PROP(
"units" "A"
"key" "branch"
"tolerance" 1.00000e-12
)
"MMF" FLOAT DOUBLE PROP(
"units" "A*turn"
"key" "node"
"tolerance" 1.00000e-12
)
"Wb" FLOAT DOUBLE PROP(
"units" "Wb"
"key" "node"
"tolerance" 1.00000e-09
)
"Temp" FLOAT DOUBLE PROP(
"units" "C"
"key" "node"
"tolerance" 0.000100000
)
"Pwr" FLOAT DOUBLE PROP(
"units" "W"
"key" "node"
"tolerance" 1.00000e-09
)
"U" FLOAT DOUBLE PROP(
"units" ""
"key" "node"
"tolerance" 1.00000e-06
)
"V/Sec" FLOAT DOUBLE PROP(
"units" "V/s"
"key" "node"
"tolerance" 0.000100000
)
"I/Sec" FLOAT DOUBLE PROP(
"units" "A/s"
"key" "node"
"tolerance" 1.00000e-06
)
"1/Sec" FLOAT DOUBLE PROP(
"units" "1/s"
"key" "node"
"tolerance" 0.000100000
)
"HOD" FLOAT DOUBLE PROP(
"units" ""
"key" "node"
"tolerance" 0.0100000
)
"Q" FLOAT DOUBLE PROP(
"units" "coul"
"key" "node"
"tolerance" 1.00000e-14
)
SWEEP
"time" "sweep" PROP(
"sweep_direction" 0
"units" "s"
"plot" 0
"grid" 1
)
TRACE
"GND:p" "I"
"in0" "V"
"in1" "V"
"net13" "V"
"out" "V"
"V0:p" "I"
"V1:p" "I"
"VDD:p" "I"
"vdd" "V"
"vss" "V"
VALUE
"time" 0.000000000000000e+00
"GND:p" 2.170367324928983e-10
"in0" 1.200000000000000e+00
"in1" 1.200000000000000e+00
"net13" 3.706476565175914e-07
"out" 6.999538919529706e-07
"V0:p" -7.657574485775169e-11
"V1:p" -7.657574584620934e-11
"VDD:p" -6.388557615303578e-11
"vdd" 1.200000000000000e+00
"vss" 0.000000000000000e+00
"time" 1.000000000000000e-13
"GND:p" 2.628417916288850e-07
"in0" 1.200000000000000e+00
"in1" 1.200000000000000e+00
"net13" 7.064512392419089e-05
"out" 3.745309649184794e-04
"V0:p" 3.452763443729822e-06
"V1:p" 1.139797516434050e-06
"VDD:p" -4.855402751792758e-06
"vdd" 1.200000000000000e+00
"vss" 0.000000000000000e+00
"time" 3.000000000000000e-13
"GND:p" 1.019004214391829e-06
"in0" 1.200000000000000e+00
"in1" 1.200000000000000e+00
"net13" 5.273184040887099e-04
"out" 2.548788258924887e-03
"V0:p" 1.018931316668316e-05
"V1:p" 3.462174001778670e-06
"VDD:p" -1.467049138285063e-05
"vdd" 1.200000000000000e+00
"vss" 0.000000000000000e+00
"time" 7.000000000000000e-13
"GND:p" 2.999213966097456e-06
"in0" 1.200000000000000e+00
"in1" 1.200000000000000e+00
"net13" 2.128991806732212e-03
"out" 9.630159898213062e-03
"V0:p" 2.331180958289966e-05
"V1:p" 8.162549974282264e-06
"VDD:p" -3.447357352328198e-05
"vdd" 1.200000000000000e+00
"vss" 0.000000000000000e+00
"time" 1.246165586272882e-12
"GND:p" 7.218433894337341e-06
"in0" 1.200000000000000e+00
"in1" 1.200000000000000e+00
"net13" 6.717083172406919e-03
"out" 2.766790621213325e-02
"V0:p" 4.011313981031278e-05
"V1:p" 1.464747686410443e-05
"VDD:p" -6.197905056875151e-05
"vdd" 1.200000000000000e+00
"vss" 0.000000000000000e+00
"time" 2.128737702673500e-12
"GND:p" 1.757013063955319e-05
"in0" 1.200000000000000e+00
"in1" 1.200000000000000e+00
"net13" 2.054187092791978e-02
"out" 7.517745072213994e-02
"V0:p" 6.473050593100474e-05
"V1:p" 2.482506032212161e-05
"VDD:p" -1.071256968926832e-04
"vdd" 1.200000000000000e+00
"vss" 0.000000000000000e+00
"time" 3.606825634014548e-12
"GND:p" 4.272202360494023e-05
"in0" 1.200000000000000e+00
"in1" 1.200000000000000e+00
"net13" 6.107895763519793e-02
"out" 2.017088600081113e-01
"V0:p" 9.969696256692379e-05
"V1:p" 4.028833418554036e-05
"VDD:p" -1.827073203573999e-04
"vdd" 1.200000000000000e+00
"vss" 0.000000000000000e+00
"time" 5.000000000000000e-12
"GND:p" 7.095670151798330e-05
"in0" 1.200000000000000e+00
"in1" 1.200000000000000e+00
"net13" 1.161276042010878e-01
"out" 3.833410528658407e-01
"V0:p" 1.224462631198299e-04
"V1:p" 5.406156738979485e-05
"VDD:p" -2.474645320276115e-04
"vdd" 1.200000000000000e+00
"vss" 0.000000000000000e+00
"time" 5.500000000000000e-12
"GND:p" 7.943933384918333e-05
"in0" 1.200000000000000e+00
"in1" 1.200000000000000e+00
"net13" 1.374009220146392e-01
"out" 4.616384747737974e-01
"V0:p" 1.139826456030381e-04
"V1:p" 5.281871976989914e-05
"VDD:p" -2.462406992221211e-04
"vdd" 1.200000000000000e+00
"vss" 0.000000000000000e+00
"time" 5.999999999999999e-12
"GND:p" 8.632520756353127e-05
"in0" 1.200000000000000e+00
"in1" 1.200000000000000e+00
"net13" 1.577961618927222e-01
"out" 5.417867201356636e-01
"V0:p" 1.035108395355497e-04
"V1:p" 5.111720359352481e-05
"VDD:p" -2.409532506926049e-04
"vdd" 1.200000000000000e+00
"vss" 0.000000000000000e+00
"time" 6.343082177967855e-12
"GND:p" 9.043993411369477e-05
"in0" 1.200000000000000e+00
"in1" 1.200000000000000e+00
"net13" 1.701212572711701e-01
"out" 5.898622243919750e-01
"V0:p" 9.354347926802180e-05
"V1:p" 4.511212907701838e-05
"VDD:p" -2.290955424587345e-04
"vdd" 1.200000000000000e+00
"vss" 0.000000000000000e+00
"time" 6.862581976269138e-12
"GND:p" 9.485149253000005e-05
"in0" 1.200000000000000e+00
"in1" 1.200000000000000e+00
"net13" 1.871246788219295e-01
"out" 6.557430849421783e-01
"V0:p" 7.491803528133944e-05
"V1:p" 3.596858528147735e-05
"VDD:p" -2.057381130928168e-04
"vdd" 1.200000000000000e+00
"vss" 0.000000000000000e+00
"time" 7.636119092096588e-12
"GND:p" 9.941291956785919e-05
"in0" 1.200000000000000e+00
"in1" 1.200000000000000e+00
"net13" 2.063024432745970e-01
"out" 7.285391454896432e-01
"V0:p" 5.046923080063647e-05
"V1:p" 2.392522497683253e-05
"VDD:p" -1.738073753453278e-04
"vdd" 1.200000000000000e+00
"vss" 0.000000000000000e+00
"time" 8.418209049361223e-12
"GND:p" 1.015729185730675e-04
"in0" 1.200000000000000e+00
"in1" 1.200000000000000e+00
"net13" 2.188578674532698e-01
"out" 7.722274110907583e-01
"V0:p" 2.619023045890230e-05
"V1:p" 1.241419116076795e-05
"VDD:p" -1.401773401927375e-04
"vdd" 1.200000000000000e+00
"vss" 0.000000000000000e+00
"time" 9.709104524680612e-12
"GND:p" 1.025508992175977e-04
"in0" 1.200000000000000e+00
"in1" 1.200000000000000e+00
"net13" 2.282155307367002e-01
"out" 7.780499568971703e-01
"V0:p" -9.590231160187847e-06
"V1:p" -4.260427138179711e-06
"VDD:p" -8.870024091923012e-05
"vdd" 1.200000000000000e+00
"vss" 0.000000000000000e+00
"time" 1.100000000000000e-11
"GND:p" 1.001028560849474e-04
"in0" 1.200000000000000e+00
"in1" 1.200000000000000e+00
"net13" 2.267567866993642e-01
"out" 7.000184415342886e-01
"V0:p" -4.496693155899117e-05
"V1:p" -2.030291560149847e-05
"VDD:p" -3.483300892445753e-05
"vdd" 1.200000000000000e+00
"vss" 0.000000000000000e+00
"time" 1.152887320496257e-11
"GND:p" 9.907514530198360e-05
"in0" 1.200000000000000e+00
"in1" 1.200000000000000e+00
"net13" 2.239809687469797e-01
"out" 6.514367150502866e-01
"V0:p" -4.467005383426370e-05
"V1:p" -2.013803077380943e-05
"VDD:p" -3.426706069390962e-05
"vdd" 1.200000000000000e+00
"vss" 0.000000000000000e+00
"time" 1.257216834891639e-11
"GND:p" 9.561699732946787e-05
"in0" 1.200000000000000e+00
"in1" 1.200000000000000e+00
"net13" 2.167168888039127e-01
"out" 5.593986998578291e-01
"V0:p" -4.551507912517471e-05
"V1:p" -2.016143203827070e-05
"VDD:p" -2.994048616602223e-05
"vdd" 1.200000000000000e+00
"vss" 0.000000000000000e+00
"time" 1.332207831045507e-11
"GND:p" 9.226917285017235e-05
"in0" 1.200000000000000e+00
"in1" 1.200000000000000e+00
"net13" 2.092573422257489e-01
"out" 4.992161982385741e-01
"V0:p" -4.549336299236990e-05
"V1:p" -1.974170957194094e-05
"VDD:p" -2.703410028586281e-05
"vdd" 1.200000000000000e+00
"vss" 0.000000000000000e+00
"time" 1.478776572079198e-11
"GND:p" 8.363763547808525e-05
"in0" 1.200000000000000e+00
"in1" 1.200000000000000e+00
"net13" 1.894650467610221e-01
"out" 4.009974547305957e-01
"V0:p" -4.566899207241232e-05
"V1:p" -1.858590456997920e-05
"VDD:p" -1.938273883569265e-05
"vdd" 1.200000000000000e+00
"vss" 0.000000000000000e+00
"time" 1.661747632301258e-11
"GND:p" 7.178568829903627e-05
"in0" 1.200000000000000e+00
"in1" 1.200000000000000e+00
"net13" 1.600311738041492e-01
"out" 3.089038500738034e-01
"V0:p" -4.079337125544310e-05
"V1:p" -1.648593111076865e-05
"VDD:p" -1.450638593282603e-05
"vdd" 1.200000000000000e+00
"vss" 0.000000000000000e+00
"time" 1.861747632301258e-11
"GND:p" 5.876837279320869e-05
"in0" 1.200000000000000e+00
"in1" 1.200000000000000e+00
"net13" 1.284235934938950e-01
"out" 2.333060699915958e-01
"V0:p" -3.404341403149726e-05
"V1:p" -1.437419886088757e-05
"VDD:p" -1.035075990082233e-05
"vdd" 1.200000000000000e+00
"vss" 0.000000000000000e+00
"time" 2.061747632301258e-11
"GND:p" 4.700370855197488e-05
"in0" 1.200000000000000e+00
"in1" 1.200000000000000e+00
"net13" 1.005502082530980e-01
"out" 1.760635196939513e-01
"V0:p" -2.715478255354427e-05
"V1:p" -1.172135987299287e-05
"VDD:p" -8.127566125439139e-06
"vdd" 1.200000000000000e+00
"vss" 0.000000000000000e+00
"time" 2.261747632301258e-11
"GND:p" 3.680264479976105e-05
"in0" 1.200000000000000e+00
"in1" 1.200000000000000e+00
"net13" 7.742260250871889e-02
"out" 1.324436435430809e-01
"V0:p" -2.141985771297848e-05
"V1:p" -9.618644372201718e-06
"VDD:p" -5.764142714579431e-06
"vdd" 1.200000000000000e+00
"vss" 0.000000000000000e+00
"time" 2.461747632301258e-11
"GND:p" 2.846251907207923e-05
"in0" 1.200000000000000e+00
"in1" 1.200000000000000e+00
"net13" 5.891805802676734e-02
"out" 9.928475596032084e-02
"V0:p" -1.639775727498290e-05
"V1:p" -7.374321909196787e-06
"VDD:p" -4.690439887901064e-06
"vdd" 1.200000000000000e+00
"vss" 0.000000000000000e+00
"time" 2.661747632301258e-11
"GND:p" 2.169272436481254e-05
"in0" 1.200000000000000e+00
"in1" 1.200000000000000e+00
"net13" 4.446448872844400e-02
"out" 7.419249835577180e-02
"V0:p" -1.264379563933631e-05
"V1:p" -5.887148151836843e-06
"VDD:p" -3.161780573636780e-06
"vdd" 1.200000000000000e+00
"vss" 0.000000000000000e+00
"time" 2.861747632301258e-11
"GND:p" 1.646390683974671e-05
"in0" 1.200000000000000e+00
"in1" 1.200000000000000e+00
"net13" 3.335825640412586e-02
"out" 5.529425346515072e-02
"V0:p" -9.435085217994127e-06
"V1:p" -4.309655261000590e-06
"VDD:p" -2.719166360755243e-06
"vdd" 1.200000000000000e+00
"vss" 0.000000000000000e+00
"time" 3.061747632301258e-11
"GND:p" 1.234506763236040e-05
"in0" 1.200000000000000e+00
"in1" 1.200000000000000e+00
"net13" 2.492000729668331e-02
"out" 4.112115673024996e-02
"V0:p" -7.225727117786635e-06
"V1:p" -3.446294869173879e-06
"VDD:p" -1.673045645396312e-06
"vdd" 1.200000000000000e+00
"vss" 0.000000000000000e+00
"time" 3.261747632301258e-11
"GND:p" 9.283124937855203e-06
"in0" 1.200000000000000e+00
"in1" 1.200000000000000e+00
"net13" 1.855927943195396e-02
"out" 3.052927013271578e-02
"V0:p" -5.277074171490598e-06
"V1:p" -2.406826677387316e-06
"VDD:p" -1.599224088980867e-06
"vdd" 1.200000000000000e+00
"vss" 0.000000000000000e+00
"time" 3.461747632301258e-11
"GND:p" 6.885569711523122e-06
"in0" 1.200000000000000e+00
"in1" 1.200000000000000e+00
"net13" 1.379134694234723e-02
"out" 2.263609761605245e-02
"V0:p" -4.066803354336624e-06
"V1:p" -1.985044773314008e-06
"VDD:p" -8.337215838689124e-07
"vdd" 1.200000000000000e+00
"vss" 0.000000000000000e+00
"time" 3.661747632301258e-11
"GND:p" 5.163766394845336e-06
"in0" 1.200000000000000e+00
"in1" 1.200000000000000e+00
"net13" 1.023166697347030e-02
"out" 1.676703210686594e-02
"V0:p" -2.894897137217669e-06
"V1:p" -1.296601716339258e-06
"VDD:p" -9.722675412916609e-07
"vdd" 1.200000000000000e+00
"vss" 0.000000000000000e+00
"time" 3.861747632301258e-11
"GND:p" 3.794768826696746e-06
"in0" 1.200000000000000e+00
"in1" 1.200000000000000e+00
"net13" 7.581751841590090e-03
"out" 1.241042280922633e-02
"V0:p" -2.280156881003411e-06
"V1:p" -1.147957884542147e-06
"VDD:p" -3.666540611481532e-07
"vdd" 1.200000000000000e+00
"vss" 0.000000000000000e+00
"time" 4.061747632301258e-11
"GND:p" 2.854278923501135e-06
"in0" 1.200000000000000e+00
"in1" 1.200000000000000e+00
"net13" 5.613248042479485e-03
"out" 9.180676381720834e-03
"V0:p" -1.560287406573531e-06
"V1:p" -6.689419161957006e-07
"VDD:p" -6.250496007346142e-07
"vdd" 1.200000000000000e+00
"vss" 0.000000000000000e+00
"time" 4.261747632301258e-11
"GND:p" 2.074351767175497e-06
"in0" 1.200000000000000e+00
"in1" 1.200000000000000e+00
"net13" 4.153188545578865e-03
"out" 6.788645915468700e-03
"V0:p" -1.286175282352179e-06
"V1:p" -6.792224039367665e-07
"VDD:p" -1.089540808847083e-07
"vdd" 1.200000000000000e+00
"vss" 0.000000000000000e+00
"time" 4.461747632301258e-11
"GND:p" 1.575568018756613e-06
"in0" 1.200000000000000e+00
"in1" 1.200000000000000e+00
"net13" 3.071471487953020e-03
"out" 5.018335905569031e-03
"V0:p" -8.216212524341229e-07
"V1:p" -3.199201740843018e-07
"VDD:p" -4.340265922398155e-07
"vdd" 1.200000000000000e+00
"vss" 0.000000000000000e+00
"time" 4.661747632301258e-11
"GND:p" 1.125523549636639e-06
"in0" 1.200000000000000e+00
"in1" 1.200000000000000e+00
"net13" 2.270723300521262e-03
"out" 3.708863146857694e-03
"V0:p" -7.381342892491015e-07
"V1:p" -4.199001020754879e-07
"VDD:p" 3.251084169022761e-08
"vdd" 1.200000000000000e+00
"vss" 0.000000000000000e+00
"time" 4.861747632301257e-11
"GND:p" 8.723847706126942e-07
"in0" 1.200000000000000e+00
"in1" 1.200000000000000e+00
"net13" 1.678326413360872e-03
"out" 2.740655667440990e-03
"V0:p" -4.154988009744642e-07
"V1:p" -1.275495015869658e-07
"VDD:p" -3.293364680537581e-07
"vdd" 1.200000000000000e+00
"vss" 0.000000000000000e+00
"time" 5.061747632301257e-11
"GND:p" 6.048628384772351e-07
"in0" 1.200000000000000e+00
"in1" 1.200000000000000e+00
"net13" 1.240265967467072e-03
"out" 2.024989752542034e-03
"V0:p" -4.374462729044513e-07
"V1:p" -2.773618302951482e-07
"VDD:p" 1.099452647247494e-07
"vdd" 1.200000000000000e+00
"vss" 0.000000000000000e+00
"time" 5.261747632301257e-11
"GND:p" 4.871285819934993e-07
"in0" 1.200000000000000e+00
"in1" 1.200000000000000e+00
"net13" 9.164403546053050e-04
"out" 1.496111387562184e-03
"V0:p" -1.930188168640690e-07
"V1:p" -2.202550512379455e-08
"VDD:p" -2.720842600074789e-07
"vdd" 1.200000000000000e+00
"vss" 0.000000000000000e+00
"time" 5.461747632301257e-11
"GND:p" 3.199387545160437e-07
"in0" 1.200000000000000e+00
"in1" 1.200000000000000e+00
"net13" 6.771186594008006e-04
"out" 1.105333620351960e-03
"V0:p" -2.729122341287260e-07
"V1:p" -1.992896747530190e-07
"VDD:p" 1.522631543674361e-07
"vdd" 1.200000000000000e+00
"vss" 0.000000000000000e+00
"time" 5.661747632301257e-11
"GND:p" 2.764842892909085e-07
"in0" 1.200000000000000e+00
"in1" 1.200000000000000e+00
"net13" 5.002810902413940e-04
"out" 8.166307951778217e-04
"V0:p" -7.138188884431007e-08
"V1:p" 3.570940243276453e-08
"VDD:p" -2.408118028806641e-07
"vdd" 1.200000000000000e+00
"vss" 0.000000000000000e+00
"time" 5.861747632301257e-11
"GND:p" 1.642515934567162e-07
"in0" 1.200000000000000e+00
"in1" 1.200000000000000e+00
"net13" 3.696311725805005e-04
"out" 6.033591486479289e-04
"V0:p" -1.830120575358106e-07
"V1:p" -1.566089979690636e-07
"VDD:p" 1.753694620495675e-07
"vdd" 1.200000000000000e+00
"vss" 0.000000000000000e+00
"time" 6.061747632301258e-11
"GND:p" 1.614389125856469e-07
"in0" 1.200000000000000e+00
"in1" 1.200000000000000e+00
"net13" 2.731147900868694e-04
"out" 4.458207954578088e-04
"V0:p" -4.950854650336626e-09
"V1:p" 6.725318824839029e-08
"VDD:p" -2.237412461851099e-07
"vdd" 1.200000000000000e+00
"vss" 0.000000000000000e+00
"time" 6.261747632301258e-11
"GND:p" 7.925109246515565e-08
"in0" 1.200000000000000e+00
"in1" 1.200000000000000e+00
"net13" 2.018194076405337e-04
"out" 3.294569371656613e-04
"V0:p" -1.339304279911732e-07
"V1:p" -1.333004661069335e-07
"VDD:p" 1.879798016337101e-07
"vdd" 1.200000000000000e+00
"vss" 0.000000000000000e+00
"time" 6.461747632301259e-11
"GND:p" 9.864370626552104e-08
"in0" 1.200000000000000e+00
"in1" 1.200000000000000e+00
"net13" 1.491572689291263e-04
"out" 2.435092620617177e-04
"V0:p" 3.130855800404346e-08
"V1:p" 8.447409139811939e-08
"VDD:p" -2.144263556686597e-07
"vdd" 1.200000000000000e+00
"vss" 0.000000000000000e+00
"time" 6.661747632301260e-11
"GND:p" 3.286406340355271e-08
"in0" 1.200000000000000e+00
"in1" 1.200000000000000e+00
"net13" 1.102600639958162e-04
"out" 1.800290327719394e-04
"V0:p" -1.071456248632513e-07
"V1:p" -1.205785490851096e-07
"VDD:p" 1.948601105462174e-07
"vdd" 1.200000000000000e+00
"vss" 0.000000000000000e+00
"time" 6.861747632301260e-11
"GND:p" 6.437948859604911e-08
"in0" 1.200000000000000e+00
"in1" 1.200000000000000e+00
"net13" 8.153072683875283e-05
"out" 1.331440003829886e-04
"V0:p" 5.109332631274390e-08
"V1:p" 9.387168005931585e-08
"VDD:p" -2.093444949697351e-07
"vdd" 1.200000000000000e+00
"vss" 0.000000000000000e+00
"time" 7.061747632301261e-11
"GND:p" 7.555585617849411e-09
"in0" 1.200000000000000e+00
"in1" 1.200000000000000e+00
"net13" 6.031179853623106e-05
"out" 9.851630515646028e-05
"V0:p" -9.253210346963302e-08
"V1:p" -1.136370045535416e-07
"VDD:p" 1.986135224067347e-07
"vdd" 1.200000000000000e+00
"vss" 0.000000000000000e+00
"time" 7.261747632301261e-11
"GND:p" 4.568656830135246e-08
"in0" 1.200000000000000e+00
"in1" 1.200000000000000e+00
"net13" 4.464016152673792e-05
"out" 7.294174053834208e-05
"V0:p" 6.188689486323371e-08
"V1:p" 9.899885260542399e-08
"VDD:p" -2.065723157710944e-07
"vdd" 1.200000000000000e+00
"vss" 0.000000000000000e+00
"time" 7.461747632301262e-11
"GND:p" -6.250732908844146e-09
"in0" 1.200000000000000e+00
"in1" 1.200000000000000e+00
"net13" 3.306571663472602e-05
"out" 5.405358991300152e-05
"V0:p" -8.456014397402791e-08
"V1:p" -1.098500808035399e-07
"VDD:p" 2.006609576873880e-07
"vdd" 1.200000000000000e+00
"vss" 0.000000000000000e+00
"time" 7.661747632301263e-11
"GND:p" 3.548960288250800e-08
"in0" 1.200000000000000e+00
"in1" 1.200000000000000e+00
"net13" 2.451736841871064e-05
"out" 4.010378738775362e-05
"V0:p" 6.777475683387484e-08
"V1:p" 1.017958073965792e-07
"VDD:p" -2.050601671146967e-07
"vdd" 1.200000000000000e+00
"vss" 0.000000000000000e+00
"time" 7.861747632301263e-11
"GND:p" -1.378183152223449e-08
"in0" 1.200000000000000e+00
"in1" 1.200000000000000e+00
"net13" 1.820399538907849e-05
"out" 2.980123606246264e-05
"V0:p" -8.021159241584342e-08
"V1:p" -1.077843337658924e-07
"VDD:p" 2.017777577061388e-07
"vdd" 1.200000000000000e+00
"vss" 0.000000000000000e+00
"time" 8.061747632301264e-11
"GND:p" 2.992746776202430e-08
"in0" 1.200000000000000e+00
"in1" 1.200000000000000e+00
"net13" 1.354128288874265e-05
"out" 2.219236693966469e-05
"V0:p" 7.098640187670001e-08
"V1:p" 1.033214876220571e-07
"VDD:p" -2.042353572622993e-07
"vdd" 1.200000000000000e+00
"vss" 0.000000000000000e+00
"time" 8.261747632301264e-11
"GND:p" -1.788974836075892e-08
"in0" 1.200000000000000e+00
"in1" 1.200000000000000e+00
"net13" 1.009767015503888e-05
"out" 1.657290922648962e-05
"V0:p" -7.783963199266004e-08
"V1:p" -1.066575360115390e-07
"VDD:p" 2.023869163666928e-07
"vdd" 1.200000000000000e+00
"vss" 0.000000000000000e+00
"time" 8.461747632301265e-11
