HEADER
"PSFversion" "1.00"
"simulator" "spectre"
"version" "19.1.0.237.isr3"
"date" "4:07:56 PM, Tue Aug 30, 2022"
"design" "// Generated for: spectre"
"analysis type" "tran"
"analysis name" "sim"
"analysis description" "Transient Analysis `sim': time = (0 s -> 100 ps)"
"xVecSorted" "ascending"
"tolerance.relative" 0.00100000
"start" 0.00000
"outputstart" 0.00000
"stop" 1.00000e-10
"step" 1.00000e-13
"istep" 0.00100000
"maxstep" 2.00000e-12
"ic" "all"
"useprevic" "no"
"skipdc" "no"
"reltol" 0.00100000
"abstol(V)" 1.00000e-06
"abstol(I)" 1.00000e-12
"temp" 27.0000
"tnom" 27.0000
"tempeffects" "all"
"errpreset" "moderate"
"method" "traponly"
"lteratio" 3.50000
"relref" "sigglobal"
"cmin" 0.00000
"gmin" 1.00000e-12
TYPE
"sweep" FLOAT DOUBLE PROP(
"key" "sweep"
)
"LogicV" FLOAT DOUBLE PROP(
"key" "node"
)
"Tau" FLOAT DOUBLE PROP(
"units" "N*m"
"key" "node"
"tolerance" 1.00000e-06
)
"Alpha" FLOAT DOUBLE PROP(
"units" "rads/s^2"
"key" "node"
"tolerance" 1.00000e-06
)
"Omega" FLOAT DOUBLE PROP(
"units" "rads/s"
"key" "node"
"tolerance" 1.00000e-06
)
"Theta" FLOAT DOUBLE PROP(
"units" "rads"
"key" "node"
"tolerance" 1.00000e-06
)
"F" FLOAT DOUBLE PROP(
"units" "N"
"key" "node"
"tolerance" 1.00000e-06
)
"Imp" FLOAT DOUBLE PROP(
"units" "m/s^3"
"key" "node"
"tolerance" 1.00000e-06
)
"Acc" FLOAT DOUBLE PROP(
"units" "m/s^2"
"key" "node"
"tolerance" 1.00000e-06
)
"Vel" FLOAT DOUBLE PROP(
"units" "m/s"
"key" "node"
"tolerance" 1.00000e-06
)
"Pos" FLOAT DOUBLE PROP(
"units" "m"
"key" "node"
"tolerance" 1.00000e-06
)
"Phi" FLOAT DOUBLE PROP(
"units" "Wb"
"key" "node"
"tolerance" 1.00000e-09
)
"V" FLOAT DOUBLE PROP(
"units" "V"
"key" "node"
"tolerance" 1.00000e-06
)
"I" FLOAT DOUBLE PROP(
"units" "A"
"key" "branch"
"tolerance" 1.00000e-12
)
"MMF" FLOAT DOUBLE PROP(
"units" "A*turn"
"key" "node"
"tolerance" 1.00000e-12
)
"Wb" FLOAT DOUBLE PROP(
"units" "Wb"
"key" "node"
"tolerance" 1.00000e-09
)
"Temp" FLOAT DOUBLE PROP(
"units" "C"
"key" "node"
"tolerance" 0.000100000
)
"Pwr" FLOAT DOUBLE PROP(
"units" "W"
"key" "node"
"tolerance" 1.00000e-09
)
"U" FLOAT DOUBLE PROP(
"units" ""
"key" "node"
"tolerance" 1.00000e-06
)
"V/Sec" FLOAT DOUBLE PROP(
"units" "V/s"
"key" "node"
"tolerance" 0.000100000
)
"I/Sec" FLOAT DOUBLE PROP(
"units" "A/s"
"key" "node"
"tolerance" 1.00000e-06
)
"1/Sec" FLOAT DOUBLE PROP(
"units" "1/s"
"key" "node"
"tolerance" 0.000100000
)
"HOD" FLOAT DOUBLE PROP(
"units" ""
"key" "node"
"tolerance" 0.0100000
)
"Q" FLOAT DOUBLE PROP(
"units" "coul"
"key" "node"
"tolerance" 1.00000e-14
)
SWEEP
"time" "sweep" PROP(
"sweep_direction" 0
"units" "s"
"plot" 0
"grid" 1
)
TRACE
"GND:p" "I"
"in0" "V"
"in1" "V"
"net13" "V"
"out" "V"
"V0:p" "I"
"V1:p" "I"
"VDD:p" "I"
"vdd" "V"
"vss" "V"
VALUE
"time" 0.000000000000000e+00
"GND:p" 1.513562509904299e-10
"in0" 0.000000000000000e+00
"in1" 1.200000000000000e+00
"net13" 2.522254161175162e-07
"out" 1.199998608538689e+00
"V0:p" 3.016577400687568e-11
"V1:p" -2.292918816276842e-11
"VDD:p" -1.585927201598540e-10
"vdd" 1.200000000000000e+00
"vss" 0.000000000000000e+00
"time" 1.000000000000000e-13
"GND:p" 6.090162905149629e-06
"in0" 0.000000000000000e+00
"in1" 1.200000000000000e+00
"net13" -5.665989338333671e-04
"out" 1.199961854374871e+00
"V0:p" -2.172902585115271e-06
"V1:p" -3.681342701301425e-06
"VDD:p" -2.359176187320650e-07
"vdd" 1.200000000000000e+00
"vss" 0.000000000000000e+00
"time" 3.000000000000000e-13
"GND:p" 1.706145673664825e-05
"in0" 0.000000000000000e+00
"in1" 1.200000000000000e+00
"net13" -3.741049347173872e-03
"out" 1.199757654996311e+00
"V0:p" -6.076954993978814e-06
"V1:p" -1.031519917513894e-05
"VDD:p" -6.693025675317997e-07
"vdd" 1.200000000000000e+00
"vss" 0.000000000000000e+00
"time" 7.000000000000000e-13
"GND:p" 3.684107186401862e-05
"in0" 0.000000000000000e+00
"in1" 1.200000000000000e+00
"net13" -1.374626712839231e-02
"out" 1.199118157170695e+00
"V0:p" -1.303837871628835e-05
"V1:p" -2.234075605087762e-05
"VDD:p" -1.461937096852652e-06
"vdd" 1.200000000000000e+00
"vss" 0.000000000000000e+00
"time" 1.175476863751118e-12
"GND:p" 5.543908496357441e-05
"in0" 0.000000000000000e+00
"in1" 1.200000000000000e+00
"net13" -3.398318405854608e-02
"out" 1.197840059054526e+00
"V0:p" -1.934552921944001e-05
"V1:p" -3.386389486271781e-05
"VDD:p" -2.229660881417029e-06
"vdd" 1.200000000000000e+00
"vss" 0.000000000000000e+00
"time" 2.039402515964074e-12
"GND:p" 7.969276047137082e-05
"in0" 0.000000000000000e+00
"in1" 1.200000000000000e+00
"net13" -8.709317854245220e-02
"out" 1.194570777114659e+00
"V0:p" -2.702113117057558e-05
"V1:p" -4.939334377417554e-05
"VDD:p" -3.278285526619034e-06
"vdd" 1.200000000000000e+00
"vss" 0.000000000000000e+00
"time" 2.985484476565904e-12
"GND:p" 9.721852376089376e-05
"in0" 0.000000000000000e+00
"in1" 1.200000000000000e+00
"net13" -1.614154002544480e-01
"out" 1.190190122541211e+00
"V0:p" -3.160709491037804e-05
"V1:p" -6.159102708001484e-05
"VDD:p" -4.020401770501532e-06
"vdd" 1.200000000000000e+00
"vss" 0.000000000000000e+00
"time" 4.106100062506831e-12
"GND:p" 1.118769391604179e-04
"in0" 0.000000000000000e+00
"in1" 1.200000000000000e+00
"net13" -2.616388837841194e-01
"out" 1.184784478107080e+00
"V0:p" -3.570243105227577e-05
"V1:p" -7.170938247596630e-05
"VDD:p" -4.465125632174766e-06
"vdd" 1.200000000000000e+00
"vss" 0.000000000000000e+00
"time" 5.000000000000000e-12
"GND:p" 1.220708617430611e-04
"in0" 0.000000000000000e+00
"in1" 1.200000000000000e+00
"net13" -3.457336570233613e-01
"out" 1.181204176004188e+00
"V0:p" -4.241405069585957e-05
"V1:p" -7.575681261929035e-05
"VDD:p" -3.899998427911891e-06
"vdd" 1.200000000000000e+00
"vss" 0.000000000000000e+00
"time" 5.497830092784926e-12
"GND:p" 1.009037444929750e-04
"in0" 0.000000000000000e+00
"in1" 1.200000000000000e+00
"net13" -3.832146918743811e-01
"out" 1.180004596473169e+00
"V0:p" -3.664472501157338e-05
"V1:p" -6.074877608520539e-05
"VDD:p" -3.510243396196233e-06
"vdd" 1.200000000000000e+00
"vss" 0.000000000000000e+00
"time" 5.999999999999999e-12
"GND:p" 8.261242350242082e-05
"in0" 0.000000000000000e+00
"in1" 1.200000000000000e+00
"net13" -4.156844745334914e-01
"out" 1.179244374621700e+00
"V0:p" -3.487523060634760e-05
"V1:p" -4.524014327811253e-05
"VDD:p" -2.497049617961535e-06
"vdd" 1.200000000000000e+00
"vss" 0.000000000000000e+00
"time" 6.327973539496009e-12
"GND:p" 5.494547457200772e-05
"in0" 0.000000000000000e+00
"in1" 1.200000000000000e+00
"net13" -4.273859272602011e-01
"out" 1.178700137468774e+00
"V0:p" -2.203071616903153e-05
"V1:p" -2.973030474424515e-05
"VDD:p" -3.184453658731880e-06
"vdd" 1.200000000000000e+00
"vss" 0.000000000000000e+00
"time" 6.868254958407515e-12
"GND:p" 1.382840561265692e-05
"in0" 0.000000000000000e+00
"in1" 1.200000000000000e+00
"net13" -4.384782049015258e-01
"out" 1.177763154850755e+00
"V0:p" -5.455646579846922e-06
"V1:p" -5.004830886881449e-06
"VDD:p" -3.367928145925954e-06
"vdd" 1.200000000000000e+00
"vss" 0.000000000000000e+00
"time" 7.477616783848790e-12
"GND:p" -2.322872437679917e-05
"in0" 0.000000000000000e+00
"in1" 1.200000000000000e+00
"net13" -4.342885220785718e-01
"out" 1.176603784946997e+00
"V0:p" 1.124196952741553e-05
"V1:p" 1.558369107211933e-05
"VDD:p" -3.596936222741316e-06
"vdd" 1.200000000000000e+00
"vss" 0.000000000000000e+00
"time" 8.351124780792363e-12
"GND:p" -6.350116555489966e-05
"in0" 0.000000000000000e+00
"in1" 1.200000000000000e+00
"net13" -4.048874427891163e-01
"out" 1.175769540983096e+00
"V0:p" 2.654054430939563e-05
"V1:p" 3.938345921372716e-05
"VDD:p" -2.422837968217527e-06
"vdd" 1.200000000000000e+00
"vss" 0.000000000000000e+00
"time" 9.354394710339592e-12
"GND:p" -9.436395457155132e-05
"in0" 0.000000000000000e+00
"in1" 1.200000000000000e+00
"net13" -3.437400446975295e-01
"out" 1.177499761215251e+00
"V0:p" 3.521269711984009e-05
"V1:p" 5.942185506402424e-05
"VDD:p" -2.705976123190877e-07
"vdd" 1.200000000000000e+00
"vss" 0.000000000000000e+00
"time" 1.017719735516979e-11
"GND:p" -1.091076963128103e-04
"in0" 0.000000000000000e+00
"in1" 1.200000000000000e+00
"net13" -2.758239135067785e-01
"out" 1.181509194843406e+00
"V0:p" 3.612740352534964e-05
"V1:p" 7.100025027702779e-05
"VDD:p" 1.980042510437867e-06
"vdd" 1.200000000000000e+00
"vss" 0.000000000000000e+00
"time" 1.100000000000000e-11
"GND:p" -1.165711748118274e-04
"in0" 0.000000000000000e+00
"in1" 1.200000000000000e+00
"net13" -1.970655330113408e-01
"out" 1.186969409041900e+00
"V0:p" 3.918780038812172e-05
"V1:p" 7.450876221095223e-05
"VDD:p" 2.874612212748237e-06
"vdd" 1.200000000000000e+00
"vss" 0.000000000000000e+00
"time" 1.150457878332905e-11
"GND:p" -9.271432620116082e-05
"in0" 0.000000000000000e+00
"in1" 1.200000000000000e+00
"net13" -1.563164986930022e-01
"out" 1.189874750710680e+00
"V0:p" 3.095992193253359e-05
"V1:p" 5.926499805105407e-05
"VDD:p" 2.489406217572288e-06
"vdd" 1.200000000000000e+00
"vss" 0.000000000000000e+00
"time" 1.218971640709725e-11
"GND:p" -6.438210873117042e-05
"in0" 0.000000000000000e+00
"in1" 1.200000000000000e+00
"net13" -1.086034050460344e-01
"out" 1.193309133736889e+00
"V0:p" 2.230983202007079e-05
"V1:p" 4.010768900563708e-05
"VDD:p" 1.964587705461260e-06
"vdd" 1.200000000000000e+00
"vss" 0.000000000000000e+00
"time" 1.355999165463365e-11
"GND:p" -2.990076233197652e-05
"in0" 0.000000000000000e+00
"in1" 1.200000000000000e+00
"net13" -5.020749247029192e-02
"out" 1.197491362442588e+00
"V0:p" 1.037513828011226e-05
"V1:p" 1.864102309877914e-05
"VDD:p" 8.846009530859878e-07
"vdd" 1.200000000000000e+00
"vss" 0.000000000000000e+00
"time" 1.480749452056548e-11
"GND:p" -1.464209738554417e-05
"in0" 0.000000000000000e+00
"in1" 1.200000000000000e+00
"net13" -2.473440546228409e-02
"out" 1.199271538108929e+00
"V0:p" 5.314338168047428e-06
"V1:p" 8.757634249371159e-06
"VDD:p" 5.701249681242895e-07
"vdd" 1.200000000000000e+00
"vss" 0.000000000000000e+00
"time" 1.607579261060189e-11
"GND:p" -7.180630105002059e-06
"in0" 0.000000000000000e+00
"in1" 1.200000000000000e+00
"net13" -1.197380296719498e-02
"out" 1.200125128866125e+00
"V0:p" 2.393095704729275e-06
"V1:p" 4.573319986033779e-06
"VDD:p" 2.142144142411750e-07
"vdd" 1.200000000000000e+00
"vss" 0.000000000000000e+00
"time" 1.744536067667099e-11
"GND:p" -3.157616386380712e-06
"in0" 0.000000000000000e+00
"in1" 1.200000000000000e+00
"net13" -5.421320391340124e-03
"out" 1.200497736485173e+00
"V0:p" 1.213912264213352e-06
"V1:p" 1.694917347254928e-06
"VDD:p" 2.487867749106994e-07
"vdd" 1.200000000000000e+00
"vss" 0.000000000000000e+00
"time" 1.918815455373358e-11
"GND:p" -1.195541543556354e-06
"in0" 0.000000000000000e+00
"in1" 1.200000000000000e+00
"net13" -1.903045519738955e-03
"out" 1.200711891944407e+00
"V0:p" 3.150326871319784e-07
"V1:p" 9.228144206222353e-07
"VDD:p" -4.230556419623325e-08
"vdd" 1.200000000000000e+00
"vss" 0.000000000000000e+00
"time" 2.118815455373358e-11
"GND:p" -2.650760898208103e-07
"in0" 0.000000000000000e+00
"in1" 1.200000000000000e+00
"net13" -5.555291688364283e-04
"out" 1.200715069869326e+00
"V0:p" 1.394632938508264e-07
"V1:p" -6.572685363650626e-08
"VDD:p" 1.913396496044303e-07
"vdd" 1.200000000000000e+00
"vss" 0.000000000000000e+00
"time" 2.318815455373358e-11
"GND:p" -1.636430278908285e-07
"in0" 0.000000000000000e+00
"in1" 1.200000000000000e+00
"net13" -1.671528935747184e-04
"out" 1.200643187440069e+00
"V0:p" -6.010079415907796e-08
"V1:p" 2.978575177815377e-07
"VDD:p" -7.411369572957158e-08
"vdd" 1.200000000000000e+00
"vss" 0.000000000000000e+00
"time" 2.518815455373358e-11
"GND:p" 3.262756497825460e-08
"in0" 0.000000000000000e+00
"in1" 1.200000000000000e+00
"net13" -5.456007874278751e-05
"out" 1.200560033263556e+00
"V0:p" 3.890356356442746e-08
"V1:p" -2.430584252199250e-07
"VDD:p" 1.715272966752914e-07
"vdd" 1.200000000000000e+00
"vss" 0.000000000000000e+00
"time" 2.718815455373358e-11
"GND:p" -7.707285477123437e-08
"in0" 0.000000000000000e+00
"in1" 1.200000000000000e+00
"net13" -2.132925878808433e-05
"out" 1.200482537015976e+00
"V0:p" -8.273361107722179e-08
"V1:p" 2.487324552051723e-07
"VDD:p" -8.892598935411382e-08
"vdd" 1.200000000000000e+00
"vss" 0.000000000000000e+00
"time" 2.918815455373358e-11
"GND:p" 5.843556779395606e-08
"in0" 0.000000000000000e+00
"in1" 1.200000000000000e+00
"net13" -1.098081059957915e-05
"out" 1.200414300578666e+00
"V0:p" 3.779506868551868e-08
"V1:p" -2.556823638777104e-07
"VDD:p" 1.594517273950916e-07
"vdd" 1.200000000000000e+00
"vss" 0.000000000000000e+00
"time" 3.118815455373358e-11
"GND:p" -6.881506056798131e-08
"in0" 0.000000000000000e+00
"in1" 1.200000000000000e+00
"net13" -7.300296474969322e-06
"out" 1.200355271491035e+00
"V0:p" -7.843197609202512e-08
"V1:p" 2.463475343921897e-07
"VDD:p" -9.910049772882255e-08
"vdd" 1.200000000000000e+00
"vss" 0.000000000000000e+00
"time" 3.318815455373358e-11
"GND:p" 6.154719313082313e-08
"in0" 0.000000000000000e+00
"in1" 1.200000000000000e+00
"net13" -5.629677906562871e-06
"out" 1.200304502598668e+00
"V0:p" 4.298865324686804e-08
"V1:p" -2.553152699401898e-07
"VDD:p" 1.507794235597885e-07
"vdd" 1.200000000000000e+00
"vss" 0.000000000000000e+00
"time" 3.518815455373358e-11
"GND:p" -6.728211007595586e-08
"in0" 0.000000000000000e+00
"in1" 1.200000000000000e+00
"net13" -4.621825871228118e-06
"out" 1.200260922734806e+00
"V0:p" -7.354702575270040e-08
"V1:p" 2.473505488262134e-07
"VDD:p" -1.065214129949547e-07
"vdd" 1.200000000000000e+00
"vss" 0.000000000000000e+00
"time" 3.718815455373358e-11
"GND:p" 6.253715154662553e-08
"in0" 0.000000000000000e+00
"in1" 1.200000000000000e+00
"net13" -3.878936223650836e-06
"out" 1.200223538794847e+00
"V0:p" 4.730150810798428e-08
"V1:p" -2.542596284623694e-07
"VDD:p" 1.444209688052661e-07
"vdd" 1.200000000000000e+00
"vss" 0.000000000000000e+00
"time" 3.918815455373358e-11
"GND:p" -6.652592116622993e-08
"in0" 0.000000000000000e+00
"in1" 1.200000000000000e+00
"net13" -3.276522390305196e-06
"out" 1.200191477519909e+00
"V0:p" -6.981289084234601e-08
"V1:p" 2.483107265143641e-07
"VDD:p" -1.119719145032948e-07
"vdd" 1.200000000000000e+00
"vss" 0.000000000000000e+00
"time" 4.118815455373358e-11
"GND:p" 6.315915784181168e-08
"in0" 0.000000000000000e+00
"in1" 1.200000000000000e+00
"net13" -2.769789757470463e-06
"out" 1.200163983652940e+00
"V0:p" 5.051403556695072e-08
"V1:p" -2.534212800209680e-07
"VDD:p" 1.397480866101458e-07
"vdd" 1.200000000000000e+00
"vss" 0.000000000000000e+00
"time" 4.318815455373358e-11
"GND:p" -6.600004947693858e-08
"in0" 0.000000000000000e+00
"in1" 1.200000000000000e+00
"net13" -2.338038628591698e-06
"out" 1.200140407551685e+00
"V0:p" -6.705499277845262e-08
"V1:p" 2.490333557556140e-07
"VDD:p" -1.159783134977291e-07
"vdd" 1.200000000000000e+00
"vss" 0.000000000000000e+00
"time" 4.518815455373358e-11
"GND:p" 6.360798672014315e-08
"in0" 0.000000000000000e+00
"in1" 1.200000000000000e+00
"net13" -1.968578681594231e-06
"out" 1.200120191455967e+00
"V0:p" 5.287991824944829e-08
"V1:p" -2.528009626194947e-07
"VDD:p" 1.363130576474094e-07
"vdd" 1.200000000000000e+00
"vss" 0.000000000000000e+00
"time" 4.718815455373358e-11
"GND:p" -6.561575717311822e-08
"in0" 0.000000000000000e+00
"in1" 1.200000000000000e+00
"net13" -1.651970528895467e-06
"out" 1.200102856807800e+00
"V0:p" -6.502593033999781e-08
"V1:p" 2.495651600264278e-07
"VDD:p" -1.189234725109267e-07
"vdd" 1.200000000000000e+00
"vss" 0.000000000000000e+00
"time" 4.918815455373358e-11
"GND:p" 6.393736558292601e-08
"in0" 0.000000000000000e+00
"in1" 1.200000000000000e+00
"net13" -1.380529156911877e-06
"out" 1.200087993109433e+00
"V0:p" 5.461993594114866e-08
"V1:p" -2.523452062381424e-07
"VDD:p" 1.337879047115744e-07
"vdd" 1.200000000000000e+00
"vss" 0.000000000000000e+00
"time" 5.118815455373358e-11
"GND:p" -6.533335156329618e-08
"in0" 0.000000000000000e+00
"in1" 1.200000000000000e+00
"net13" -1.147779326194195e-06
"out" 1.200075248284646e+00
"V0:p" -6.353385141137863e-08
"V1:p" 2.499557194550999e-07
"VDD:p" -1.210885164778228e-07
"vdd" 1.200000000000000e+00
"vss" 0.000000000000000e+00
"time" 5.318815455373358e-11
"GND:p" 6.417951984094118e-08
"in0" 0.000000000000000e+00
"in1" 1.200000000000000e+00
"net13" -9.481996061415708e-07
"out" 1.200064320383931e+00
"V0:p" 5.589937181304110e-08
"V1:p" -2.520105069028779e-07
"VDD:p" 1.319316152461850e-07
"vdd" 1.200000000000000e+00
"vss" 0.000000000000000e+00
"time" 5.518815455373358e-11
"GND:p" -6.512570780840368e-08
"in0" 0.000000000000000e+00
"in1" 1.200000000000000e+00
"net13" -7.770630608378509e-07
"out" 1.200054950459243e+00
"V0:p" -6.243677366351089e-08
"V1:p" 2.502425637149365e-07
"VDD:p" -1.226800822405276e-07
"vdd" 1.200000000000000e+00
"vss" 0.000000000000000e+00
"time" 5.718815455373358e-11
"GND:p" 6.435757039956440e-08
"in0" 0.000000000000000e+00
"in1" 1.200000000000000e+00
"net13" -6.303177030168691e-07
"out" 1.200046916447693e+00
"V0:p" 5.684006977536015e-08
"V1:p" -2.517646616559981e-07
"VDD:p" 1.305670214784717e-07
"vdd" 1.200000000000000e+00
"vss" 0.000000000000000e+00
"time" 5.918815455373358e-11
"GND:p" -6.497303461944422e-08
"in0" 0.000000000000000e+00
"in1" 1.200000000000000e+00
"net13" -5.044887683284950e-07
"out" 1.200040027922939e+00
"V0:p" -6.163017408876074e-08
"V1:p" 2.504532808033404e-07
"VDD:p" -1.238500720928589e-07
"vdd" 1.200000000000000e+00
"vss" 0.000000000000000e+00
"time" 6.118815455373359e-11
"GND:p" 6.448848162152833e-08
"in0" 0.000000000000000e+00
"in1" 1.200000000000000e+00
"net13" -3.965962031795872e-07
"out" 1.200034121591946e+00
"V0:p" 5.753168021813742e-08
"V1:p" -2.515840452025492e-07
"VDD:p" 1.295638833606069e-07
"vdd" 1.200000000000000e+00
"vss" 0.000000000000000e+00
"time" 6.318815455373360e-11
"GND:p" -6.486078469617971e-08
"in0" 0.000000000000000e+00
"in1" 1.200000000000000e+00
"net13" -3.040842312996409e-07
"out" 1.200029057431698e+00
"V0:p" -6.103716481523168e-08
"V1:p" 2.506081025175686e-07
"VDD:p" -1.247101530042059e-07
"vdd" 1.200000000000000e+00
"vss" 0.000000000000000e+00
"time" 6.518815455373360e-11
"GND:p" 6.458472943790880e-08
"in0" 0.000000000000000e+00
"in1" 1.200000000000000e+00
"net13" -2.247610044306011e-07
"out" 1.200024715375216e+00
"V0:p" 5.804014202400268e-08
"V1:p" -2.514513298697050e-07
"VDD:p" 1.288264584055168e-07
"vdd" 1.200000000000000e+00
"vss" 0.000000000000000e+00
"time" 6.718815455373361e-11
"GND:p" -6.477825847550662e-08
"in0" 0.000000000000000e+00
"in1" 1.200000000000000e+00
"net13" -1.567468384706612e-07
"out" 1.200020992468977e+00
"V0:p" -6.060119890153931e-08
"V1:p" 2.507218712559516e-07
"VDD:p" -1.253424138765200e-07
"vdd" 1.200000000000000e+00
"vss" 0.000000000000000e+00
"time" 6.918815455373361e-11
"GND:p" 6.465548975652112e-08
"in0" 0.000000000000000e+00
"in1" 1.200000000000000e+00
"net13" -9.842980523538403e-08
"out" 1.200017800434825e+00
"V0:p" 5.841394646742441e-08
"V1:p" -2.513538004535370e-07
"VDD:p" 1.282843642275316e-07
"vdd" 1.200000000000000e+00
"vss" 0.000000000000000e+00
"time" 7.118815455373362e-11
"GND:p" -6.471758696375583e-08
"in0" 0.000000000000000e+00
"in1" 1.200000000000000e+00
"net13" -4.842762640371431e-08
"out" 1.200015063578930e+00
"V0:p" -6.028069418002344e-08
"V1:p" 2.508054811380664e-07
"VDD:p" -1.258071999922270e-07
"vdd" 1.200000000000000e+00
"vss" 0.000000000000000e+00
"time" 7.318815455373363e-11
"GND:p" 6.470751060843448e-08
"in0" 0.000000000000000e+00
"in1" 1.200000000000000e+00
"net13" -5.554982808213986e-09
"out" 1.200012716998471e+00
"V0:p" 5.868875026476241e-08
"V1:p" -2.512821221708700e-07
"VDD:p" 1.278858612957220e-07
"vdd" 1.200000000000000e+00
"vss" 0.000000000000000e+00
"time" 7.518815455373363e-11
"GND:p" -6.466609084275089e-08
"in0" 0.000000000000000e+00
"in1" 1.200000000000000e+00
"net13" 2.516794256342325e-08
"out" 1.200010704572264e+00
"V0:p" -6.004743920547287e-08
"V1:p" 2.508626067352653e-07
"VDD:p" -1.261490766854151e-07
"vdd" 1.200000000000000e+00
"vss" 0.000000000000000e+00
"time" 7.718815455373364e-11
"GND:p" 6.474216054321455e-08
"in0" 0.000000000000000e+00
"in1" 1.200000000000000e+00
"net13" 5.406383020454736e-08
"out" 1.200008979390197e+00
"V0:p" 5.889215543553121e-08
"V1:p" -2.512272777799962e-07
"VDD:p" 1.275929618000578e-07
"vdd" 1.200000000000000e+00
