HEADER
"PSFversion" "1.00"
"simulator" "spectre"
"version" "19.1.0.237.isr3"
"date" "1:47:06 AM, Sat Sep 10, 2022"
"design" "// Generated for: spectre"
"analysis type" "tran"
"analysis name" "sim"
"analysis description" "Transient Analysis `sim': time = (0 s -> 100 ps)"
"xVecSorted" "ascending"
"tolerance.relative" 0.00100000
"start" 0.00000
"outputstart" 0.00000
"stop" 1.00000e-10
"step" 1.00000e-13
"istep" 0.00100000
"maxstep" 2.00000e-12
"ic" "all"
"useprevic" "no"
"skipdc" "no"
"reltol" 0.00100000
"abstol(V)" 1.00000e-06
"abstol(I)" 1.00000e-12
"temp" 27.0000
"tnom" 27.0000
"tempeffects" "all"
"errpreset" "moderate"
"method" "traponly"
"lteratio" 3.50000
"relref" "sigglobal"
"cmin" 0.00000
"gmin" 1.00000e-12
TYPE
"sweep" FLOAT DOUBLE PROP(
"key" "sweep"
)
"LogicV" FLOAT DOUBLE PROP(
"key" "node"
)
"Tau" FLOAT DOUBLE PROP(
"units" "N*m"
"key" "node"
"tolerance" 1.00000e-06
)
"Alpha" FLOAT DOUBLE PROP(
"units" "rads/s^2"
"key" "node"
"tolerance" 1.00000e-06
)
"Omega" FLOAT DOUBLE PROP(
"units" "rads/s"
"key" "node"
"tolerance" 1.00000e-06
)
"Theta" FLOAT DOUBLE PROP(
"units" "rads"
"key" "node"
"tolerance" 1.00000e-06
)
"F" FLOAT DOUBLE PROP(
"units" "N"
"key" "node"
"tolerance" 1.00000e-06
)
"Imp" FLOAT DOUBLE PROP(
"units" "m/s^3"
"key" "node"
"tolerance" 1.00000e-06
)
"Acc" FLOAT DOUBLE PROP(
"units" "m/s^2"
"key" "node"
"tolerance" 1.00000e-06
)
"Vel" FLOAT DOUBLE PROP(
"units" "m/s"
"key" "node"
"tolerance" 1.00000e-06
)
"Pos" FLOAT DOUBLE PROP(
"units" "m"
"key" "node"
"tolerance" 1.00000e-06
)
"Phi" FLOAT DOUBLE PROP(
"units" "Wb"
"key" "node"
"tolerance" 1.00000e-09
)
"V" FLOAT DOUBLE PROP(
"units" "V"
"key" "node"
"tolerance" 1.00000e-06
)
"I" FLOAT DOUBLE PROP(
"units" "A"
"key" "branch"
"tolerance" 1.00000e-12
)
"MMF" FLOAT DOUBLE PROP(
"units" "A*turn"
"key" "node"
"tolerance" 1.00000e-12
)
"Wb" FLOAT DOUBLE PROP(
"units" "Wb"
"key" "node"
"tolerance" 1.00000e-09
)
"Temp" FLOAT DOUBLE PROP(
"units" "C"
"key" "node"
"tolerance" 0.000100000
)
"Pwr" FLOAT DOUBLE PROP(
"units" "W"
"key" "node"
"tolerance" 1.00000e-09
)
"U" FLOAT DOUBLE PROP(
"units" ""
"key" "node"
"tolerance" 1.00000e-06
)
"V/Sec" FLOAT DOUBLE PROP(
"units" "V/s"
"key" "node"
"tolerance" 0.000100000
)
"I/Sec" FLOAT DOUBLE PROP(
"units" "A/s"
"key" "node"
"tolerance" 1.00000e-06
)
"1/Sec" FLOAT DOUBLE PROP(
"units" "1/s"
"key" "node"
"tolerance" 0.000100000
)
"HOD" FLOAT DOUBLE PROP(
"units" ""
"key" "node"
"tolerance" 0.0100000
)
"Q" FLOAT DOUBLE PROP(
"units" "coul"
"key" "node"
"tolerance" 1.00000e-14
)
SWEEP
"time" "sweep" PROP(
"sweep_direction" 0
"units" "s"
"plot" 0
"grid" 1
)
TRACE
"in0" "V"
"in1" "V"
"net13" "V"
"out" "V"
"V0:p" "I"
"V1:p" "I"
"VDD:p" "I"
"VSS:p" "I"
"vdd" "V"
"vss" "V"
VALUE
"time" 0.000000000000000e+00
"in0" 1.200000000000000e+00
"in1" 1.200000000000000e+00
"net13" 3.706476565175914e-07
"out" 6.999538919529706e-07
"V0:p" -7.657574584620934e-11
"V1:p" -7.657574485775169e-11
"VDD:p" -6.388557615303578e-11
"VSS:p" 2.170367324928983e-10
"vdd" 1.200000000000000e+00
"vss" 0.000000000000000e+00
"time" 1.000000000000000e-13
"in0" 1.200000000000000e+00
"in1" 1.200000000000000e+00
"net13" 2.346189018837214e-04
"out" 1.246803323966539e-03
"V0:p" 3.799503731157523e-06
"V1:p" 1.150939015530295e-05
"VDD:p" -1.618452677300720e-05
"VSS:p" 8.756328865467229e-07
"vdd" 1.200000000000000e+00
"vss" 0.000000000000000e+00
"time" 3.000000000000000e-13
"in0" 1.200000000000000e+00
"in1" 1.200000000000000e+00
"net13" 1.755965867554861e-03
"out" 8.498916349391074e-03
"V0:p" 1.154113233804490e-05
"V1:p" 3.395395540748851e-05
"VDD:p" -4.888813480907903e-05
"VSS:p" 3.393047063544760e-06
"vdd" 1.200000000000000e+00
"vss" 0.000000000000000e+00
"time" 7.000000000000000e-13
"in0" 1.200000000000000e+00
"in1" 1.200000000000000e+00
"net13" 7.078954139594175e-03
"out" 3.218717687368208e-02
"V0:p" 2.720943566192597e-05
"V1:p" 7.753632827796796e-05
"VDD:p" -1.146817456089725e-04
"VSS:p" 9.935981669078978e-06
"vdd" 1.200000000000000e+00
"vss" 0.000000000000000e+00
"time" 1.000000000000000e-12
"in0" 1.200000000000000e+00
"in1" 1.200000000000000e+00
"net13" 1.419264891076288e-02
"out" 6.178704943755488e-02
"V0:p" 3.912021179473884e-05
"V1:p" 1.083181246541941e-04
"VDD:p" -1.641905212479981e-04
"VSS:p" 1.675218479906516e-05
"vdd" 1.200000000000000e+00
"vss" 0.000000000000000e+00
"time" 1.523553168719366e-12
"in0" 1.200000000000000e+00
"in1" 1.200000000000000e+00
"net13" 3.072488269246797e-02
"out" 1.168118570083708e-01
"V0:p" 3.902434789660920e-05
"V1:p" 1.015497172810301e-04
"VDD:p" -1.670912931222222e-04
"VSS:p" 2.651722794458289e-05
"vdd" 1.200000000000000e+00
"vss" 0.000000000000000e+00
"time" 1.940889073878123e-12
"in0" 1.200000000000000e+00
"in1" 1.200000000000000e+00
"net13" 4.426709724842835e-02
"out" 1.596965154704383e-01
"V0:p" 3.871962992609282e-05
"V1:p" 9.512575032638744e-05
"VDD:p" -1.677399798911712e-04
"VSS:p" 3.389459963868744e-05
"vdd" 1.200000000000000e+00
"vss" 0.000000000000000e+00
"time" 2.643905488420986e-12
"in0" 1.200000000000000e+00
"in1" 1.200000000000000e+00
"net13" 6.790473232488958e-02
"out" 2.270011064219336e-01
"V0:p" 3.707795616201316e-05
"V1:p" 8.775497891206600e-05
"VDD:p" -1.706486798946983e-04
"VSS:p" 4.581574482062225e-05
"vdd" 1.200000000000000e+00
"vss" 0.000000000000000e+00
"time" 3.722356008325330e-12
"in0" 1.200000000000000e+00
"in1" 1.200000000000000e+00
"net13" 1.035614267967611e-01
"out" 3.223256671472646e-01
"V0:p" 3.409659349067203e-05
"V1:p" 7.535271152077700e-05
"VDD:p" -1.711865304897078e-04
"VSS:p" 6.173722547825569e-05
"vdd" 1.200000000000000e+00
"vss" 0.000000000000000e+00
"time" 4.861178004162665e-12
"in0" 1.200000000000000e+00
"in1" 1.200000000000000e+00
"net13" 1.381826591133475e-01
"out" 4.174984234870684e-01
"V0:p" 3.074753069220589e-05
"V1:p" 6.591904340356387e-05
"VDD:p" -1.723030370644158e-04
"VSS:p" 7.563646296864974e-05
"vdd" 1.200000000000000e+00
"vss" 0.000000000000000e+00
"time" 5.999999999999999e-12
"in0" 1.200000000000000e+00
"in1" 1.200000000000000e+00
"net13" 1.685319537711713e-01
"out" 5.096846127195583e-01
"V0:p" 2.767103307438186e-05
"V1:p" 5.714109531768323e-05
"VDD:p" -1.713981264411894e-04
"VSS:p" 8.658599804911990e-05
"vdd" 1.200000000000000e+00
"vss" 0.000000000000000e+00
"time" 6.438634485734704e-12
"in0" 1.200000000000000e+00
"in1" 1.200000000000000e+00
"net13" 1.779818809386665e-01
"out" 5.375971824384432e-01
"V0:p" 2.289902054030839e-05
"V1:p" 4.759497036274331e-05
"VDD:p" -1.599156745140895e-04
"VSS:p" 8.942168361103826e-05
"vdd" 1.200000000000000e+00
"vss" 0.000000000000000e+00
"time" 7.315903457204114e-12
"in0" 1.200000000000000e+00
"in1" 1.200000000000000e+00
"net13" 1.940606011876973e-01
"out" 5.803578463078027e-01
"V0:p" 1.353655760209577e-05
"V1:p" 2.786779608493195e-05
"VDD:p" -1.349682581019490e-04
"VSS:p" 9.356390441492065e-05
"vdd" 1.200000000000000e+00
"vss" 0.000000000000000e+00
"time" 8.480653771871265e-12
"in0" 1.200000000000000e+00
"in1" 1.200000000000000e+00
"net13" 2.069679063744461e-01
"out" 5.971094845279632e-01
"V0:p" 2.344489456059831e-06
"V1:p" 4.201685135064958e-06
"VDD:p" -1.027789260306418e-04
"VSS:p" 9.623275143951829e-05
"vdd" 1.200000000000000e+00
"vss" 0.000000000000000e+00
"time" 9.571565692834801e-12
"in0" 1.200000000000000e+00
"in1" 1.200000000000000e+00
"net13" 2.108434240120639e-01
"out" 5.733727153948132e-01
"V0:p" -7.508096915474796e-06
"V1:p" -1.733575348910368e-05
"VDD:p" -7.086162893009241e-05
"VSS:p" 9.570547933466914e-05
"vdd" 1.200000000000000e+00
"vss" 0.000000000000000e+00
"time" 1.100000000000000e-11
"in0" 1.200000000000000e+00
"in1" 1.200000000000000e+00
"net13" 2.039089036674514e-01
"out" 4.907133633467055e-01
"V0:p" -1.923471572541995e-05
"V1:p" -4.411189000750579e-05
"VDD:p" -2.739717392941050e-05
"VSS:p" 9.074377966233775e-05
"vdd" 1.200000000000000e+00
"vss" 0.000000000000000e+00
"time" 1.224988340206157e-11
"in0" 1.200000000000000e+00
"in1" 1.200000000000000e+00
"net13" 1.876839318598691e-01
"out" 4.108539000822026e-01
"V0:p" -1.832777592142958e-05
"V1:p" -4.334639704944229e-05
"VDD:p" -2.213368758348681e-05
"VSS:p" 8.380786055435856e-05
"vdd" 1.200000000000000e+00
"vss" 0.000000000000000e+00
"time" 1.321521898938583e-11
"in0" 1.200000000000000e+00
"in1" 1.200000000000000e+00
"net13" 1.739250174632319e-01
"out" 3.564876712552285e-01
"V0:p" -1.706502366436615e-05
"V1:p" -4.436229762195514e-05
"VDD:p" -1.611694194865532e-05
"VSS:p" 7.754426323497661e-05
"vdd" 1.200000000000000e+00
"vss" 0.000000000000000e+00
"time" 1.444352278928511e-11
"in0" 1.200000000000000e+00
"in1" 1.200000000000000e+00
"net13" 1.548844277493562e-01
"out" 2.992596064770713e-01
"V0:p" -1.631059778526874e-05
"V1:p" -3.868256244479341e-05
"VDD:p" -1.500669136271588e-05
"VSS:p" 6.999985159277804e-05
"vdd" 1.200000000000000e+00
"vss" 0.000000000000000e+00
"time" 1.644352278928511e-11
"in0" 1.200000000000000e+00
"in1" 1.200000000000000e+00
"net13" 1.244676254270468e-01
"out" 2.257437340581062e-01
"V0:p" -1.365976143067751e-05
"V1:p" -3.426913874108723e-05
"VDD:p" -9.103531130909311e-06
"VSS:p" 5.703243130267351e-05
"vdd" 1.200000000000000e+00
"vss" 0.000000000000000e+00
"time" 1.844352278928511e-11
"in0" 1.200000000000000e+00
"in1" 1.200000000000000e+00
"net13" 9.740698036903246e-02
"out" 1.701975677373233e-01
"V0:p" -1.174283063250086e-05
"V1:p" -2.525839632168516e-05
"VDD:p" -8.793986544230865e-06
"VSS:p" 4.579521349841745e-05
"vdd" 1.200000000000000e+00
"vss" 0.000000000000000e+00
"time" 2.044352278928511e-11
"in0" 1.200000000000000e+00
"in1" 1.200000000000000e+00
"net13" 7.492807845643025e-02
"out" 1.279452881282961e-01
"V0:p" -9.013731230135180e-06
"V1:p" -2.189532621808087e-05
"VDD:p" -4.643852163924691e-06
"VSS:p" 3.555290961214020e-05
"vdd" 1.200000000000000e+00
"vss" 0.000000000000000e+00
"time" 2.244352278928511e-11
"in0" 1.200000000000000e+00
"in1" 1.200000000000000e+00
"net13" 5.696465138545988e-02
"out" 9.586670470285436e-02
"V0:p" -7.485880123746000e-06
"V1:p" -1.475454870477790e-05
"VDD:p" -5.459784874878198e-06
"VSS:p" 2.770021370340329e-05
"vdd" 1.200000000000000e+00
"vss" 0.000000000000000e+00
"time" 2.444352278928511e-11
"in0" 1.200000000000000e+00
"in1" 1.200000000000000e+00
"net13" 4.295714430221307e-02
"out" 7.161173943300181e-02
"V0:p" -5.368255399366954e-06
"V1:p" -1.335308771680431e-05
"VDD:p" -2.124614867090574e-06
"VSS:p" 2.084595798326032e-05
"vdd" 1.200000000000000e+00
"vss" 0.000000000000000e+00
"time" 2.644352278928511e-11
"in0" 1.200000000000000e+00
"in1" 1.200000000000000e+00
"net13" 3.220884793449383e-02
"out" 5.335526428459261e-02
"V0:p" -4.501446337305594e-06
"V1:p" -7.994287242464648e-06
"VDD:p" -3.553378836587810e-06
"VSS:p" 1.604911241635827e-05
"vdd" 1.200000000000000e+00
"vss" 0.000000000000000e+00
"time" 2.844352278928510e-11
"in0" 1.200000000000000e+00
"in1" 1.200000000000000e+00
"net13" 2.405120768643768e-02
"out" 3.967008814294655e-02
"V0:p" -2.997710054717554e-06
"V1:p" -8.102350932689082e-06
"VDD:p" -6.858276683978406e-07
"VSS:p" 1.178588865580415e-05
"vdd" 1.200000000000000e+00
"vss" 0.000000000000000e+00
"time" 3.044352278928511e-11
"in0" 1.200000000000000e+00
"in1" 1.200000000000000e+00
"net13" 1.790673218033853e-02
"out" 2.944675318106302e-02
"V0:p" -2.657168553166641e-06
"V1:p" -3.970255681224083e-06
"VDD:p" -2.471586672761300e-06
"VSS:p" 9.099010907152454e-06
"vdd" 1.200000000000000e+00
"vss" 0.000000000000000e+00
"time" 3.244352278928511e-11
"in0" 1.200000000000000e+00
"in1" 1.200000000000000e+00
"net13" 1.330345538147219e-02
"out" 2.183051059056869e-02
"V0:p" -1.583503293700399e-06
"V1:p" -5.048325153864177e-06
"VDD:p" 1.245470707547514e-07
"VSS:p" 6.507281376809716e-06
"vdd" 1.200000000000000e+00
"vss" 0.000000000000000e+00
"time" 3.444352278928511e-11
"in0" 1.200000000000000e+00
"in1" 1.200000000000000e+00
"net13" 9.868084722214404e-03
"out" 1.616866656042723e-02
"V0:p" -1.583824411178249e-06
"V1:p" -1.668911582487499e-06
"VDD:p" -1.866472558283076e-06
"VSS:p" 5.119208551948392e-06
"vdd" 1.200000000000000e+00
"vss" 0.000000000000000e+00
"time" 3.644352278928511e-11
"in0" 1.200000000000000e+00
"in1" 1.200000000000000e+00
"net13" 7.311454740558034e-03
"out" 1.196661628770723e-02
"V0:p" -7.748440673217728e-07
"V1:p" -3.323259850157966e-06
"VDD:p" 5.752137919412736e-07
"VSS:p" 3.522890125539008e-06
"vdd" 1.200000000000000e+00
"vss" 0.000000000000000e+00
"time" 3.844352278928511e-11
"in0" 1.200000000000000e+00
"in1" 1.200000000000000e+00
"net13" 5.412652877111819e-03
"out" 8.851864462624259e-03
"V0:p" -9.778178716933288e-07
"V1:p" -3.808295998204346e-07
"VDD:p" -1.531521242588652e-06
"VSS:p" 2.890168714101655e-06
"vdd" 1.200000000000000e+00
"vss" 0.000000000000000e+00
"time" 4.044352278928511e-11
"in0" 1.200000000000000e+00
"in1" 1.200000000000000e+00
"net13" 4.004511750582651e-03
"out" 6.545231419504296e-03
"V0:p" -3.224632290107734e-07
"V1:p" -2.364220808107433e-06
"VDD:p" 8.237675163208425e-07
"VSS:p" 1.862916520797580e-06
"vdd" 1.200000000000000e+00
"vss" 0.000000000000000e+00
"time" 4.244352278928511e-11
"in0" 1.200000000000000e+00
"in1" 1.200000000000000e+00
"net13" 2.961379047979293e-03
"out" 4.838249808774304e-03
"V0:p" -6.410741305563269e-07
"V1:p" 3.317102356827531e-07
"VDD:p" -1.347301645285436e-06
"VSS:p" 1.656665540158795e-06
"vdd" 1.200000000000000e+00
"vss" 0.000000000000000e+00
"time" 4.444352278928510e-11
"in0" 1.200000000000000e+00
"in1" 1.200000000000000e+00
"net13" 2.189258224007663e-03
"out" 3.575690046686009e-03
"V0:p" -7.231812620496994e-08
"V1:p" -1.835651028525785e-06
"VDD:p" 9.601809121851579e-07
"VSS:p" 9.477882425457064e-07
"vdd" 1.200000000000000e+00
"vss" 0.000000000000000e+00
"time" 4.644352278928510e-11
"in0" 1.200000000000000e+00
"in1" 1.200000000000000e+00
"net13" 1.618075403914800e-03
"out" 2.642207834930573e-03
"V0:p" -4.555411076668992e-07
"V1:p" 7.233559118704792e-07
"VDD:p" -1.246357150579865e-06
"VSS:p" 9.785423463766109e-07
"vdd" 1.200000000000000e+00
"vss" 0.000000000000000e+00
"time" 4.844352278928510e-11
"in0" 1.200000000000000e+00
"in1" 1.200000000000000e+00
"net13" 1.195721450420721e-03
"out" 1.952230704389192e-03
"V0:p" 6.513748758830097e-08
"V1:p" -1.545707552479346e-06
"VDD:p" 1.034840852913562e-06
"VSS:p" 4.457292119767236e-07
"vdd" 1.200000000000000e+00
"vss" 0.000000000000000e+00
"time" 5.044352278928510e-11
"in0" 1.200000000000000e+00
"in1" 1.200000000000000e+00
"net13" 8.835170021580330e-04
"out" 1.442347922718986e-03
"V0:p" -3.537887736374865e-07
"V1:p" 9.378717043550015e-07
"VDD:p" -1.191158500542348e-06
"VSS:p" 6.070755698253763e-07
"vdd" 1.200000000000000e+00
"vss" 0.000000000000000e+00
"time" 5.244352278928510e-11
"in0" 1.200000000000000e+00
"in1" 1.200000000000000e+00
"net13" 6.527896047175836e-04
"out" 1.065611921267890e-03
"V0:p" 1.404143345949859e-07
"V1:p" -1.387071191551830e-06
"VDD:p" 1.075639647888919e-06
"VSS:p" 1.710172090674931e-07
"vdd" 1.200000000000000e+00
"vss" 0.000000000000000e+00
"time" 5.444352278928510e-11
"in0" 1.200000000000000e+00
"in1" 1.200000000000000e+00
"net13" 4.823055880571094e-04
"out" 7.872864625036952e-04
"V0:p" -2.981236539971139e-07
"V1:p" 1.055144332312097e-06
"VDD:p" -1.161009300503289e-06
"VSS:p" 4.039886221888486e-07
"vdd" 1.200000000000000e+00
"vss" 0.000000000000000e+00
"time" 5.644352278928510e-11
"in0" 1.200000000000000e+00
"in1" 1.200000000000000e+00
"net13" 3.563514631733834e-04
"out" 5.816827059301701e-04
"V0:p" 1.815634768027454e-07
"V1:p" -1.300398933069988e-06
"VDD:p" 1.097915651041972e-06
"VSS:p" 2.091980522407773e-08
"vdd" 1.200000000000000e+00
"vss" 0.000000000000000e+00
"time" 5.844352278928510e-11
"in0" 1.200000000000000e+00
"in1" 1.200000000000000e+00
"net13" 2.633049825227121e-04
"out" 4.298094563878814e-04
"V0:p" -2.677125561338596e-07
"V1:p" 1.119188853174520e-06
"VDD:p" -1.144552357218893e-06
"VSS:p" 2.930760601796421e-07
"vdd" 1.200000000000000e+00
"vss" 0.000000000000000e+00
"time" 6.044352278928511e-11
"in0" 1.200000000000000e+00
"in1" 1.200000000000000e+00
"net13" 1.945732779165305e-04
"out" 3.176306216433102e-04
"V0:p" 2.040346078108053e-07
"V1:p" -1.253081237285932e-06
"VDD:p" 1.110072594634910e-06
"VSS:p" -6.102596516075667e-08
"vdd" 1.200000000000000e+00
"vss" 0.000000000000000e+00
"time" 6.244352278928511e-11
"in0" 1.200000000000000e+00
"in1" 1.200000000000000e+00
"net13" 1.438050693038987e-04
"out" 2.347743589917647e-04
"V0:p" -2.511105782790443e-07
"V1:p" 1.154144769214081e-06
"VDD:p" -1.135572436247060e-06
"VSS:p" 2.325382453134327e-07
"vdd" 1.200000000000000e+00
"vss" 0.000000000000000e+00
"time" 6.444352278928512e-11
"in0" 1.200000000000000e+00
"in1" 1.200000000000000e+00
"net13" 1.063069060778588e-04
"out" 1.735775880289130e-04
"V0:p" 2.162991673555105e-07
"V1:p" -1.227259532246031e-06
"VDD:p" 1.116705450864787e-06
"VSS:p" -1.057450859758932e-07
"vdd" 1.200000000000000e+00
"vss" 0.000000000000000e+00
"time" 6.644352278928513e-11
"in0" 1.200000000000000e+00
"in1" 1.200000000000000e+00
"net13" 7.861097839184039e-05
"out" 1.283791564439732e-04
"V0:p" -2.420509057442445e-07
"V1:p" 1.173218026482951e-06
"VDD:p" -1.130673364039067e-06
"VSS:p" 1.995062433020965e-07
"vdd" 1.200000000000000e+00
"vss" 0.000000000000000e+00
"time" 6.844352278928513e-11
"in0" 1.200000000000000e+00
"in1" 1.200000000000000e+00
"net13" 5.815535103397150e-05
"out" 9.499717713123882e-05
"V0:p" 2.229910716998363e-07
"V1:p" -1.213171611898213e-06
"VDD:p" 1.120323847345704e-06
"VSS:p" -1.301433071488433e-07
"vdd" 1.200000000000000e+00
"vss" 0.000000000000000e+00
"time" 7.044352278928514e-11
"in0" 1.200000000000000e+00
"in1" 1.200000000000000e+00
"net13" 4.304748870202445e-05
"out" 7.034267322202190e-05
"V0:p" -2.371081434144052e-07
"V1:p" 1.183623351875436e-06
"VDD:p" -1.128000909180261e-06
"VSS:p" 1.814857007208580e-07
"vdd" 1.200000000000000e+00
"vss" 0.000000000000000e+00
"time" 7.244352278928514e-11
"in0" 1.200000000000000e+00
"in1" 1.200000000000000e+00
"net13" 3.188943860390652e-05
"out" 5.213405024967585e-05
"V0:p" 2.266417790080925e-07
"V1:p" -1.205486420920596e-06
"VDD:p" 1.122297626831030e-06
"VSS:p" -1.434529849202601e-07
"vdd" 1.200000000000000e+00
"vss" 0.000000000000000e+00
"time" 7.444352278928515e-11
"in0" 1.200000000000000e+00
"in1" 1.200000000000000e+00
"net13" 2.364862754999395e-05
"out" 3.868611946876092e-05
"V0:p" -2.344118018204486e-07
"V1:p" 1.189299404845036e-06
"VDD:p" -1.126543161124638e-06
"VSS:p" 1.716555581020034e-07
"vdd" 1.200000000000000e+00
"vss" 0.000000000000000e+00
"time" 7.644352278928516e-11
"in0" 1.200000000000000e+00
"in1" 1.200000000000000e+00
"net13" 1.756238971749671e-05
"out" 2.875422721473445e-05
"V0:p" 2.286332127988956e-07
"V1:p" -1.201294308886509e-06
"VDD:p" 1.123374248338788e-06
"VSS:p" -1.507131522530189e-07
"vdd" 1.200000000000000e+00
"vss" 0.000000000000000e+00
"time" 7.844352278928516e-11
"in0" 1.200000000000000e+00
"in1" 1.200000000000000e+00
"net13" 1.306742903328758e-05
"out" 2.141910786751523e-05
"V0:p" -2.329410082898748e-07
"V1:p" 1.192395507713538e-06
"VDD:p" -1.125748025473913e-06
"VSS:p" 1.662935260515496e-07
"vdd" 1.200000000000000e+00
"vss" 0.000000000000000e+00
"time" 8.044352278928517e-11
"in0" 1.200000000000000e+00
"in1" 1.200000000000000e+00
"net13" 9.747709376473691e-06
"out" 1.600182675115337e-05
"V0:p" 2.297194727493233e-07
"V1:p" -1.199007683748584e-06
"VDD:p" 1.123961491030688e-06
"VSS:p" -1.546732800325098e-07
"vdd" 1.200000000000000e+00
"vss" 0.000000000000000e+00
"time" 8.244352278928517e-11
"in0" 1.200000000000000e+00
"in1" 1.200000000000000e+00
"net13" 7.295961317247837e-06
"out" 1.200095320411080e-05
"V0:p" -2.321387521852055e-07
"V1:p" 1.194084285143620e-06
"VDD:p" -1.125314322196003e-06
"VSS:p" 1.633687892389973e-07
"vdd" 1.200000000000000e+00
"vss" 0.000000000000000e+00
"time" 8.444352278928518e-11
"in0" 1.200000000000000e+00
"in1" 1.200000000000000e+00
"net13" 5.485248936513821e-06
"out" 9.046155630349902e-06
"V0:p" 2.303119753088048e-07
"V1:p" -1.197760448798967e-06
"VDD:p" 1.124281798315671e-06
"VSS:p" -1.568333248271367e-07
"vdd" 1.200000000000000e+00
"vss" 0.000000000000000e+00
"time" 8.644352278928519e-11
