HEADER
"PSFversion" "1.00"
"simulator" "spectre"
"version" "19.1.0.237.isr3"
"date" "1:46:54 AM, Sat Sep 10, 2022"
"design" "// Generated for: spectre"
"analysis type" "tran"
"analysis name" "sim"
"analysis description" "Transient Analysis `sim': time = (0 s -> 100 ps)"
"xVecSorted" "ascending"
"tolerance.relative" 0.00100000
"start" 0.00000
"outputstart" 0.00000
"stop" 1.00000e-10
"step" 1.00000e-13
"istep" 0.00100000
"maxstep" 2.00000e-12
"ic" "all"
"useprevic" "no"
"skipdc" "no"
"reltol" 0.00100000
"abstol(V)" 1.00000e-06
"abstol(I)" 1.00000e-12
"temp" 27.0000
"tnom" 27.0000
"tempeffects" "all"
"errpreset" "moderate"
"method" "traponly"
"lteratio" 3.50000
"relref" "sigglobal"
"cmin" 0.00000
"gmin" 1.00000e-12
TYPE
"sweep" FLOAT DOUBLE PROP(
"key" "sweep"
)
"LogicV" FLOAT DOUBLE PROP(
"key" "node"
)
"Tau" FLOAT DOUBLE PROP(
"units" "N*m"
"key" "node"
"tolerance" 1.00000e-06
)
"Alpha" FLOAT DOUBLE PROP(
"units" "rads/s^2"
"key" "node"
"tolerance" 1.00000e-06
)
"Omega" FLOAT DOUBLE PROP(
"units" "rads/s"
"key" "node"
"tolerance" 1.00000e-06
)
"Theta" FLOAT DOUBLE PROP(
"units" "rads"
"key" "node"
"tolerance" 1.00000e-06
)
"F" FLOAT DOUBLE PROP(
"units" "N"
"key" "node"
"tolerance" 1.00000e-06
)
"Imp" FLOAT DOUBLE PROP(
"units" "m/s^3"
"key" "node"
"tolerance" 1.00000e-06
)
"Acc" FLOAT DOUBLE PROP(
"units" "m/s^2"
"key" "node"
"tolerance" 1.00000e-06
)
"Vel" FLOAT DOUBLE PROP(
"units" "m/s"
"key" "node"
"tolerance" 1.00000e-06
)
"Pos" FLOAT DOUBLE PROP(
"units" "m"
"key" "node"
"tolerance" 1.00000e-06
)
"Phi" FLOAT DOUBLE PROP(
"units" "Wb"
"key" "node"
"tolerance" 1.00000e-09
)
"V" FLOAT DOUBLE PROP(
"units" "V"
"key" "node"
"tolerance" 1.00000e-06
)
"I" FLOAT DOUBLE PROP(
"units" "A"
"key" "branch"
"tolerance" 1.00000e-12
)
"MMF" FLOAT DOUBLE PROP(
"units" "A*turn"
"key" "node"
"tolerance" 1.00000e-12
)
"Wb" FLOAT DOUBLE PROP(
"units" "Wb"
"key" "node"
"tolerance" 1.00000e-09
)
"Temp" FLOAT DOUBLE PROP(
"units" "C"
"key" "node"
"tolerance" 0.000100000
)
"Pwr" FLOAT DOUBLE PROP(
"units" "W"
"key" "node"
"tolerance" 1.00000e-09
)
"U" FLOAT DOUBLE PROP(
"units" ""
"key" "node"
"tolerance" 1.00000e-06
)
"V/Sec" FLOAT DOUBLE PROP(
"units" "V/s"
"key" "node"
"tolerance" 0.000100000
)
"I/Sec" FLOAT DOUBLE PROP(
"units" "A/s"
"key" "node"
"tolerance" 1.00000e-06
)
"1/Sec" FLOAT DOUBLE PROP(
"units" "1/s"
"key" "node"
"tolerance" 0.000100000
)
"HOD" FLOAT DOUBLE PROP(
"units" ""
"key" "node"
"tolerance" 0.0100000
)
"Q" FLOAT DOUBLE PROP(
"units" "coul"
"key" "node"
"tolerance" 1.00000e-14
)
SWEEP
"time" "sweep" PROP(
"sweep_direction" 0
"units" "s"
"plot" 0
"grid" 1
)
TRACE
"in0" "V"
"in1" "V"
"net13" "V"
"out" "V"
"V0:p" "I"
"V1:p" "I"
"VDD:p" "I"
"VSS:p" "I"
"vdd" "V"
"vss" "V"
VALUE
"time" 0.000000000000000e+00
"in0" 1.200000000000000e+00
"in1" 0.000000000000000e+00
"net13" 1.175255987389764e+00
"out" 1.199998622265821e+00
"V0:p" 2.999488749051789e-11
"V1:p" -2.885339490148764e-16
"VDD:p" -1.571690853367175e-10
"VSS:p" 1.271602942602738e-10
"vdd" 1.200000000000000e+00
"vss" 0.000000000000000e+00
"time" 1.000000000000000e-13
"in0" 1.200000000000000e+00
"in1" 0.000000000000000e+00
"net13" 1.175534728885793e+00
"out" 1.201442973466562e+00
"V0:p" 7.615195359345051e-06
"V1:p" 7.162457580728826e-06
"VDD:p" -1.509585663209266e-05
"VSS:p" 3.182036920231224e-07
"vdd" 1.200000000000000e+00
"vss" 0.000000000000000e+00
"time" 3.000000000000000e-13
"in0" 1.200000000000000e+00
"in1" 0.000000000000000e+00
"net13" 1.177171977576615e+00
"out" 1.209940718666219e+00
"V0:p" 2.247652549484604e-05
"V1:p" 2.179362918326358e-05
"VDD:p" -4.520424207123940e-05
"VSS:p" 9.340873931309775e-07
"vdd" 1.200000000000000e+00
"vss" 0.000000000000000e+00
"time" 6.795710627485970e-13
"in0" 1.200000000000000e+00
"in1" 0.000000000000000e+00
"net13" 1.182088651614256e+00
"out" 1.235601503630147e+00
"V0:p" 4.986306914437102e-05
"V1:p" 5.188203046167815e-05
"VDD:p" -1.037649175471030e-04
"VSS:p" 2.019817941049926e-06
"vdd" 1.200000000000000e+00
"vss" 0.000000000000000e+00
"time" 1.000000000000000e-12
"in0" 1.200000000000000e+00
"in1" 0.000000000000000e+00
"net13" 1.188937702404613e+00
"out" 1.271695685304719e+00
"V0:p" 7.306104446223563e-05
"V1:p" 7.801369381102411e-05
"VDD:p" -1.539232560061504e-04
"VSS:p" 2.848517732895738e-06
"vdd" 1.200000000000000e+00
"vss" 0.000000000000000e+00
"time" 1.507780041461968e-12
"in0" 1.200000000000000e+00
"in1" 0.000000000000000e+00
"net13" 1.200822417105759e+00
"out" 1.335286895045164e+00
"V0:p" 7.044798739303868e-05
"V1:p" 7.782055747550019e-05
"VDD:p" -1.509288280595681e-04
"VSS:p" 2.660283191029487e-06
"vdd" 1.200000000000000e+00
"vss" 0.000000000000000e+00
"time" 1.936609668499986e-12
"in0" 1.200000000000000e+00
"in1" 0.000000000000000e+00
"net13" 1.210218690492732e+00
"out" 1.386411488099800e+00
"V0:p" 6.820989738403249e-05
"V1:p" 8.389596308979610e-05
"VDD:p" -1.544158644413112e-04
"VSS:p" 2.310003967483022e-06
"vdd" 1.200000000000000e+00
"vss" 0.000000000000000e+00
"time" 2.515154187565394e-12
"in0" 1.200000000000000e+00
"in1" 0.000000000000000e+00
"net13" 1.221817901068133e+00
"out" 1.450566298909396e+00
"V0:p" 6.505370416724744e-05
"V1:p" 8.063303724378247e-05
"VDD:p" -1.479147483292303e-04
"VSS:p" 2.228006918199046e-06
"vdd" 1.200000000000000e+00
"vss" 0.000000000000000e+00
"time" 3.672243225696210e-12
"in0" 1.200000000000000e+00
"in1" 0.000000000000000e+00
"net13" 1.242067784976143e+00
"out" 1.565280044039802e+00
"V0:p" 6.000415873980252e-05
"V1:p" 8.426932011406301e-05
"VDD:p" -1.459940239602095e-04
"VSS:p" 1.720545106345209e-06
"vdd" 1.200000000000000e+00
"vss" 0.000000000000000e+00
"time" 4.836121612848105e-12
"in0" 1.200000000000000e+00
"in1" 0.000000000000000e+00
"net13" 1.259428314323340e+00
"out" 1.666357849985021e+00
"V0:p" 5.583341951851236e-05
"V1:p" 7.350440120612130e-05
"VDD:p" -1.309700640855869e-04
"VSS:p" 1.632243360952498e-06
"vdd" 1.200000000000000e+00
"vss" 0.000000000000000e+00
"time" 5.999999999999999e-12
"in0" 1.200000000000000e+00
"in1" 0.000000000000000e+00
"net13" 1.274466209003498e+00
"out" 1.755947900399189e+00
"V0:p" 5.160827730147225e-05
"V1:p" 7.217605801174056e-05
"VDD:p" -1.250470032647941e-04
"VSS:p" 1.262667951582228e-06
"vdd" 1.200000000000000e+00
"vss" 0.000000000000000e+00
"time" 6.611542774646406e-12
"in0" 1.200000000000000e+00
"in1" 0.000000000000000e+00
"net13" 1.280147075782121e+00
"out" 1.790266299947157e+00
"V0:p" 4.017072114384827e-05
"V1:p" 5.393192602880611e-05
"VDD:p" -9.514131102559423e-05
"VSS:p" 1.038663852939588e-06
"vdd" 1.200000000000000e+00
"vss" 0.000000000000000e+00
"time" 7.801216763747329e-12
"in0" 1.200000000000000e+00
"in1" 0.000000000000000e+00
"net13" 1.288088373619573e+00
"out" 1.838712787745254e+00
"V0:p" 1.906928450467327e-05
"V1:p" 2.494892044582750e-05
"VDD:p" -4.447024585388504e-05
"VSS:p" 4.520409033841034e-07
"vdd" 1.200000000000000e+00
"vss" 0.000000000000000e+00
"time" 9.400664653604737e-12
"in0" 1.200000000000000e+00
"in1" 0.000000000000000e+00
"net13" 1.290171202132415e+00
"out" 1.851486558715985e+00
"V0:p" -7.357594549612075e-06
"V1:p" -9.422761741073583e-06
"VDD:p" 1.694160201977327e-05
"VSS:p" -1.612457290874030e-07
"vdd" 1.200000000000000e+00
"vss" 0.000000000000000e+00
"time" 1.100000000000000e-11
"in0" 1.200000000000000e+00
"in1" 0.000000000000000e+00
"net13" 1.283572242945697e+00
"out" 1.811070254094918e+00
"V0:p" -2.962752562434732e-05
"V1:p" -3.966204077952310e-05
"VDD:p" 7.004878779535779e-05
"VSS:p" -7.592213914876920e-07
"vdd" 1.200000000000000e+00
"vss" 0.000000000000000e+00
"time" 1.300000000000000e-11
"in0" 1.200000000000000e+00
"in1" 0.000000000000000e+00
"net13" 1.271884625817455e+00
"out" 1.740343458843284e+00
"V0:p" -2.538812784473797e-05
"V1:p" -3.403394255215268e-05
"VDD:p" 6.007508590293133e-05
"VSS:p" -6.530155060406622e-07
"vdd" 1.200000000000000e+00
"vss" 0.000000000000000e+00
"time" 1.444949568436967e-11
"in0" 1.200000000000000e+00
"in1" 0.000000000000000e+00
"net13" 1.263651046499005e+00
"out" 1.691205599237983e+00
"V0:p" -2.209136556344837e-05
"V1:p" -3.030307812381979e-05
"VDD:p" 5.301343489261670e-05
"VSS:p" -6.189912053483644e-07
"vdd" 1.200000000000000e+00
"vss" 0.000000000000000e+00
"time" 1.635841867504185e-11
"in0" 1.200000000000000e+00
"in1" 0.000000000000000e+00
"net13" 1.253865015033479e+00
"out" 1.633574618110669e+00
"V0:p" -1.911451995402468e-05
"V1:p" -2.587492494229969e-05
"VDD:p" 4.552055785765189e-05
"VSS:p" -5.311129613277363e-07
"vdd" 1.200000000000000e+00
"vss" 0.000000000000000e+00
"time" 1.835841867504184e-11
"in0" 1.200000000000000e+00
"in1" 0.000000000000000e+00
"net13" 1.244744252913980e+00
"out" 1.580583710847977e+00
"V0:p" -1.607405683901773e-05
"V1:p" -2.206628667230783e-05
"VDD:p" 3.863424326556175e-05
"VSS:p" -4.938997542359755e-07
"vdd" 1.200000000000000e+00
"vss" 0.000000000000000e+00
"time" 2.035841867504184e-11
"in0" 1.200000000000000e+00
"in1" 0.000000000000000e+00
"net13" 1.236607294782749e+00
"out" 1.533895751166243e+00
"V0:p" -1.414679052364713e-05
"V1:p" -1.870609924318009e-05
"VDD:p" 3.327499417832032e-05
"VSS:p" -4.221044114935336e-07
"vdd" 1.200000000000000e+00
"vss" 0.000000000000000e+00
"time" 2.235841867504184e-11
"in0" 1.200000000000000e+00
"in1" 0.000000000000000e+00
"net13" 1.229317314413847e+00
"out" 1.492538662079865e+00
"V0:p" -1.201097861475289e-05
"V1:p" -1.595287205022207e-05
"VDD:p" 2.836365007544759e-05
"VSS:p" -3.997994104722514e-07
"vdd" 1.200000000000000e+00
"vss" 0.000000000000000e+00
"time" 2.435841867504184e-11
"in0" 1.200000000000000e+00
"in1" 0.000000000000000e+00
"net13" 1.222779607260730e+00
"out" 1.455828861728194e+00
"V0:p" -1.072759398366994e-05
"V1:p" -1.345657201940429e-05
"VDD:p" 2.452245802307515e-05
"VSS:p" -3.382920200016838e-07
"vdd" 1.200000000000000e+00
"vss" 0.000000000000000e+00
"time" 2.635841867504184e-11
"in0" 1.200000000000000e+00
"in1" 0.000000000000000e+00
"net13" 1.216927681576186e+00
"out" 1.423274940171497e+00
"V0:p" -9.061132204662677e-06
"V1:p" -1.144494160544473e-05
"VDD:p" 2.082925176203801e-05
"VSS:p" -3.231779519299953e-07
"vdd" 1.200000000000000e+00
"vss" 0.000000000000000e+00
"time" 2.835841867504184e-11
"in0" 1.200000000000000e+00
"in1" 0.000000000000000e+00
"net13" 1.211708591494946e+00
"out" 1.394485303319046e+00
"V0:p" -8.146243703998057e-06
"V1:p" -9.610419339469310e-06
"VDD:p" 1.802405788445863e-05
"VSS:p" -2.673948409917012e-07
"vdd" 1.200000000000000e+00
"vss" 0.000000000000000e+00
"time" 3.035841867504184e-11
"in0" 1.200000000000000e+00
"in1" 0.000000000000000e+00
"net13" 1.207073941921654e+00
"out" 1.369112863374357e+00
"V0:p" -6.790970666039162e-06
"V1:p" -8.189163827451355e-06
"VDD:p" 1.523767638150772e-05
"VSS:p" -2.575418880169079e-07
"vdd" 1.200000000000000e+00
"vss" 0.000000000000000e+00
"time" 3.235841867504184e-11
"in0" 1.200000000000000e+00
"in1" 0.000000000000000e+00
"net13" 1.202976078467782e+00
"out" 1.346830970042686e+00
"V0:p" -6.150751755867680e-06
"V1:p" -6.870011217454978e-06
"VDD:p" 1.322774311855381e-05
"VSS:p" -2.069801452313480e-07
"vdd" 1.200000000000000e+00
"vss" 0.000000000000000e+00
"time" 3.435841867504184e-11
"in0" 1.200000000000000e+00
"in1" 0.000000000000000e+00
"net13" 1.199367249723535e+00
"out" 1.327326578226364e+00
"V0:p" -5.042340666034882e-06
"V1:p" -5.888609797970438e-06
"VDD:p" 1.113334832372581e-05
"VSS:p" -2.023978597202460e-07
"vdd" 1.200000000000000e+00
"vss" 0.000000000000000e+00
"time" 3.635841867504184e-11
"in0" 1.200000000000000e+00
"in1" 0.000000000000000e+00
"net13" 1.196200144942569e+00
"out" 1.310301159032286e+00
"V0:p" -4.624437637155516e-06
"V1:p" -4.939017291183363e-06
"VDD:p" 9.720544669024914e-06
"VSS:p" -1.570897406863593e-07
"vdd" 1.200000000000000e+00
"vss" 0.000000000000000e+00
"time" 3.835841867504184e-11
"in0" 1.200000000000000e+00
"in1" 0.000000000000000e+00
"net13" 1.193428866919025e+00
"out" 1.295474031462916e+00
"V0:p" -3.715090829644822e-06
"V1:p" -4.265524420525864e-06
"VDD:p" 8.138243664550184e-06
"VSS:p" -1.576284143788739e-07
"vdd" 1.200000000000000e+00
"vss" 0.000000000000000e+00
"time" 4.035841867504184e-11
"in0" 1.200000000000000e+00
"in1" 0.000000000000000e+00
"net13" 1.191009849669306e+00
"out" 1.282585475870662e+00
"V0:p" -3.473962324538705e-06
"V1:p" -3.571718895474582e-06
"VDD:p" 7.162880636043001e-06
"VSS:p" -1.171994160303122e-07
"vdd" 1.200000000000000e+00
"vss" 0.000000000000000e+00
"time" 4.235841867504184e-11
"in0" 1.200000000000000e+00
"in1" 0.000000000000000e+00
"net13" 1.188902524571143e+00
"out" 1.271398643140235e+00
"V0:p" -2.720321346350691e-06
"V1:p" -3.110809190871056e-06
"VDD:p" 5.953425692938585e-06
"VSS:p" -1.222951557160785e-07
"vdd" 1.200000000000000e+00
"vss" 0.000000000000000e+00
"time" 4.435841867504184e-11
"in0" 1.200000000000000e+00
"in1" 0.000000000000000e+00
"net13" 1.187069703755299e+00
"out" 1.261700150512206e+00
"V0:p" -2.615391936667437e-06
"V1:p" -2.594086398302856e-06
"VDD:p" 5.295531960364980e-06
"VSS:p" -8.605362539536492e-08
"vdd" 1.200000000000000e+00
"vss" 0.000000000000000e+00
"time" 4.635841867504184e-11
"in0" 1.200000000000000e+00
"in1" 0.000000000000000e+00
"net13" 1.185477722949601e+00
"out" 1.253299616536616e+00
"V0:p" -1.980236359148499e-06
"V1:p" -2.281154208389555e-06
"VDD:p" 4.356338214157275e-06
"VSS:p" -9.494764661854184e-08
"vdd" 1.200000000000000e+00
"vss" 0.000000000000000e+00
"time" 4.835841867504184e-11
"in0" 1.200000000000000e+00
"in1" 0.000000000000000e+00
"net13" 1.184096406739210e+00
"out" 1.246028470283716e+00
"V0:p" -1.977959051016113e-06
"V1:p" -1.888516465370065e-06
"VDD:p" 3.928591935020626e-06
"VSS:p" -6.211641863485616e-08
"vdd" 1.200000000000000e+00
"vss" 0.000000000000000e+00
"time" 5.035841867504184e-11
"in0" 1.200000000000000e+00
"in1" 0.000000000000000e+00
"net13" 1.182898915566518e+00
"out" 1.239738332336237e+00
"V0:p" -1.431473090479838e-06
"V1:p" -1.679996861612803e-06
"VDD:p" 3.185517921950655e-06
"VSS:p" -7.404796985750010e-08
"vdd" 1.200000000000000e+00
"vss" 0.000000000000000e+00
"time" 5.235841867504184e-11
"in0" 1.200000000000000e+00
"in1" 0.000000000000000e+00
"net13" 1.181861521774646e+00
"out" 1.234299192234567e+00
"V0:p" -1.505627367449281e-06
"V1:p" -1.375512349661055e-06
"VDD:p" 2.925044968977849e-06
"VSS:p" -4.390525186808233e-08
"vdd" 1.200000000000000e+00
"vss" 0.000000000000000e+00
"time" 5.435841867504184e-11
"in0" 1.200000000000000e+00
"in1" 0.000000000000000e+00
"net13" 1.180963349152435e+00
"out" 1.229597536274454e+00
"V0:p" -1.024931294428954e-06
"V1:p" -1.241651988375368e-06
"VDD:p" 2.324787874155500e-06
"VSS:p" -5.820459135082576e-08
"vdd" 1.200000000000000e+00
"vss" 0.000000000000000e+00
"time" 5.635841867504184e-11
"in0" 1.200000000000000e+00
"in1" 0.000000000000000e+00
"net13" 1.180186099618305e+00
"out" 1.225534523293922e+00
"V0:p" -1.155665358296148e-06
"V1:p" -1.000579531535122e-06
"VDD:p" 2.186383909232007e-06
"VSS:p" -3.013901940125279e-08
"vdd" 1.200000000000000e+00
"vss" 0.000000000000000e+00
"time" 5.835841867504184e-11
"in0" 1.200000000000000e+00
"in1" 0.000000000000000e+00
"net13" 1.179513782470936e+00
"out" 1.222024265739848e+00
"V0:p" -7.236051470940563e-07
"V1:p" -9.207152161065928e-07
"VDD:p" 1.690575264850745e-06
"VSS:p" -4.625490164971629e-08
"vdd" 1.200000000000000e+00
"vss" 0.000000000000000e+00
"time" 6.035841867504185e-11
"in0" 1.200000000000000e+00
"in1" 0.000000000000000e+00
"net13" 1.178932455734474e+00
"out" 1.218992246258410e+00
"V0:p" -8.961402169545790e-07
"V1:p" -7.257203224139782e-07
"VDD:p" 1.641634667013681e-06
"VSS:p" -1.977412764534151e-08
"vdd" 1.200000000000000e+00
"vss" 0.000000000000000e+00
"time" 6.235841867504185e-11
"in0" 1.200000000000000e+00
"in1" 0.000000000000000e+00
"net13" 1.178429985080785e+00
"out" 1.216373882745006e+00
"V0:p" -5.000108089841016e-07
"V1:p" -6.852446531719263e-07
"VDD:p" 1.222525533830119e-06
"VSS:p" -3.727007167382066e-08
"vdd" 1.200000000000000e+00
"vss" 0.000000000000000e+00
"time" 6.435841867504186e-11
"in0" 1.200000000000000e+00
"in1" 0.000000000000000e+00
"net13" 1.177995823172871e+00
"out" 1.214113244014606e+00
"V0:p" -7.034410015186178e-07
"V1:p" -5.239640468668965e-07
"VDD:p" 1.239394470681786e-06
"VSS:p" -1.198942229635288e-08
"vdd" 1.200000000000000e+00
"vss" 0.000000000000000e+00
"time" 6.635841867504187e-11
"in0" 1.200000000000000e+00
"in1" 0.000000000000000e+00
"net13" 1.177620810556459e+00
"out" 1.212161911639161e+00
"V0:p" -3.338898123136641e-07
"V1:p" -5.123705606751920e-07
"VDD:p" 8.767883595372421e-07
"VSS:p" -3.052798654807462e-08
"vdd" 1.200000000000000e+00
"vss" 0.000000000000000e+00
"time" 6.835841867504187e-11
"in0" 1.200000000000000e+00
"in1" 0.000000000000000e+00
"net13" 1.177296998051796e+00
"out" 1.210477979468073e+00
"V0:p" -5.601981327684354e-07
"V1:p" -3.758441937383470e-07
"VDD:p" 9.421948295211868e-07
"VSS:p" -6.152503014594615e-09
"vdd" 1.200000000000000e+00
"vss" 0.000000000000000e+00
"time" 7.035841867504188e-11
"in0" 1.200000000000000e+00
"in1" 0.000000000000000e+00
"net13" 1.177017489777994e+00
"out" 1.209025179937875e+00
"V0:p" -2.103527238466182e-07
"V1:p" -3.854701373873800e-07
"VDD:p" 6.212993892687229e-07
"VSS:p" -2.547652803473789e-08
"vdd" 1.200000000000000e+00
"vss" 0.000000000000000e+00
"time" 7.235841867504188e-11
"in0" 1.200000000000000e+00
"in1" 0.000000000000000e+00
"net13" 1.176776305397508e+00
"out" 1.207772124966771e+00
"V0:p" -4.536450448012776e-07
"V1:p" -2.671316042918724e-07
"VDD:p" 7.225590459724198e-07
"VSS:p" -1.782396878944440e-09
"vdd" 1.200000000000000e+00
"vss" 0.000000000000000e+00
"time" 7.435841867504189e-11
"in0" 1.200000000000000e+00
"in1" 0.000000000000000e+00
"net13" 1.176568259848638e+00
"out" 1.206691648755223e+00
"V0:p" -1.184460818736342e-07
"V1:p" -2.923433406156654e-07
"VDD:p" 4.324867201170687e-07
"VSS:p" -2.169729762790459e-08
"vdd" 1.200000000000000e+00
"vss" 0.000000000000000e+00
"time" 7.635841867504190e-11
"in0" 1.200000000000000e+00
"in1" 0.000000000000000e+00
"net13" 1.176388858697054e+00
"out" 1.205760240010062e+00
"V0:p" -3.743748962186562e-07
"V1:p" -1.873569292442252e-07
"VDD:p" 5.602472635097737e-07
"VSS:p" 1.484561953202861e-09
"vdd" 1.200000000000000e+00
"vss" 0.000000000000000e+00
"time" 7.835841867504190e-11
"in0" 1.200000000000000e+00
"in1" 0.000000000000000e+00
"net13" 1.176234207241845e+00
"out" 1.204957551821231e+00
"V0:p" -5.008202460595442e-08
"V1:p" -2.240039339904161e-07
"VDD:p" 2.929602850919756e-07
"VSS:p" -1.887432649616082e-08
"vdd" 1.200000000000000e+00
"vss" 0.000000000000000e+00
"time" 8.035841867504191e-11
"in0" 1.200000000000000e+00
"in1" 0.000000000000000e+00
"net13" 1.176100931615092e+00
"out" 1.204265978478434e+00
"V0:p" -3.154254550570495e-07
"V1:p" -1.288087783441102e-07
"VDD:p" 4.403113688350528e-07
"VSS:p" 3.922864566838681e-09
"vdd" 1.200000000000000e+00
"vss" 0.000000000000000e+00
"time" 8.235841867504191e-11
"in0" 1.200000000000000e+00
"in1" 0.000000000000000e+00
"net13" 1.175986110276784e+00
"out" 1.203670289752113e+00
"V0:p" 7.396401931367036e-10
"V1:p" -1.738380106967319e-07
"VDD:p" 1.898675319470016e-07
"VSS:p" -1.676916144394853e-08
"vdd" 1.200000000000000e+00
"vss" 0.000000000000000e+00
"time" 8.435841867504192e-11
"in0" 1.200000000000000e+00
"in1" 0.000000000000000e+00
"net13" 1.175887214495276e+00
"out" 1.203157314436066e+00
"V0:p" -2.716203983619973e-07
"V1:p" -8.581827651445960e-08
"VDD:p" 3.516990220555156e-07
"VSS:p" 5.739652821605315e-09
"vdd" 1.200000000000000e+00
"vss" 0.000000000000000e+00
"time" 8.635841867504193e-11
"in0" 1.200000000000000e+00
"in1" 0.000000000000000e+00
"net13" 1.175802056592964e+00
"out" 1.202715666154046e+00
"V0:p" 3.848810818709813e-08
"V1:p" -1.369899314638650e-07
"VDD:p" 1.137037020716144e-07
"VSS:p" -1.520187879606744e-08
"vdd" 1.200000000000000e+00
"vss" 0.000000000000000e+00
"time" 8.835841867504193e-11
"in0" 1.200000000000000e+00
"in1" 0.000000000000000e+00
"net13" 1.175728744912298e+00
"out" 1.202335505509185e+00
"V0:p" -2.390988114997143e-07
"V1:p" -5.422879182365826e-08
"VDD:p" 2.862364290870691e-07
"VSS:p" 7.091174237496342e-09
"vdd" 1.200000000000000e+00
"vss" 0.000000000000000e+00
