HEADER
"PSFversion" "1.00"
"simulator" "spectre"
"version" "19.1.0.237.isr3"
"date" "4:07:59 PM, Tue Aug 30, 2022"
"design" "// Generated for: spectre"
"analysis type" "tran"
"analysis name" "sim"
"analysis description" "Transient Analysis `sim': time = (0 s -> 100 ps)"
"xVecSorted" "ascending"
"tolerance.relative" 0.00100000
"start" 0.00000
"outputstart" 0.00000
"stop" 1.00000e-10
"step" 1.00000e-13
"istep" 0.00100000
"maxstep" 2.00000e-12
"ic" "all"
"useprevic" "no"
"skipdc" "no"
"reltol" 0.00100000
"abstol(V)" 1.00000e-06
"abstol(I)" 1.00000e-12
"temp" 27.0000
"tnom" 27.0000
"tempeffects" "all"
"errpreset" "moderate"
"method" "traponly"
"lteratio" 3.50000
"relref" "sigglobal"
"cmin" 0.00000
"gmin" 1.00000e-12
TYPE
"sweep" FLOAT DOUBLE PROP(
"key" "sweep"
)
"LogicV" FLOAT DOUBLE PROP(
"key" "node"
)
"Tau" FLOAT DOUBLE PROP(
"units" "N*m"
"key" "node"
"tolerance" 1.00000e-06
)
"Alpha" FLOAT DOUBLE PROP(
"units" "rads/s^2"
"key" "node"
"tolerance" 1.00000e-06
)
"Omega" FLOAT DOUBLE PROP(
"units" "rads/s"
"key" "node"
"tolerance" 1.00000e-06
)
"Theta" FLOAT DOUBLE PROP(
"units" "rads"
"key" "node"
"tolerance" 1.00000e-06
)
"F" FLOAT DOUBLE PROP(
"units" "N"
"key" "node"
"tolerance" 1.00000e-06
)
"Imp" FLOAT DOUBLE PROP(
"units" "m/s^3"
"key" "node"
"tolerance" 1.00000e-06
)
"Acc" FLOAT DOUBLE PROP(
"units" "m/s^2"
"key" "node"
"tolerance" 1.00000e-06
)
"Vel" FLOAT DOUBLE PROP(
"units" "m/s"
"key" "node"
"tolerance" 1.00000e-06
)
"Pos" FLOAT DOUBLE PROP(
"units" "m"
"key" "node"
"tolerance" 1.00000e-06
)
"Phi" FLOAT DOUBLE PROP(
"units" "Wb"
"key" "node"
"tolerance" 1.00000e-09
)
"V" FLOAT DOUBLE PROP(
"units" "V"
"key" "node"
"tolerance" 1.00000e-06
)
"I" FLOAT DOUBLE PROP(
"units" "A"
"key" "branch"
"tolerance" 1.00000e-12
)
"MMF" FLOAT DOUBLE PROP(
"units" "A*turn"
"key" "node"
"tolerance" 1.00000e-12
)
"Wb" FLOAT DOUBLE PROP(
"units" "Wb"
"key" "node"
"tolerance" 1.00000e-09
)
"Temp" FLOAT DOUBLE PROP(
"units" "C"
"key" "node"
"tolerance" 0.000100000
)
"Pwr" FLOAT DOUBLE PROP(
"units" "W"
"key" "node"
"tolerance" 1.00000e-09
)
"U" FLOAT DOUBLE PROP(
"units" ""
"key" "node"
"tolerance" 1.00000e-06
)
"V/Sec" FLOAT DOUBLE PROP(
"units" "V/s"
"key" "node"
"tolerance" 0.000100000
)
"I/Sec" FLOAT DOUBLE PROP(
"units" "A/s"
"key" "node"
"tolerance" 1.00000e-06
)
"1/Sec" FLOAT DOUBLE PROP(
"units" "1/s"
"key" "node"
"tolerance" 0.000100000
)
"HOD" FLOAT DOUBLE PROP(
"units" ""
"key" "node"
"tolerance" 0.0100000
)
"Q" FLOAT DOUBLE PROP(
"units" "coul"
"key" "node"
"tolerance" 1.00000e-14
)
SWEEP
"time" "sweep" PROP(
"sweep_direction" 0
"units" "s"
"plot" 0
"grid" 1
)
TRACE
"GND:p" "I"
"in0" "V"
"in1" "V"
"net13" "V"
"out" "V"
"V0:p" "I"
"V1:p" "I"
"VDD:p" "I"
"vdd" "V"
"vss" "V"
VALUE
"time" 0.000000000000000e+00
"GND:p" 1.513562509904299e-10
"in0" 0.000000000000000e+00
"in1" 1.200000000000000e+00
"net13" 2.522254161175162e-07
"out" 1.199998608538689e+00
"V0:p" 3.016577400687568e-11
"V1:p" -2.292918816276842e-11
"VDD:p" -1.585927201598540e-10
"vdd" 1.200000000000000e+00
"vss" 0.000000000000000e+00
"time" 1.000000000000000e-13
"GND:p" 1.310194248516066e-07
"in0" 0.000000000000000e+00
"in1" 1.200000000000000e+00
"net13" 3.527098223145792e-05
"out" 1.200442387961970e+00
"V0:p" 3.270320696572891e-06
"V1:p" 1.086531830247870e-06
"VDD:p" -4.487871951669764e-06
"vdd" 1.200000000000000e+00
"vss" 0.000000000000000e+00
"time" 3.000000000000000e-13
"GND:p" 4.421963461246566e-07
"in0" 0.000000000000000e+00
"in1" 1.200000000000000e+00
"net13" 2.322390034149550e-04
"out" 1.203069479481646e+00
"V0:p" 9.669156109941975e-06
"V1:p" 3.264939896400463e-06
"VDD:p" -1.337629235246753e-05
"vdd" 1.200000000000000e+00
"vss" 0.000000000000000e+00
"time" 7.000000000000000e-13
"GND:p" 1.140464133910481e-06
"in0" 0.000000000000000e+00
"in1" 1.200000000000000e+00
"net13" 8.500123763768192e-04
"out" 1.211661943149150e+00
"V0:p" 2.200065652337205e-05
"V1:p" 8.099128717586128e-06
"VDD:p" -3.124024937486649e-05
"vdd" 1.200000000000000e+00
"vss" 0.000000000000000e+00
"time" 1.213156935153389e-12
"GND:p" 2.236334275339678e-06
"in0" 0.000000000000000e+00
"in1" 1.200000000000000e+00
"net13" 2.208193290458732e-03
"out" 1.232103915051493e+00
"V0:p" 3.700216740007833e-05
"V1:p" 1.484089280443704e-05
"VDD:p" -5.407939447985722e-05
"vdd" 1.200000000000000e+00
"vss" 0.000000000000000e+00
"time" 2.023629604711298e-12
"GND:p" 4.246805988536029e-06
"in0" 0.000000000000000e+00
"in1" 1.200000000000000e+00
"net13" 5.233633274526554e-03
"out" 1.284118274080758e+00
"V0:p" 5.937888660958305e-05
"V1:p" 2.634435024042842e-05
"VDD:p" -8.997004283854686e-05
"vdd" 1.200000000000000e+00
"vss" 0.000000000000000e+00
"time" 3.483407877424440e-12
"GND:p" 7.963287578175909e-06
"in0" 0.000000000000000e+00
"in1" 1.200000000000000e+00
"net13" 1.179345934445523e-02
"out" 1.427877349690829e+00
"V0:p" 9.437490126297971e-05
"V1:p" 5.446273384468990e-05
"VDD:p" -1.568009226858458e-04
"vdd" 1.200000000000000e+00
"vss" 0.000000000000000e+00
"time" 4.241703938712220e-12
"GND:p" 9.559828318406498e-06
"in0" 0.000000000000000e+00
"in1" 1.200000000000000e+00
"net13" 1.512486501803162e-02
"out" 1.521944790963532e+00
"V0:p" 1.086090544859845e-04
"V1:p" 7.779570170553008e-05
"VDD:p" -1.959645845099204e-04
"vdd" 1.200000000000000e+00
"vss" 0.000000000000000e+00
"time" 5.000000000000000e-12
"GND:p" 1.116629930886437e-05
"in0" 0.000000000000000e+00
"in1" 1.200000000000000e+00
"net13" 1.817387050489827e-02
"out" 1.626191379009582e+00
"V0:p" 1.252095752122097e-04
"V1:p" 9.100436085640583e-05
"VDD:p" -2.273802353774806e-04
"vdd" 1.200000000000000e+00
"vss" 0.000000000000000e+00
"time" 5.999999999999999e-12
"GND:p" 1.154992597225294e-05
"in0" 0.000000000000000e+00
"in1" 1.200000000000000e+00
"net13" 2.009398180912541e-02
"out" 1.756543035974240e+00
"V0:p" 1.153828218839590e-04
"V1:p" 8.639045909154167e-05
"VDD:p" -2.133232069477535e-04
"vdd" 1.200000000000000e+00
"vss" 0.000000000000000e+00
"time" 6.545183934175489e-12
"GND:p" 1.085642605423261e-05
"in0" 0.000000000000000e+00
"in1" 1.200000000000000e+00
"net13" 2.001630229730527e-02
"out" 1.813507731093029e+00
"V0:p" 9.490523285035074e-05
"V1:p" 7.085807751363968e-05
"VDD:p" -1.766197364182230e-04
"vdd" 1.200000000000000e+00
"vss" 0.000000000000000e+00
"time" 7.469991372372406e-12
"GND:p" 9.319748246985434e-06
"in0" 0.000000000000000e+00
"in1" 1.200000000000000e+00
"net13" 1.868094617344826e-02
"out" 1.891800410467568e+00
"V0:p" 6.098950130530609e-05
"V1:p" 4.426101483392778e-05
"VDD:p" -1.145702643862197e-04
"vdd" 1.200000000000000e+00
"vss" 0.000000000000000e+00
"time" 8.981622874065575e-12
"GND:p" 5.902549922906133e-06
"in0" 0.000000000000000e+00
"in1" 1.200000000000000e+00
"net13" 1.329689811750060e-02
"out" 1.950427564141658e+00
"V0:p" 9.534184718683844e-06
"V1:p" 5.565712726191527e-06
"VDD:p" -2.100244736778173e-05
"vdd" 1.200000000000000e+00
"vss" 0.000000000000000e+00
"time" 9.990811437032788e-12
"GND:p" 3.127420378001780e-06
"in0" 0.000000000000000e+00
"in1" 1.200000000000000e+00
"net13" 8.563737783086476e-03
"out" 1.946432679402335e+00
"V0:p" -2.018192202165741e-05
"V1:p" -1.684329383692842e-05
"VDD:p" 3.389779548058599e-05
"vdd" 1.200000000000000e+00
"vss" 0.000000000000000e+00
"time" 1.100000000000000e-11
"GND:p" 3.970105007930965e-07
"in0" 0.000000000000000e+00
"in1" 1.200000000000000e+00
"net13" 3.551560398756141e-03
"out" 1.911610675517721e+00
"V0:p" -4.817734585804834e-05
"V1:p" -3.750268745975387e-05
"VDD:p" 8.528302281700606e-05
"vdd" 1.200000000000000e+00
"vss" 0.000000000000000e+00
"time" 1.300000000000000e-11
"GND:p" -1.462485318824462e-06
"in0" 0.000000000000000e+00
"in1" 1.200000000000000e+00
"net13" -1.729354160869571e-03
"out" 1.827188889068076e+00
"V0:p" -4.016892153473962e-05
"V1:p" -3.087400412058475e-05
"VDD:p" 7.250541097414877e-05
"vdd" 1.200000000000000e+00
"vss" 0.000000000000000e+00
"time" 1.403420830070125e-11
"GND:p" -1.528340747380885e-06
"in0" 0.000000000000000e+00
"in1" 1.200000000000000e+00
"net13" -4.307177196870664e-03
"out" 1.784842533326476e+00
"V0:p" -3.645992083613610e-05
"V1:p" -2.824459561419054e-05
"VDD:p" 6.623285719770773e-05
"vdd" 1.200000000000000e+00
"vss" 0.000000000000000e+00
"time" 1.588716687453891e-11
"GND:p" -4.057130400201531e-06
"in0" 0.000000000000000e+00
"in1" 1.200000000000000e+00
"net13" -6.000589803150845e-03
"out" 1.716712667862051e+00
"V0:p" -3.028073693525939e-05
"V1:p" -2.232139405291336e-05
"VDD:p" 5.665926138837405e-05
"vdd" 1.200000000000000e+00
"vss" 0.000000000000000e+00
"time" 1.788716687453891e-11
"GND:p" -2.591107906697689e-06
"in0" 0.000000000000000e+00
"in1" 1.200000000000000e+00
"net13" -5.985257654473729e-03
"out" 1.652778835430672e+00
"V0:p" -2.586449906156250e-05
"V1:p" -1.939682425832043e-05
"VDD:p" 4.785243122658105e-05
"vdd" 1.200000000000000e+00
"vss" 0.000000000000000e+00
"time" 1.988716687453891e-11
"GND:p" -3.799137928263359e-06
"in0" 0.000000000000000e+00
"in1" 1.200000000000000e+00
"net13" -5.470945917620590e-03
"out" 1.597066671864631e+00
"V0:p" -2.176975511636327e-05
"V1:p" -1.522791361373716e-05
"VDD:p" 4.079680665836401e-05
"vdd" 1.200000000000000e+00
"vss" 0.000000000000000e+00
"time" 2.188716687453891e-11
"GND:p" -1.992344804370883e-06
"in0" 0.000000000000000e+00
"in1" 1.200000000000000e+00
"net13" -4.898022920333642e-03
"out" 1.548119666183444e+00
"V0:p" -1.915614072015677e-05
"V1:p" -1.360414944002678e-05
"VDD:p" 3.475263496455400e-05
"vdd" 1.200000000000000e+00
"vss" 0.000000000000000e+00
"time" 2.388716687453891e-11
"GND:p" -3.186751355731479e-06
"in0" 0.000000000000000e+00
"in1" 1.200000000000000e+00
"net13" -4.372817608396654e-03
"out" 1.504838362609974e+00
"V0:p" -1.633462887076952e-05
"V1:p" -1.034923806473773e-05
"VDD:p" 2.987061829123850e-05
"vdd" 1.200000000000000e+00
"vss" 0.000000000000000e+00
"time" 2.588716687453891e-11
"GND:p" -1.438321908874669e-06
"in0" 0.000000000000000e+00
"in1" 1.200000000000000e+00
"net13" -3.906605121086920e-03
"out" 1.466445864483797e+00
"V0:p" -1.460524771822486e-05
"V1:p" -9.448346492620737e-06
"VDD:p" 2.549191611972081e-05
"vdd" 1.200000000000000e+00
"vss" 0.000000000000000e+00
"time" 2.788716687453891e-11
"GND:p" -2.692964155112805e-06
"in0" 0.000000000000000e+00
"in1" 1.200000000000000e+00
"net13" -3.488642640776512e-03
"out" 1.432397004603697e+00
"V0:p" -1.240809091276376e-05
"V1:p" -6.820842358155835e-06
"VDD:p" 2.192189742603294e-05
"vdd" 1.200000000000000e+00
"vss" 0.000000000000000e+00
"time" 2.988716687453890e-11
"GND:p" -9.929527526025456e-07
"in0" 0.000000000000000e+00
"in1" 1.200000000000000e+00
"net13" -3.108385998062269e-03
"out" 1.402274364651551e+00
"V0:p" -1.115510736005956e-05
"V1:p" -6.493622625435778e-06
"VDD:p" 1.864168273809680e-05
"vdd" 1.200000000000000e+00
"vss" 0.000000000000000e+00
"time" 3.188716687453890e-11
"GND:p" -2.286520809909688e-06
"in0" 0.000000000000000e+00
"in1" 1.200000000000000e+00
"net13" -2.759849749288760e-03
"out" 1.375718308508152e+00
"V0:p" -9.355766364665688e-06
"V1:p" -4.386404250486757e-06
"VDD:p" 1.602869142506344e-05
"vdd" 1.200000000000000e+00
"vss" 0.000000000000000e+00
"time" 3.388716687453890e-11
"GND:p" -6.204519045777496e-07
"in0" 0.000000000000000e+00
"in1" 1.200000000000000e+00
"net13" -2.440474041594298e-03
"out" 1.352393877957935e+00
"V0:p" -8.455167081057378e-06
"V1:p" -4.513153296384471e-06
"VDD:p" 1.358877228201786e-05
"vdd" 1.200000000000000e+00
"vss" 0.000000000000000e+00
"time" 3.588716687453890e-11
"GND:p" -1.945908361215240e-06
"in0" 0.000000000000000e+00
"in1" 1.200000000000000e+00
"net13" -2.149322641888212e-03
"out" 1.331979800523676e+00
"V0:p" -6.975976773939134e-06
"V1:p" -2.786699341119322e-06
"VDD:p" 1.170858447627522e-05
"vdd" 1.200000000000000e+00
"vss" 0.000000000000000e+00
"time" 3.788716687453890e-11
"GND:p" -3.108777546497829e-07
"in0" 0.000000000000000e+00
"in1" 1.200000000000000e+00
"net13" -1.885847253358749e-03
"out" 1.314168011970751e+00
"V0:p" -6.367414639129857e-06
"V1:p" -3.223667142316077e-06
"VDD:p" 9.901959536094524e-06
"vdd" 1.200000000000000e+00
"vss" 0.000000000000000e+00
"time" 3.988716687453890e-11
"GND:p" -1.666653951423915e-06
"in0" 0.000000000000000e+00
"in1" 1.200000000000000e+00
"net13" -1.649269228711236e-03
"out" 1.298666989102149e+00
"V0:p" -5.152922818669375e-06
"V1:p" -1.745568582241693e-06
"VDD:p" 8.565145352335745e-06
"vdd" 1.200000000000000e+00
"vss" 0.000000000000000e+00
"time" 4.188716687453890e-11
"GND:p" -6.087410794467881e-08
"in0" 0.000000000000000e+00
"in1" 1.200000000000000e+00
"net13" -1.438383372262593e-03
"out" 1.285205411784105e+00
"V0:p" -4.781908539544814e-06
"V1:p" -2.379740773914479e-06
"VDD:p" 7.222523421402998e-06
"vdd" 1.200000000000000e+00
"vss" 0.000000000000000e+00
"time" 4.388716687453890e-11
"GND:p" -1.444373902449205e-06
"in0" 0.000000000000000e+00
"in1" 1.200000000000000e+00
"net13" -1.251589185540266e-03
"out" 1.273534706056279e+00
"V0:p" -3.778480409816949e-06
"V1:p" -1.057970044897996e-06
"VDD:p" 6.280824357165018e-06
"vdd" 1.200000000000000e+00
"vss" 0.000000000000000e+00
"time" 4.588716687453890e-11
"GND:p" 1.355892316012465e-07
"in0" 0.000000000000000e+00
"in1" 1.200000000000000e+00
"net13" -1.087012782305172e-03
"out" 1.263430158721257e+00
"V0:p" -3.593388807358114e-06
"V1:p" -1.816378139891802e-06
"VDD:p" 5.274177715648453e-06
"vdd" 1.200000000000000e+00
"vss" 0.000000000000000e+00
"time" 4.788716687453890e-11
"GND:p" -1.271582368307095e-06
"in0" 0.000000000000000e+00
"in1" 1.200000000000000e+00
"net13" -9.426421717815672e-04
"out" 1.254690803943647e+00
"V0:p" -2.752610573943860e-06
"V1:p" -5.938315908112159e-07
"VDD:p" 4.618024533062281e-06
"vdd" 1.200000000000000e+00
"vss" 0.000000000000000e+00
"time" 4.988716687453890e-11
"GND:p" 2.869520245935842e-07
"in0" 0.000000000000000e+00
"in1" 1.200000000000000e+00
"net13" -8.164413736798022e-04
"out" 1.247138431943126e+00
"V0:p" -2.709057610663121e-06
"V1:p" -1.431988429111405e-06
"VDD:p" 3.854094015181266e-06
"vdd" 1.200000000000000e+00
"vss" 0.000000000000000e+00
"time" 5.188716687453890e-11
"GND:p" -1.139418713535908e-06
"in0" 0.000000000000000e+00
"in1" 1.200000000000000e+00
"net13" -7.064335264129214e-04
"out" 1.240616053386625e+00
"V0:p" -1.990960351720838e-06
"V1:p" -2.739831961861303e-07
"VDD:p" 3.404362261442443e-06
"vdd" 1.200000000000000e+00
"vss" 0.000000000000000e+00
"time" 5.388716687453890e-11
"GND:p" 4.020545731928679e-07
"in0" 0.000000000000000e+00
"in1" 1.200000000000000e+00
"net13" -6.107548191683060e-04
"out" 1.234986080566883e+00
"V0:p" -2.053435068927338e-06
"V1:p" -1.164747182363647e-06
"VDD:p" 2.816127678098876e-06
"vdd" 1.200000000000000e+00
"vss" 0.000000000000000e+00
"time" 5.588716687453890e-11
"GND:p" -1.039379429035255e-06
"in0" 0.000000000000000e+00
"in1" 1.200000000000000e+00
"net13" -5.276852009752139e-04
"out" 1.230128408794374e+00
"V0:p" -1.426781804602270e-06
"V1:p" -4.992420007508593e-08
"VDD:p" 2.516085433712178e-06
"vdd" 1.200000000000000e+00
"vss" 0.000000000000000e+00
"time" 5.788716687453890e-11
"GND:p" 4.888622938113788e-07
"in0" 0.000000000000000e+00
"in1" 1.200000000000000e+00
"net13" -4.556622746306532e-04
"out" 1.225938517195146e+00
"V0:p" -1.568007896140124e-06
"V1:p" -9.763725743641347e-07
"VDD:p" 2.055518176692662e-06
"vdd" 1.200000000000000e+00
"vss" 0.000000000000000e+00
"time" 5.988716687453890e-11
"GND:p" -9.641476309283142e-07
"in0" 0.000000000000000e+00
"in1" 1.200000000000000e+00
"net13" -3.932837982568871e-04
"out" 1.222325660952736e+00
"V0:p" -1.009109848855553e-06
"V1:p" 1.087799376198241e-07
"VDD:p" 1.864477542164586e-06
"vdd" 1.200000000000000e+00
"vss" 0.000000000000000e+00
"time" 6.188716687453891e-11
"GND:p" 5.539984936274706e-07
"in0" 0.000000000000000e+00
"in1" 1.200000000000000e+00
"net13" -3.393028936481353e-04
"out" 1.219211194844136e+00
"V0:p" -1.208597528904470e-06
"V1:p" -8.424716652875414e-07
"VDD:p" 1.497070700563241e-06
"vdd" 1.200000000000000e+00
"vss" 0.000000000000000e+00
"time" 6.388716687453892e-11
"GND:p" -9.077945908761921e-07
"in0" 0.000000000000000e+00
"in1" 1.200000000000000e+00
"net13" -2.926188632097622e-04
"out" 1.216527047010852e+00
"V0:p" -6.997858630525501e-07
"V1:p" 2.218546119971849e-07
"VDD:p" 1.385725841932533e-06
"vdd" 1.200000000000000e+00
"vss" 0.000000000000000e+00
"time" 6.588716687453892e-11
"GND:p" 6.027242761290122e-07
"in0" 0.000000000000000e+00
"in1" 1.200000000000000e+00
"net13" -2.522655912764728e-04
"out" 1.214214348743360e+00
"V0:p" -9.423332921791201e-07
"V1:p" -7.469422333775469e-07
"VDD:p" 1.086551249426679e-06
"vdd" 1.200000000000000e+00
"vss" 0.000000000000000e+00
"time" 6.788716687453893e-11
"GND:p" -8.656833082775143e-07
"in0" 0.000000000000000e+00
"in1" 1.200000000000000e+00
"net13" -2.173988507550011e-04
"out" 1.212222217869167e+00
"V0:p" -4.705494820659855e-07
"V1:p" 3.025701219913765e-07
"VDD:p" 1.033662668352990e-06
"vdd" 1.200000000000000e+00
"vss" 0.000000000000000e+00
"time" 6.988716687453893e-11
"GND:p" 6.391048531181214e-07
"in0" 0.000000000000000e+00
"in1" 1.200000000000000e+00
"net13" -1.872833959489129e-04
"out" 1.210506688225330e+00
"V0:p" -7.449501450769309e-07
"V1:p" -6.787493005200940e-07
"VDD:p" 7.845945924774940e-07
"vdd" 1.200000000000000e+00
"vss" 0.000000000000000e+00
"time" 7.188716687453894e-11
"GND:p" -8.342644709017664e-07
"in0" 0.000000000000000e+00
"in1" 1.200000000000000e+00
"net13" -1.612804292333535e-04
"out" 1.209029774526486e+00
"V0:p" -3.005807823848370e-07
"V1:p" 3.601740363831526e-07
"VDD:p" 7.746712169050760e-07
"vdd" 1.200000000000000e+00
"vss" 0.000000000000000e+00
"time" 7.388716687453895e-11
"GND:p" 6.662296236885032e-07
"in0" 0.000000000000000e+00
"in1" 1.200000000000000e+00
"net13" -1.388358259230759e-04
"out" 1.207758660104459e+00
"V0:p" -5.985868163532264e-07
"V1:p" -6.300965775434173e-07
"VDD:p" 5.624537702070553e-07
"vdd" 1.200000000000000e+00
"vss" 0.000000000000000e+00
"time" 7.588716687453895e-11
"GND:p" -8.108548057347066e-07
"in0" 0.000000000000000e+00
"in1" 1.200000000000000e+00
"net13" -1.194693504399961e-04
"out" 1.206664994186272e+00
"V0:p" -1.745516483315064e-07
"V1:p" 4.012653716609810e-07
"VDD:p" 5.841410824067499e-07
"vdd" 1.200000000000000e+00
"vss" 0.000000000000000e+00
"time" 7.788716687453896e-11
"GND:p" 6.864258604275917e-07
"in0" 0.000000000000000e+00
"in1" 1.200000000000000e+00
"net13" -1.027649785355974e-04
"out" 1.205724285395399e+00
"V0:p" -4.900798852040201e-07
"V1:p" -5.953871513727402e-07
"VDD:p" 3.990411761472164e-07
"vdd" 1.200000000000000e+00
"vss" 0.000000000000000e+00
"time" 7.988716687453896e-11
"GND:p" -7.934374155525558e-07
"in0" 0.000000000000000e+00
"in1" 1.200000000000000e+00
"net13" -8.836234820604274e-05
"out" 1.204915378817606e+00
"V0:p" -8.114710204333625e-08
"V1:p" 4.305927918324889e-07
"VDD:p" 4.439917257654624e-07
"vdd" 1.200000000000000e+00
"vss" 0.000000000000000e+00
"time" 8.188716687453897e-11
"GND:p" 7.014408497851767e-07
"in0" 0.000000000000000e+00
"in1" 1.200000000000000e+00
"net13" -7.594929476136098e-05
"out" 1.204220005062508e+00
"V0:p" -4.096933005781268e-07
"V1:p" -5.705955809180708e-07
"VDD:p" 2.788480317082016e-07
"vdd" 1.200000000000000e+00
"vss" 0.000000000000000e+00
"time" 8.388716687453898e-11
"GND:p" -7.804987186150749e-07
"in0" 0.000000000000000e+00
"in1" 1.200000000000000e+00
"net13" -6.525538238297049e-05
"out" 1.203622391072219e+00
"V0:p" -1.198144156131811e-08
"V1:p" 4.515630924839485e-07
"VDD:p" 3.409170676949387e-07
"vdd" 1.200000000000000e+00
"vss" 0.000000000000000e+00
"time" 8.588716687453898e-11
"GND:p" 7.125857718783892e-07
"in0" 0.000000000000000e+00
"in1" 1.200000000000000e+00
"net13" -5.604632251446339e-05
"out" 1.203108923806217e+00
"V0:p" -3.501983039963650e-07
"V1:p" -5.528442834757901e-07
"VDD:p" 1.904568155910555e-07
"vdd" 1.200000000000000e+00
"vss" 0.000000000000000e+00
"time" 8.788716687453899e-11
"GND:p" -7.709028261386775e-07
"in0" 0.000000000000000e+00
"in1" 1.200000000000000e+00
"net13" -4.811916390612060e-05
"out" 1.202667859242437e+00
"V0:p" 3.918080171898095e-08
"V1:p" 4.666021393148736e-07
"VDD:p" 2.651198851076416e-07
"vdd" 1.200000000000000e+00
"vss" 0.000000000000000e+00
