Title: // Generated for: spectre
Date: 3:59:06 PM, Wed Apr 9, 2008
Plotname: Transient Analysis `tran': time = (0 s -> 6 ns)
Flags: real
No. Variables:        9
No. Points:       55
Variables:	0	time	s
		1	s0	V plot=0 grid=0
		2	s1	V plot=0 grid=0
		3	s2	V plot=0 grid=0
		4	s3	V plot=0 grid=0
		5	s4	V plot=0 grid=0
		6	s5	V plot=0 grid=0
		7	s6	V plot=0 grid=0
		8	s7	V plot=0 grid=0
Values:
 0	0	4.07939999236098e-06	8.93146251970791e-06
	8.93146251937925e-06	8.93146252014961e-06	8.93146251967361e-06
	8.93146251936652e-06	8.93146252009641e-06	8.93147503371798e-06
 1	6e-12	4.07939999240107e-06	8.93146251973847e-06
	8.93146251931419e-06	8.9314625201764e-06	8.93146251969288e-06
	8.93146245427173e-06	8.93146251799133e-06	8.93147503248785e-06
 2	1.8e-11	4.07939999241303e-06	8.93146251971113e-06
	8.93146251929483e-06	8.93146252024666e-06	8.93146251962315e-06
	8.93146251841028e-06	8.93146252068618e-06	8.93147503411972e-06
 3	4.2e-11	4.07939999239864e-06	8.93146251979998e-06
	8.93146251927822e-06	8.93146252005449e-06	8.93146251966092e-06
	8.93146254902918e-06	8.93146252081003e-06	8.93147503403489e-06
 4	9e-11	4.07939999237701e-06	8.93146251952138e-06
	8.93146251937407e-06	8.9314625203524e-06	8.93146251969294e-06
	8.93146249597794e-06	8.93146251918895e-06	8.93147503329484e-06
 5	1.86e-10	4.07939999249861e-06	8.93146251971216e-06
	8.93146251929468e-06	8.93146251991933e-06	8.93146251961967e-06
	8.93146253876502e-06	8.93146252128009e-06	8.93147503435671e-06
 6	3.06e-10	4.07939999229076e-06	8.93146251974286e-06
	8.93146251934822e-06	8.93146252037785e-06	8.93146251976152e-06
	8.93146250288071e-06	8.93146251902188e-06	8.93147503304552e-06
 7	4.26e-10	4.07939999239724e-06	8.93146251958333e-06
	8.9314625193148e-06	8.93146252005418e-06	8.93146251960427e-06
	8.93146253300433e-06	8.93146252115478e-06	8.93147503445539e-06
 8	5.46e-10	4.07939999233207e-06	8.93146251981465e-06
	8.93146251920266e-06	8.9314625202919e-06	8.93146251985678e-06
	8.93146250842701e-06	8.93146251925094e-06	8.93147503327954e-06
 9	6.66e-10	4.07939999245976e-06	8.9314625195692e-06
	8.93146251946456e-06	8.93146252003804e-06	8.93146251954014e-06
	8.93146252793224e-06	8.93146252104899e-06	8.93147503425215e-06
 10	7.86e-10	4.07939999229399e-06	8.93146251989408e-06
	8.93146251932321e-06	8.93146252027424e-06	8.93146251979642e-06
	8.93146251276603e-06	8.93146251935877e-06	8.93147503335726e-06
 11	9.06e-10	4.07939999243356e-06	8.93146251954662e-06
	8.93146251942528e-06	8.93146252001307e-06	8.93146251946244e-06
	8.93146252395527e-06	8.93146252081294e-06	8.93147503404791e-06
 12	1.026e-09	4.07939999238585e-06	8.93146251980458e-06
	8.93146251917683e-06	8.93146252023707e-06	8.93146252002563e-06
	8.93146251633924e-06	8.93146251967595e-06	8.9314750336255e-06
 13	1.146e-09	4.07939999245706e-06	8.93146251966895e-06
	8.93146251946407e-06	8.9314625200769e-06	8.93146251935267e-06
	8.93146252094871e-06	8.93146252051253e-06	8.93147503385902e-06
 14	1.266e-09	4.07939999233748e-06	8.9314625197698e-06
	8.93146251926317e-06	8.93146252022362e-06	8.93146251990292e-06
	8.93146251890221e-06	8.93146251985946e-06	8.93147503387207e-06
 15	1.386e-09	4.07939999245088e-06	8.93146251961579e-06
	8.93146251934671e-06	8.93146251998921e-06	8.93146251931789e-06
	8.93146251882836e-06	8.93146252039764e-06	8.93147503357842e-06
 16	1.506e-09	4.07939999231098e-06	8.93146251977719e-06
	8.93146251922549e-06	8.93146252023738e-06	8.93146251999229e-06
	8.93146252048597e-06	8.93146251999388e-06	8.93147503408376e-06
 17	1.626e-09	4.07939999239954e-06	8.93146251963811e-06
	8.93146251942389e-06	8.93146252002835e-06	8.93146251936338e-06
	8.93146251775597e-06	8.93146252006992e-06	8.93147503354845e-06
 18	1.746e-09	4.07939999234737e-06	8.93146251994795e-06
	8.93146251909434e-06	8.93146252017541e-06	8.93146251984409e-06
	8.93146252158167e-06	8.93146252031459e-06	8.93147503403507e-06
 19	1.866e-09	4.07939999244102e-06	8.93146251942942e-06
	8.93146251949031e-06	8.93146252021399e-06	8.93146251942651e-06
	8.93146251664773e-06	8.93146251988998e-06	8.93147503352411e-06
 20	1.986e-09	4.0793999923113e-06	8.93146252007973e-06
	8.93146251909262e-06	8.93146252006856e-06	8.93146251991478e-06
	8.93146252235189e-06	8.93146252048117e-06	8.93147503390425e-06
 21	2.106e-09	4.0793999924399e-06	8.93146251929635e-06
	8.93146251962268e-06	8.93146252013728e-06	8.93146251947718e-06
	8.93146251609457e-06	8.93146251992817e-06	8.931475033573e-06
 22	2.226e-09	4.07939999234105e-06	8.93146252015504e-06
	8.93146251909724e-06	8.93146252019952e-06	8.93146251988203e-06
	8.93146252274885e-06	8.9314625206452e-06	8.93147503399081e-06
 23	2.346e-09	4.07939999243839e-06	8.93146251920487e-06
	8.93146251941552e-06	8.9314625201743e-06	8.93146251942395e-06
	8.93146251601742e-06	8.93146251972041e-06	8.93147503351544e-06
 24	2.466e-09	4.07939999230463e-06	8.9314625202643e-06
	8.93146251916569e-06	8.93146252021915e-06	8.93146251984105e-06
	8.93146252267464e-06	8.93146252056931e-06	8.93147503402295e-06
 25	2.586e-09	4.07939999242199e-06	8.93146251929821e-06
	8.93146251946415e-06	8.93146252018453e-06	8.93146251960035e-06
	8.93146251608343e-06	8.93146251979066e-06	8.93147503344929e-06
 26	2.706e-09	4.07939999230377e-06	8.93146252007454e-06
	8.93146251917814e-06	8.93146252022779e-06	8.93146251973434e-06
	8.93146252269167e-06	8.93146252044898e-06	8.9314750340839e-06
 27	2.826e-09	4.07939999243195e-06	8.93146251936981e-06
	8.93146251945603e-06	8.93146252002144e-06	8.93146251962027e-06
	8.9314625160576e-06	8.93146251992216e-06	8.9314750335009e-06
 28	2.946e-09	4.07939999232025e-06	8.93146251997474e-06
	8.93146251921745e-06	8.9314625203642e-06	8.93146251980645e-06
	8.9314625224509e-06	8.93146252054444e-06	8.93147503393559e-06
 29	3.066e-09	4.07939999245032e-06	8.93146251939866e-06
	8.93146251934216e-06	8.93146251998113e-06	8.931462519493e-06
	8.9314625164257e-06	8.9314625198686e-06	8.93147503374321e-06
 30	3.186e-09	4.07939999233585e-06	8.93146251998834e-06
	8.93146251933351e-06	8.93146252044621e-06	8.93146251977177e-06
	8.93146252199675e-06	8.93146252057557e-06	8.93147503377707e-06
 31	3.306e-09	4.07939999245871e-06	8.93146251948079e-06
	8.93146251930866e-06	8.93146251994516e-06	8.93146251947264e-06
	8.9314625167774e-06	8.93146251976754e-06	8.93147503378082e-06
 32	3.426e-09	4.079399992333e-06	8.93146251994946e-06
	8.93146251938139e-06	8.93146252024512e-06	8.93146251980317e-06
	8.93146252170487e-06	8.9314625205013e-06	8.93147503375303e-06
 33	3.546e-09	4.07939999244044e-06	8.93146251943774e-06
	8.93146251923645e-06	8.93146252003579e-06	8.93146251952929e-06
	8.93146251704147e-06	8.93146251991772e-06	8.9314750336259e-06
 34	3.666e-09	4.07939999229459e-06	8.93146251994332e-06
	8.93146251923633e-06	8.93146252030419e-06	8.93146251974195e-06
	8.93146252147393e-06	8.9314625204024e-06	8.93147503392385e-06
 35	3.786e-09	4.07939999237715e-06	8.93146251955186e-06
	8.93146251954488e-06	8.93146251993675e-06	8.93146251956093e-06
	8.93146251739808e-06	8.93146251999926e-06	8.93147503374582e-06
 36	3.906e-09	4.07939999243436e-06	8.93146251974942e-06
	8.93146251909517e-06	8.93146252040062e-06	8.93146251977479e-06
	8.93146252115773e-06	8.93146252029752e-06	8.93147503387757e-06
 37	4.026e-09	4.07939999229046e-06	8.93146251960284e-06
	8.93146251949519e-06	8.93146251981705e-06	8.93146251939379e-06
	8.93146251767904e-06	8.93146252005337e-06	8.93147503359739e-06
 38	4.146e-09	4.0793999924212e-06	8.93146251980806e-06
	8.93146251929428e-06	8.93146252036935e-06	8.93146251984872e-06
	8.93146252100275e-06	8.93146252025292e-06	8.93147503386587e-06
 39	4.266e-09	4.07939999234e-06	8.931462519443e-06
	8.93146251938026e-06	8.931462519867e-06	8.9314625194262e-06
	8.93146251787801e-06	8.93146252000996e-06	8.93147503371563e-06
 40	4.386e-09	4.07939999247074e-06	8.9314625199012e-06
	8.93146251937807e-06	8.93146252038703e-06	8.93146251991872e-06
	8.93146252071849e-06	8.93146252025417e-06	8.93147503381512e-06
 41	4.506e-09	4.07939999232735e-06	8.93146251953486e-06
	8.931462519392e-06	8.93146251998854e-06	8.93146251937415e-06
	8.9314625180784e-06	8.93146252004279e-06	8.93147503367717e-06
 42	4.626e-09	4.07939999239153e-06	8.93146251994163e-06
	8.93146251919216e-06	8.93146252031697e-06	8.93146251990031e-06
	8.93146252054417e-06	8.93146252024786e-06	8.93147503389761e-06
 43	4.746e-09	4.07939999235337e-06	8.9314625194714e-06
	8.93146251947739e-06	8.93146251989637e-06	8.93146251940312e-06
	8.93146251817887e-06	8.93146252004858e-06	8.93147503369954e-06
 44	4.866e-09	4.07939999243989e-06	8.93146251996227e-06
	8.93146251929362e-06	8.93146252037125e-06	8.93146251998322e-06
	8.93146252036608e-06	8.93146252031679e-06	8.9314750338106e-06
 45	4.986e-09	4.07939999234209e-06	8.93146251946074e-06
	8.93146251929959e-06	8.93146251997556e-06	8.93146251937269e-06
	8.93146251835599e-06	8.9314625199993e-06	8.93147503362836e-06
 46	5.106e-09	4.07939999242374e-06	8.93146251992076e-06
	8.93146251935642e-06	8.93146252035187e-06	8.93146251989686e-06
	8.93146252021417e-06	8.93146252031594e-06	8.93147503392861e-06
 47	5.226e-09	4.07939999231599e-06	8.93146251957177e-06
	8.93146251939346e-06	8.93146252003242e-06	8.93146251946355e-06
	8.93146251845861e-06	8.93146252008478e-06	8.93147503363668e-06
 48	5.34600000000001e-09	4.07939999244289e-06	8.9314625198187e-06
	8.93146251924591e-06	8.93146252035774e-06	8.93146251995035e-06
	8.93146252011966e-06	8.93146252028937e-06	8.93147503376641e-06
 49	5.46600000000001e-09	4.07939999231813e-06	8.93146251954031e-06
	8.93146251943854e-06	8.93146251987784e-06	8.93146251934737e-06
	8.93146251868546e-06	8.93146252000046e-06	8.93147503371334e-06
 50	5.58600000000001e-09	4.07939999242385e-06	8.93146251984714e-06
	8.9314625192483e-06	8.93146252047454e-06	8.93146251992042e-06
	8.93146251992335e-06	8.93146252031993e-06	8.93147503371328e-06
 51	5.70600000000001e-09	4.07939999233277e-06	8.93146251955968e-06
	8.93146251944306e-06	8.93146251989702e-06	8.93146251946355e-06
	8.93146251867484e-06	8.93146252001299e-06	8.93147503381431e-06
 52	5.82600000000001e-09	4.07939999246886e-06	8.93146251986889e-06
	8.93146251929926e-06	8.93146252034937e-06	8.93146251991135e-06
	8.93146251987217e-06	8.93146252029555e-06	8.9314750337662e-06
 53	5.913e-09	4.07939999234935e-06	8.93146251961137e-06
	8.93146251938711e-06	8.93146251999878e-06	8.93146251943881e-06
	8.93146251881264e-06	8.93146251988419e-06	8.93147503376287e-06
 54	6e-09	4.07939999247246e-06	8.93146251977473e-06
	8.93146251922572e-06	8.93146252029076e-06	8.93146251991305e-06
	8.93146251978325e-06	8.93146252046359e-06	8.93147503377189e-06
